EXPLAIN
TAG	GALVEIS
TITLE	LABEL	Galvanostatic EIS	Test Identifier
DATE	LABEL	25.5.2024	Date
TIME	LABEL	4:21:56	Time
NOTES	NOTES	1	Notes...
	
PSTAT	PSTAT	REF600-12055	Potentiostat
FREQINIT	QUANT	1.00000E+005	Initial Freq. (Hz)
FREQFINAL	QUANT	1.00000E-002	Final Freq. (Hz)
PTSPERDEC	QUANT	1.00000E+001	Points/decade
IACREQ	QUANT	1.59000E-001	AC Current (A rms)
IDCREQ	QUANT	0.00000E+000	DC Current (A)
AREA	QUANT	1.00000E+000	Sample Area (cm^2)
SPEED	SELECTOR	1	Optimize for:
DRIFTCOR	SELECTOR	0	Drift Correction
THD	SELECTOR	0	THD
ZGUESS	QUANT	1.00000E-001	Estimated Z (ohms)
EOC	QUANT	3.752423	Open Circuit (V)
SEQUENCER	TOGGLE	TRUE	Run as Sequence
PSTATMODEL	IQUANT	4	Pstat Model
PSTATSECTION	LABEL	REF600-12055	Pstat Section
PSTATSERIALNO	LABEL	12055	Pstat Serial Number
CTRLMODE	IQUANT	0	Control Mode
ELECTROMETER	IQUANT	0	RE=0 or CS=1
IESTAB	IQUANT	0	I/E Stability
CASPEED	IQUANT	4	Control Amp Speed
CONVENTION	IQUANT	1	Current Convention
ICHRANGE	IQUANT	2	Ich Range
ICHRANGEMODE	TOGGLE	F	Ich Auto Range
ICHOFFSETENABLE	TOGGLE	T	Ich Offset Enable
ICHOFFSET	QUANT	0	Ich Offset (V)
ICHFILTER	IQUANT	3	Ich Filter
VCHRANGE	IQUANT	2	Vch Range
VCHRANGEMODE	TOGGLE	F	Vch Auto Range
VCHOFFSETENABLE	TOGGLE	T	Vch Offset Enable
VCHOFFSET	QUANT	0	Vch Offset (V)
VCHFILTER	IQUANT	3	Vch Filter
ACHRANGE	IQUANT	2	Ach Range
ACHOFFSETENABLE	TOGGLE	F	Ach Offset Enable
ACHOFFSET	QUANT	0	Ach Offset (V)
ACHFILTER	IQUANT	1	Ach Filter
IERANGELOWERLIMIT	IQUANT	1	I/E Range Lower Limit
IERANGEMODE	TOGGLE	F	I/E AutoRange
IERANGE	IQUANT	7	I/E Range
POSFEEDENABLE	TOGGLE	F	Positive Feedback IR Comp
POSFEEDRESISTANCE	QUANT	0	Positive Feedback Resistance (ohm)
ACHSELECT	IQUANT	4	Ach Select
SENSECABLEID	IQUANT	14	Sense Cable ID
PWRCABLEID	IQUANT	14	Power Cable ID
DCCALDATE	LABEL	2/12/2024	DC Calibration Date
ACCALDATE	LABEL	2/12/2024	AC Calibration Date
THERMOSELECT	IQUANT	1	Thermo Select
FRAMEWORKVERSION	LABEL	7.10.3	Framework Version
INSTRUMENTVERSION	LABEL	4.91	Instrument Version
COMMVERSION	LABEL	2.24	Communications Version
CPUPLDVERSION	LABEL	0.00	CPU PLD Version
CTRLPLDVERSION	LABEL	0.00	CTRL PLD Version
PSTATPLDVERSION	LABEL	0.00	PSTAT PLD Version
ZCURVE	TABLE
	Pt	Time	Freq	Zreal	Zimag	Zsig	Zmod	Zphz	Idc	Vdc	IERange	Imod	Vmod	Temp
	#	s	Hz	ohm	ohm	V	ohm	°	A	V	#	A	V	°C
	0	5	100078.1	0.0999347	0.2363353	1	0.2565956	67.07887	1.66255E-005	3.752622	11	0.1596505	0.0406674	-327.6853
	1	6	79453.13	0.0840277	0.1961554	1	0.2133954	66.811	1.24775E-005	3.752634	11	0.1642864	0.0348959	-327.6853
	2	8	63140.62	0.0715204	0.1623636	1	0.1774179	66.22675	4.515168E-006	3.752651	11	0.1619777	0.0286531	-327.6853
	3	10	50203.12	0.0618039	0.1340339	1	0.1475968	65.24529	-2.274988E-006	3.752659	11	0.1609492	0.0237109	-327.6853
	4	12	39890.62	0.0543236	0.1103185	1	0.1229684	63.7832	-4.547997E-006	3.752667	11	0.1602793	0.0196857	-327.6853
	5	13	31640.63	0.0485486	0.0905414	1	0.1027361	61.79967	-1.199292E-005	3.752676	11	0.1598491	0.0164099	-327.6853
	6	15	25171.88	0.0441206	0.0745211	1	0.0866027	59.37217	-1.630606E-005	3.752675	11	0.1595517	0.013811	-327.6853
	7	17	20015.62	0.0405617	0.0613755	1	0.0735677	56.54014	-1.662649E-005	3.752687	11	0.1593571	0.01172	-327.6853
	8	18	15890.62	0.0376123	0.0505024	1	0.0629697	53.32262	-1.670467E-005	3.752698	11	0.159226	0.0100245	-327.6853
	9	20	12609.38	0.0351265	0.0414808	1	0.0543555	49.74162	-2.199644E-005	3.752706	11	0.1591433	0.0086493	-327.6853
	10	22	10078.13	0.0331073	0.0341585	1	0.0475699	45.89528	-1.983764E-005	3.752715	11	0.1590877	0.0075672	-327.6853
	11	23	8015.625	0.0314631	0.0278149	1	0.0419952	41.47824	-1.707883E-005	3.752724	11	0.1590518	0.0066791	-327.6853
	12	25	6328.125	0.0301651	0.022298	1	0.0375118	36.47177	-2.023601E-005	3.752725	11	0.1590326	0.0059654	-327.6853
	13	27	5015.625	0.0292844	0.017762	1	0.0342501	31.23828	-2.226711E-005	3.752729	11	0.1590171	0.0054462	-327.6853
	14	28	3984.375	0.0286988	0.0140363	1	0.0319474	26.06285	-3.264251E-005	3.752749	11	0.1590106	0.0050799	-327.6853
	15	30	3170.956	0.0283576	0.0109646	1	0.0304036	21.13922	-2.078246E-005	3.752757	11	0.1590056	0.0048343	-327.6853
	16	31	2527.573	0.0281962	0.0084969	1	0.0294486	16.7701	-2.143864E-005	3.752752	11	0.1590005	0.0046823	-327.6853
	17	33	1976.103	0.0281754	0.0063086	1	0.028873	12.6206	-1.545507E-005	3.75276	11	0.1590028	0.0045909	-327.6853
	18	34	1577.524	0.0282471	0.0046502	1	0.0286273	9.348504	-1.721224E-005	3.752782	11	0.159002	0.0045518	-327.6853
	19	36	1265.625	0.0283928	0.0033319	1	0.0285876	6.693131	-2.053217E-005	3.752784	11	0.158995	0.0045453	-327.6853
	20	38	998.264	0.028585	0.0022398	1	0.0286726	4.48039	-2.140657E-005	3.752786	11	0.1590028	0.004559	-327.6853
	21	39	796.875	0.0288153	0.0014708	1	0.0288528	2.921889	-2.359571E-005	3.752808	11	0.1590143	0.004588	-327.6853
	22	41	627.7902	0.0290522	0.0007187	1	0.0290611	1.417167	-1.869653E-005	3.752815	11	0.1589896	0.0046204	-327.6853
	23	42	505.5147	0.029306	0.0001649	1	0.0293065	0.3224257	-2.065761E-005	3.752829	11	0.1575974	0.004593	-327.6853
	24	44	397.9953	0.029596	-0.0002781	1	0.0295973	-0.5382836	-1.945847E-005	3.752836	11	0.1606035	0.0047339	-327.6853
	25	45	315.5048	0.0298863	-0.0006279	1	0.0298929	-1.203631	-2.065398E-005	3.752847	11	0.1593353	0.0047496	-327.6853
	26	47	252.4038	0.0301626	-0.0009082	1	0.0301762	-1.7247	-1.762691E-005	3.752856	11	0.1589747	0.0047882	-327.6853
	27	48	198.6229	0.0304661	-0.0011457	1	0.0304876	-2.153622	-1.936161E-005	3.752864	11	0.1588788	0.004838	-327.6853
	28	50	158.3615	0.0307597	-0.0013288	1	0.0307883	-2.473585	-1.817266E-005	3.752874	11	0.1588844	0.004888	-327.6853
	29	51	125.558	0.0310666	-0.0014758	1	0.0311016	-2.719719	-1.319044E-005	3.752881	11	0.1589128	0.00494	-327.6853
	30	53	100.4464	0.0313654	-0.0015836	1	0.0314054	-2.890263	-1.444505E-005	3.752892	11	0.1589478	0.0049902	-327.6853
	31	54	79.00281	0.0316925	-0.0016713	1	0.0317366	-3.018637	-2.288038E-005	3.7529	11	0.1589551	0.0050437	-327.6853
	32	56	63.3446	0.0319934	-0.0017207	1	0.0320396	-3.078515	-2.049108E-005	3.75291	11	0.1589748	0.0050928	-327.6853
	33	57	50.22321	0.03232	-0.0017508	1	0.0323673	-3.100784	-2.7337E-005	3.752916	11	0.158977	0.0051453	-327.6853
	34	59	38.42213	0.0326843	-0.0017515	1	0.0327312	-3.067423	-2.109073E-005	3.752921	11	0.1589891	0.0052037	-327.6853
	35	61	31.25	0.0329596	-0.0017249	1	0.0330047	-2.995825	-1.66519E-005	3.752932	11	0.1590023	0.0052477	-327.6853
	36	62	24.93351	0.0332546	-0.0016776	1	0.0332969	-2.888038	-2.677506E-005	3.752944	11	0.1589878	0.0052937	-327.6853
	37	64	19.86229	0.0335257	-0.001603	1	0.033564	-2.737413	1.097564E-005	3.752951	11	0.1589767	0.0053358	-327.6853
	38	65	15.625	0.0337974	-0.0015138	1	0.0338313	-2.564578	-1.883338E-005	3.752967	11	0.1590119	0.0053795	-327.6853
	39	67	12.40079	0.0340219	-0.0014155	1	0.0340513	-2.382482	-3.167911E-005	3.752979	11	0.1589992	0.0054141	-327.6853
	40	68	9.93114	0.0342154	-0.0013268	1	0.0342411	-2.22072	-4.187156E-005	3.752974	11	0.1589924	0.0054441	-327.6853
	41	70	7.944915	0.0343891	-0.0012364	1	0.0344113	-2.059121	1.150253E-005	3.752987	11	0.1590022	0.0054715	-327.6853
	42	72	6.317385	0.034531	-0.0011565	1	0.0345504	-1.918258	-7.627835E-005	3.752972	11	0.1589876	0.0054931	-327.6853
	43	74	5.008013	0.0346742	-0.0010883	1	0.0346912	-1.797752	2.273358E-005	3.752976	11	0.1590039	0.005516	-327.6853
	44	76	3.945707	0.0347958	-0.0010264	1	0.034811	-1.68955	-1.451696E-005	3.752989	11	0.1590152	0.0055355	-327.6853
	45	79	3.158693	0.0348991	-0.0010072	1	0.0349136	-1.653159	6.871065E-005	3.752985	11	0.158977	0.0055505	-327.6853
	46	81	2.504006	0.0350236	-0.0009879	1	0.0350376	-1.615617	2.12572E-005	3.752983	11	0.1554262	0.0054231	-327.6853
	47	84	1.998082	0.0351332	-0.0009867	1	0.0351471	-1.608674	-2.916846E-005	3.752995	11	0.1613392	0.0056535	-327.6853
	48	88	1.584686	0.0352334	-0.0010019	1	0.0352476	-1.628767	-0.0002266	3.753021	11	0.1599821	0.0056275	-327.6853
	49	93	1.266892	0.0353376	-0.0010331	1	0.0353527	-1.674649	0.0000956	3.75312	11	0.1592434	0.0056221	-327.6853
	50	100	0.999041	0.0354625	-0.0010828	1	0.0354791	-1.748826	3.440789E-005	3.75317	11	0.159064	0.0056386	-327.6853
	51	105	0.7923428	0.0355855	-0.0011456	1	0.0356039	-1.843838	-3.592222E-005	3.753205	11	0.1593069	0.0056688	-327.6853
	52	111	0.6334459	0.0357211	-0.0012262	1	0.0357421	-1.966096	-4.119845E-005	3.753239	11	0.158984	0.0056804	-327.6853
	53	119	0.5040323	0.0358483	-0.0013211	1	0.0358726	-2.110536	-4.218996E-005	3.753289	11	0.158982	0.0057018	-327.6853
	54	131	0.400641	0.0359954	-0.0014425	1	0.0360243	-2.294868	-4.311603E-005	3.753353	11	0.1589858	0.0057265	-327.6853
	55	145	0.316723	0.0361528	-0.0015889	1	0.0361877	-2.51644	-4.019824E-005	3.753433	11	0.1589904	0.005753	-327.6853
	56	162	0.2520161	0.0363376	-0.0017508	1	0.0363797	-2.758532	-4.192538E-005	3.753525	11	0.1589946	0.0057839	-327.6853
	57	183	0.2003205	0.0365404	-0.0019451	1	0.0365921	-3.047021	-4.038692E-005	3.75364	11	0.1589957	0.0058178	-327.6853
	58	205	0.1588983	0.0367522	-0.0021709	1	0.0368163	-3.380498	-4.380826E-005	3.753764	11	0.1589949	0.0058535	-327.6853
	59	230	0.1260081	0.037009	-0.0024198	1	0.037088	-3.740984	-4.283866E-005	3.753998	11	0.1589996	0.0058969	-327.6853
	60	268	0.1001603	0.0373047	-0.0027109	1	0.037403	-4.156371	-4.296649E-005	3.754359	11	0.1589985	0.005947	-327.6853
	61	314	0.0794492	0.0376534	-0.0030473	1	0.0377765	-4.626833	-3.818875E-005	3.754745	11	0.1590002	0.0060064	-327.6853
	62	354	0.0631739	0.0378937	-0.0034521	1	0.0380506	-5.205311	-4.120688E-005	3.754828	11	0.1589996	0.00605	-327.6853
	63	419	0.0501337	0.0382287	-0.0038984	1	0.0384269	-5.822615	-4.444712E-005	3.75503	11	0.1589993	0.0061098	-327.6853
	64	480	0.0398258	0.038621	-0.0044305	1	0.0388743	-6.544242	-4.199395E-005	3.755281	11	0.1589997	0.006181	-327.6853
	65	557	0.0316296	0.0390396	-0.0050705	1	0.0393675	-7.400177	-3.982248E-005	3.755586	11	0.1590009	0.0062595	-327.6853
	66	653	0.0251206	0.039526	-0.0058319	1	0.0399539	-8.393228	-4.107109E-005	3.756001	11	0.1589995	0.0063526	-327.6853
	67	814	0.0199553	0.0400797	-0.0067433	1	0.0406431	-9.55038	-4.092965E-005	3.756523	11	0.1590002	0.0064623	-327.6853
	68	1016	0.0158522	0.0407709	-0.007818	1	0.0415137	-10.85501	-4.324128E-005	3.757034	11	0.1589991	0.0066006	-327.6853
	69	1207	0.0125907	0.0415524	-0.0091309	1	0.0425438	-12.39338	-4.31302E-005	3.757603	11	0.1590005	0.0067645	-327.6853
	70	1526	0.0100011	0.0425472	-0.0106514	1	0.0438602	-14.05476	-4.252451E-005	3.758265	11	0.1590003	0.0069738	-327.6853
