EXPLAIN
TAG	GALVEIS
TITLE	LABEL	Galvanostatic EIS	Test Identifier
DATE	LABEL	25.5.2024	Date
TIME	LABEL	1:53:36	Time
NOTES	NOTES	1	Notes...
	
PSTAT	PSTAT	REF600-12055	Potentiostat
FREQINIT	QUANT	1.00000E+005	Initial Freq. (Hz)
FREQFINAL	QUANT	1.00000E-002	Final Freq. (Hz)
PTSPERDEC	QUANT	1.00000E+001	Points/decade
IACREQ	QUANT	1.59000E-001	AC Current (A rms)
IDCREQ	QUANT	0.00000E+000	DC Current (A)
AREA	QUANT	1.00000E+000	Sample Area (cm^2)
SPEED	SELECTOR	1	Optimize for:
DRIFTCOR	SELECTOR	0	Drift Correction
THD	SELECTOR	0	THD
ZGUESS	QUANT	1.00000E-001	Estimated Z (ohms)
EOC	QUANT	3.936351	Open Circuit (V)
SEQUENCER	TOGGLE	TRUE	Run as Sequence
PSTATMODEL	IQUANT	4	Pstat Model
PSTATSECTION	LABEL	REF600-12055	Pstat Section
PSTATSERIALNO	LABEL	12055	Pstat Serial Number
CTRLMODE	IQUANT	0	Control Mode
ELECTROMETER	IQUANT	0	RE=0 or CS=1
IESTAB	IQUANT	0	I/E Stability
CASPEED	IQUANT	4	Control Amp Speed
CONVENTION	IQUANT	1	Current Convention
ICHRANGE	IQUANT	2	Ich Range
ICHRANGEMODE	TOGGLE	F	Ich Auto Range
ICHOFFSETENABLE	TOGGLE	T	Ich Offset Enable
ICHOFFSET	QUANT	0	Ich Offset (V)
ICHFILTER	IQUANT	3	Ich Filter
VCHRANGE	IQUANT	2	Vch Range
VCHRANGEMODE	TOGGLE	F	Vch Auto Range
VCHOFFSETENABLE	TOGGLE	T	Vch Offset Enable
VCHOFFSET	QUANT	0	Vch Offset (V)
VCHFILTER	IQUANT	3	Vch Filter
ACHRANGE	IQUANT	2	Ach Range
ACHOFFSETENABLE	TOGGLE	F	Ach Offset Enable
ACHOFFSET	QUANT	0	Ach Offset (V)
ACHFILTER	IQUANT	1	Ach Filter
IERANGELOWERLIMIT	IQUANT	1	I/E Range Lower Limit
IERANGEMODE	TOGGLE	F	I/E AutoRange
IERANGE	IQUANT	7	I/E Range
POSFEEDENABLE	TOGGLE	F	Positive Feedback IR Comp
POSFEEDRESISTANCE	QUANT	0	Positive Feedback Resistance (ohm)
ACHSELECT	IQUANT	4	Ach Select
SENSECABLEID	IQUANT	14	Sense Cable ID
PWRCABLEID	IQUANT	14	Power Cable ID
DCCALDATE	LABEL	2/12/2024	DC Calibration Date
ACCALDATE	LABEL	2/12/2024	AC Calibration Date
THERMOSELECT	IQUANT	1	Thermo Select
FRAMEWORKVERSION	LABEL	7.10.3	Framework Version
INSTRUMENTVERSION	LABEL	4.91	Instrument Version
COMMVERSION	LABEL	2.24	Communications Version
CPUPLDVERSION	LABEL	0.00	CPU PLD Version
CTRLPLDVERSION	LABEL	0.00	CTRL PLD Version
PSTATPLDVERSION	LABEL	0.00	PSTAT PLD Version
ZCURVE	TABLE
	Pt	Time	Freq	Zreal	Zimag	Zsig	Zmod	Zphz	Idc	Vdc	IERange	Imod	Vmod	Temp
	#	s	Hz	ohm	ohm	V	ohm	°	A	V	#	A	V	°C
	0	5	100078.1	0.099838	0.2361347	1	0.2563733	67.0813	3.31644E-005	3.936536	11	0.1596583	0.0406342	-327.6853
	1	7	79453.13	0.0839107	0.1959903	1	0.2131976	66.82243	1.24136E-005	3.93653	11	0.1642858	0.0348634	-327.6853
	2	9	63140.62	0.0713996	0.1622306	1	0.1772475	66.24513	1.55298E-007	3.936533	11	0.1619765	0.0286253	-327.6853
	3	11	50203.12	0.0616936	0.1339113	1	0.1474393	65.26425	-4.258705E-006	3.936538	11	0.160951	0.0236859	-327.6853
	4	12	39890.62	0.0542145	0.1102073	1	0.1228204	63.80594	-8.993316E-006	3.936548	11	0.1602772	0.0196618	-327.6853
	5	14	31640.63	0.0484454	0.0904509	1	0.1026076	61.82655	-1.30788E-005	3.936548	11	0.159853	0.0163897	-327.6853
	6	16	25171.88	0.0440353	0.0744441	1	0.0864929	59.39479	-1.40483E-005	3.936542	11	0.1595462	0.013793	-327.6853
	7	17	20015.62	0.0404835	0.0613146	1	0.0734737	56.56483	-1.803297E-005	3.936539	11	0.1593584	0.0117051	-327.6853
	8	19	15890.62	0.0375362	0.0504577	1	0.0628884	53.35392	-1.631328E-005	3.936548	11	0.1592325	0.010012	-327.6853
	9	21	12609.38	0.0350553	0.0414474	1	0.0542841	49.77615	-2.170412E-005	3.936552	11	0.1591445	0.008638	-327.6853
	10	22	10078.13	0.0330431	0.0341325	1	0.0475066	45.92912	-1.593085E-005	3.936558	11	0.1590808	0.0075568	-327.6853
	11	24	8015.625	0.0313807	0.0278	1	0.0419236	41.5376	-2.289164E-005	3.936561	11	0.1590577	0.0066679	-327.6853
	12	26	6328.125	0.030092	0.0222855	1	0.0374456	36.5228	-2.125429E-005	3.936566	11	0.1590312	0.0059548	-327.6853
	13	27	5015.625	0.0292004	0.0177534	1	0.0341738	31.29897	-1.832959E-005	3.936566	11	0.1590147	0.005434	-327.6853
	14	29	3984.375	0.0286154	0.0140515	1	0.0318792	26.15316	-1.926743E-005	3.93656	11	0.1590094	0.005069	-327.6853
	15	30	3170.956	0.0282684	0.0109757	1	0.0303244	21.2196	-2.047774E-005	3.936575	11	0.1590024	0.0048216	-327.6853
	16	32	2527.573	0.0281049	0.0085093	1	0.0293648	16.84464	-1.881414E-005	3.93658	11	0.1590091	0.0046692	-327.6853
	17	33	1976.103	0.0280871	0.0062641	1	0.0287772	12.57267	-1.847104E-005	3.936584	11	0.1590026	0.0045756	-327.6853
	18	35	1577.524	0.0281459	0.0047274	1	0.0285401	9.53446	-2.934592E-005	3.936584	11	0.1589984	0.0045378	-327.6853
	19	37	1265.625	0.0282968	0.0033661	1	0.0284963	6.783852	-2.386176E-005	3.936575	11	0.1589962	0.0045308	-327.6853
	20	38	998.264	0.0284859	0.0022594	1	0.0285753	4.535058	-1.951231E-005	3.936584	11	0.1590004	0.0045435	-327.6853
	21	40	796.875	0.0286927	0.0014001	1	0.0287268	2.79371	-2.304785E-005	3.936576	11	0.1590003	0.0045676	-327.6853
	22	41	627.7902	0.0289522	0.0007036	1	0.0289607	1.392057	-1.873341E-005	3.936593	11	0.1589988	0.0046047	-327.6853
	23	43	505.5147	0.0291944	0.0001861	1	0.029195	0.3651373	-2.076605E-005	3.936595	11	0.1576017	0.0045756	-327.6853
	24	44	397.9953	0.0294801	-0.0002547	1	0.0294812	-0.4950613	-1.938862E-005	3.936601	11	0.1606022	0.0047153	-327.6853
	25	46	315.5048	0.0297565	-0.0006138	1	0.0297628	-1.181767	-1.989084E-005	3.936603	11	0.159342	0.0047291	-327.6853
	26	47	252.4038	0.0300306	-0.0008943	1	0.0300439	-1.70566	-1.770654E-005	3.936604	11	0.1589658	0.0047669	-327.6853
	27	49	198.6229	0.0303338	-0.0011407	1	0.0303552	-2.153611	-1.944334E-005	3.93661	11	0.1588767	0.0048169	-327.6853
	28	50	158.3615	0.0306169	-0.0013315	1	0.0306458	-2.490083	-1.487089E-005	3.936615	11	0.1588886	0.0048655	-327.6853
	29	52	125.558	0.0309197	-0.0014905	1	0.0309556	-2.759759	-1.471746E-005	3.936615	11	0.1589166	0.0049169	-327.6853
	30	53	100.4464	0.031219	-0.0016091	1	0.0312605	-2.950527	-3.062573E-005	3.936616	11	0.1589365	0.0049668	-327.6853
	31	55	79.00281	0.0315468	-0.0017156	1	0.0315934	-3.112797	-3.122078E-005	3.936617	11	0.1589583	0.005021	-327.6853
	32	56	63.3446	0.0318502	-0.00179	1	0.0319004	-3.216606	-2.954755E-005	3.936624	11	0.1589778	0.0050708	-327.6853
	33	58	50.22321	0.0321828	-0.0018362	1	0.0322352	-3.265483	-1.79573E-005	3.93663	11	0.1589808	0.0051244	-327.6853
	34	60	38.42213	0.0325653	-0.0018503	1	0.0326178	-3.251977	-2.073878E-005	3.936631	11	0.158987	0.0051856	-327.6853
	35	61	31.25	0.0328553	-0.0018523	1	0.0329075	-3.226804	-1.84371E-005	3.936635	11	0.1590015	0.0052322	-327.6853
	36	63	24.93351	0.0331729	-0.0018298	1	0.0332234	-3.157259	-1.961581E-005	3.936636	11	0.1589914	0.0052821	-327.6853
	37	64	19.86229	0.0334739	-0.0017746	1	0.0335209	-3.03473	-3.342325E-005	3.936628	11	0.1589911	0.0053295	-327.6853
	38	66	15.625	0.0337746	-0.0017059	1	0.0338176	-2.891427	-3.796082E-005	3.936647	11	0.1589859	0.0053765	-327.6853
	39	67	12.40079	0.03403	-0.0016141	1	0.0340682	-2.7156	-3.185135E-005	3.93665	11	0.1590065	0.005417	-327.6853
	40	69	9.93114	0.0342594	-0.0015154	1	0.0342929	-2.532789	-4.787196E-005	3.936635	11	0.1589911	0.0054522	-327.6853
	41	71	7.944915	0.0344685	-0.0014354	1	0.0344984	-2.384573	4.968722E-006	3.936648	11	0.1590046	0.0054854	-327.6853
	42	72	6.317385	0.0346459	-0.0013581	1	0.0346725	-2.244847	-6.860867E-005	3.936624	11	0.1589803	0.0055122	-327.6853
	43	74	5.008013	0.0348153	-0.0012899	1	0.0348392	-2.121801	1.943624E-005	3.936622	11	0.1590155	0.00554	-327.6853
	44	77	3.945707	0.034968	-0.0012396	1	0.03499	-2.030325	-5.516829E-005	3.936656	11	0.1589861	0.0055629	-327.6853
	45	79	3.158693	0.0351094	-0.0012091	1	0.0351303	-1.972451	-0.0000961	3.936674	11	0.159009	0.005586	-327.6853
	46	82	2.504006	0.0352392	-0.0011837	1	0.035259	-1.923887	9.514042E-006	3.936684	11	0.1554354	0.0054577	-327.6853
	47	86	1.998082	0.035372	-0.00119	1	0.035392	-1.926905	-0.000284	3.936661	11	0.161497	0.0056985	-327.6853
	48	91	1.584686	0.0355027	-0.001225	1	0.0355238	-1.976238	-0.0002301	3.936683	11	0.159823	0.005666	-327.6853
	49	96	1.266892	0.0356444	-0.001262	1	0.0356667	-2.02767	0.0002104	3.936667	11	0.1593369	0.0056753	-327.6853
	50	101	0.999041	0.0357947	-0.0013356	1	0.0358196	-2.136837	0.0002337	3.936708	11	0.1591143	0.0056945	-327.6853
	51	107	0.7923428	0.0359724	-0.0014188	1	0.0360004	-2.258572	-3.791865E-005	3.936792	11	0.1591522	0.0057264	-327.6853
	52	114	0.6334459	0.0361347	-0.0015258	1	0.0361669	-2.417916	-3.7463E-005	3.936795	11	0.1589827	0.0057479	-327.6853
	53	122	0.5040323	0.0363128	-0.0016459	1	0.0363501	-2.595238	-4.006561E-005	3.936809	11	0.1589826	0.0057777	-327.6853
	54	132	0.400641	0.0365057	-0.0017967	1	0.0365499	-2.817702	-3.775761E-005	3.936825	11	0.1589871	0.0058101	-327.6853
	55	146	0.316723	0.0367292	-0.0019656	1	0.0367818	-3.06333	-4.034271E-005	3.936853	11	0.1589904	0.0058474	-327.6853
	56	160	0.2520161	0.0369633	-0.0021703	1	0.037027	-3.360236	-4.438289E-005	3.936892	11	0.1589936	0.0058867	-327.6853
	57	181	0.2003205	0.0372198	-0.0023896	1	0.0372964	-3.673485	-4.12151E-005	3.936937	11	0.1589957	0.0059298	-327.6853
	58	203	0.1588983	0.0375145	-0.0026428	1	0.0376075	-4.029676	-4.242924E-005	3.936987	11	0.1589972	0.0059794	-327.6853
	59	228	0.1260081	0.0378537	-0.0029295	1	0.0379669	-4.42534	-3.875873E-005	3.93713	11	0.158998	0.0060366	-327.6853
	60	266	0.1001603	0.0382547	-0.0032343	1	0.0383911	-4.832661	-4.097342E-005	3.937419	11	0.1589991	0.0061041	-327.6853
	61	303	0.0794492	0.0387052	-0.0035958	1	0.0388719	-5.307603	-4.173501E-005	3.937685	11	0.1589998	0.0061806	-327.6853
	62	342	0.0631739	0.0390276	-0.0040166	1	0.0392337	-5.876082	-3.882853E-005	3.937572	11	0.1589992	0.0062381	-327.6853
	63	391	0.0501337	0.0394632	-0.0045075	1	0.0397198	-6.516136	-3.691506E-005	3.937576	11	0.1589995	0.0063154	-327.6853
	64	472	0.0398258	0.0399536	-0.0050622	1	0.040273	-7.220963	-4.06453E-005	3.937652	11	0.1589988	0.0064034	-327.6853
	65	574	0.0316296	0.0404982	-0.0057042	1	0.0408979	-8.017358	-3.68915E-005	3.937768	11	0.1589998	0.0065028	-327.6853
	66	671	0.0251206	0.0410949	-0.0064403	1	0.0415964	-8.906767	-3.969095E-005	3.937892	11	0.1590008	0.0066139	-327.6853
	67	792	0.0199553	0.0417423	-0.0073117	1	0.0423779	-9.93525	-4.210437E-005	3.938047	11	0.1590007	0.0067381	-327.6853
	68	943	0.0158522	0.0424568	-0.0083432	1	0.0432688	-11.11757	-3.883263E-005	3.938247	11	0.1589995	0.0068797	-327.6853
	69	1197	0.0125907	0.0433155	-0.0095394	1	0.0443535	-12.42008	-4.029335E-005	3.938469	11	0.1590008	0.0070522	-327.6853
	70	1437	0.0100011	0.0443586	-0.0109365	1	0.0456869	-13.84986	-3.942606E-005	3.938702	11	0.1589993	0.0072642	-327.6853
