EXPLAIN
TAG	GALVEIS
TITLE	LABEL	Galvanostatic EIS	Test Identifier
DATE	LABEL	25.5.2024	Date
TIME	LABEL	8:16:48	Time
NOTES	NOTES	1	Notes...
	
PSTAT	PSTAT	REF600-12055	Potentiostat
FREQINIT	QUANT	1.00000E+005	Initial Freq. (Hz)
FREQFINAL	QUANT	1.00000E-002	Final Freq. (Hz)
PTSPERDEC	QUANT	1.00000E+001	Points/decade
IACREQ	QUANT	1.59000E-001	AC Current (A rms)
IDCREQ	QUANT	0.00000E+000	DC Current (A)
AREA	QUANT	1.00000E+000	Sample Area (cm^2)
SPEED	SELECTOR	1	Optimize for:
DRIFTCOR	SELECTOR	0	Drift Correction
THD	SELECTOR	0	THD
ZGUESS	QUANT	1.00000E-001	Estimated Z (ohms)
EOC	QUANT	3.548068	Open Circuit (V)
SEQUENCER	TOGGLE	TRUE	Run as Sequence
PSTATMODEL	IQUANT	4	Pstat Model
PSTATSECTION	LABEL	REF600-12055	Pstat Section
PSTATSERIALNO	LABEL	12055	Pstat Serial Number
CTRLMODE	IQUANT	0	Control Mode
ELECTROMETER	IQUANT	0	RE=0 or CS=1
IESTAB	IQUANT	0	I/E Stability
CASPEED	IQUANT	4	Control Amp Speed
CONVENTION	IQUANT	1	Current Convention
ICHRANGE	IQUANT	2	Ich Range
ICHRANGEMODE	TOGGLE	F	Ich Auto Range
ICHOFFSETENABLE	TOGGLE	T	Ich Offset Enable
ICHOFFSET	QUANT	0	Ich Offset (V)
ICHFILTER	IQUANT	3	Ich Filter
VCHRANGE	IQUANT	2	Vch Range
VCHRANGEMODE	TOGGLE	F	Vch Auto Range
VCHOFFSETENABLE	TOGGLE	T	Vch Offset Enable
VCHOFFSET	QUANT	0	Vch Offset (V)
VCHFILTER	IQUANT	3	Vch Filter
ACHRANGE	IQUANT	2	Ach Range
ACHOFFSETENABLE	TOGGLE	F	Ach Offset Enable
ACHOFFSET	QUANT	0	Ach Offset (V)
ACHFILTER	IQUANT	1	Ach Filter
IERANGELOWERLIMIT	IQUANT	1	I/E Range Lower Limit
IERANGEMODE	TOGGLE	F	I/E AutoRange
IERANGE	IQUANT	7	I/E Range
POSFEEDENABLE	TOGGLE	F	Positive Feedback IR Comp
POSFEEDRESISTANCE	QUANT	0	Positive Feedback Resistance (ohm)
ACHSELECT	IQUANT	4	Ach Select
SENSECABLEID	IQUANT	14	Sense Cable ID
PWRCABLEID	IQUANT	14	Power Cable ID
DCCALDATE	LABEL	2/12/2024	DC Calibration Date
ACCALDATE	LABEL	2/12/2024	AC Calibration Date
THERMOSELECT	IQUANT	1	Thermo Select
FRAMEWORKVERSION	LABEL	7.10.3	Framework Version
INSTRUMENTVERSION	LABEL	4.91	Instrument Version
COMMVERSION	LABEL	2.24	Communications Version
CPUPLDVERSION	LABEL	0.00	CPU PLD Version
CTRLPLDVERSION	LABEL	0.00	CTRL PLD Version
PSTATPLDVERSION	LABEL	0.00	PSTAT PLD Version
ZCURVE	TABLE
	Pt	Time	Freq	Zreal	Zimag	Zsig	Zmod	Zphz	Idc	Vdc	IERange	Imod	Vmod	Temp
	#	s	Hz	ohm	ohm	V	ohm	°	A	V	#	A	V	°C
	0	5	100078.1	0.1000244	0.2368552	1	0.2571095	67.10557	1.989794E-005	3.548203	11	0.1596729	0.0407546	-327.6853
	1	7	79453.13	0.0841008	0.1965468	1	0.213784	66.8343	4.672911E-007	3.5482	11	0.1642348	0.0349485	-327.6853
	2	9	63140.62	0.0716093	0.162667	1	0.1777314	66.23992	-1.175085E-005	3.548204	11	0.1619644	0.0287013	-327.6853
	3	10	50203.12	0.0618941	0.1342729	1	0.1478515	65.25231	-1.911053E-005	3.548212	11	0.1609315	0.0237493	-327.6853
	4	12	39890.62	0.054415	0.1104982	1	0.12317	63.78199	-2.510392E-005	3.548217	11	0.1602772	0.0197178	-327.6853
	5	14	31640.63	0.0486481	0.0906907	1	0.1029147	61.7901	-1.886045E-005	3.548236	11	0.1598335	0.0164368	-327.6853
	6	16	25171.88	0.0442248	0.0746447	1	0.0867621	59.35451	-2.000132E-005	3.548237	11	0.1595469	0.013836	-327.6853
	7	17	20015.62	0.0406746	0.0614699	1	0.0737087	56.50739	-2.938457E-005	3.548241	11	0.1593552	0.0117423	-327.6853
	8	19	15890.62	0.0377238	0.0505738	1	0.0630936	53.28019	-2.707983E-005	3.548244	11	0.159226	0.0100442	-327.6853
	9	21	12609.38	0.0352299	0.0415479	1	0.0544736	49.70425	-2.796319E-005	3.548255	11	0.1591412	0.0086679	-327.6853
	10	22	10078.13	0.0332134	0.0342043	1	0.0476767	45.84203	-3.017433E-005	3.548249	11	0.1590845	0.007584	-327.6853
	11	24	8015.625	0.0315606	0.0278565	1	0.0420958	41.43275	-2.275978E-005	3.548256	11	0.1590538	0.0066952	-327.6853
	12	26	6328.125	0.0302777	0.0223336	1	0.0376235	36.41336	-2.30174E-005	3.548266	11	0.1590343	0.0059833	-327.6853
	13	27	5015.625	0.0293789	0.0177938	1	0.0343473	31.20194	-2.331345E-005	3.548264	11	0.1590124	0.0054615	-327.6853
	14	29	3984.375	0.0287916	0.0140461	1	0.0320351	26.00562	-3.018882E-005	3.548276	11	0.1590062	0.0050937	-327.6853
	15	30	3170.956	0.0284519	0.0110036	1	0.0305056	21.14361	-2.339221E-005	3.548268	11	0.1590116	0.0048507	-327.6853
	16	32	2527.573	0.0283021	0.0084661	1	0.0295412	16.65374	-2.445583E-005	3.548282	11	0.1590041	0.0046972	-327.6853
	17	33	1976.103	0.0282799	0.0062826	1	0.0289694	12.52518	-2.262584E-005	3.548286	11	0.1590004	0.0046061	-327.6853
	18	35	1577.524	0.0283426	0.0046767	1	0.0287258	9.36964	-2.339145E-005	3.548293	11	0.1589973	0.0045673	-327.6853
	19	37	1265.625	0.0284899	0.0033645	1	0.0286878	6.735104	-1.964276E-005	3.5483	11	0.1589987	0.0045613	-327.6853
	20	38	998.264	0.0286944	0.0023081	1	0.0287871	4.598907	-2.309016E-005	3.548301	11	0.1590155	0.0045776	-327.6853
	21	40	796.875	0.028914	0.0013946	1	0.0289476	2.761404	-2.703373E-005	3.548292	11	0.1589866	0.0046023	-327.6853
	22	41	627.7902	0.0291642	0.0006911	1	0.0291724	1.357389	-2.416602E-005	3.548301	11	0.1589986	0.0046384	-327.6853
	23	43	505.5147	0.0294125	0.0001433	1	0.0294128	0.2791906	-1.978321E-005	3.548316	11	0.1576047	0.0046098	-327.6853
	24	44	397.9953	0.0297133	-0.0003093	1	0.0297149	-0.5964659	-2.095115E-005	3.548321	11	0.1605985	0.0047526	-327.6853
	25	46	315.5048	0.0299989	-0.0006678	1	0.0300063	-1.275328	-1.968857E-005	3.548324	11	0.1593369	0.0047676	-327.6853
	26	47	252.4038	0.030283	-0.000948	1	0.0302978	-1.793098	-1.94225E-005	3.54833	11	0.158969	0.0048073	-327.6853
	27	49	198.6229	0.0305919	-0.0011935	1	0.0306152	-2.234268	-2.075103E-005	3.548338	11	0.1588801	0.0048583	-327.6853
	28	50	158.3615	0.0308939	-0.00138	1	0.0309247	-2.557675	-2.030306E-005	3.548342	11	0.1588929	0.0049099	-327.6853
	29	52	125.558	0.0312083	-0.0015333	1	0.031246	-2.81268	-1.581339E-005	3.548351	11	0.1589082	0.0049628	-327.6853
	30	54	100.4464	0.0315094	-0.0016475	1	0.0315525	-2.993099	-3.162166E-005	3.548352	11	0.1589427	0.0050134	-327.6853
	31	55	79.00281	0.0318539	-0.0017413	1	0.0319015	-3.128969	-2.008048E-005	3.548356	11	0.1589576	0.00507	-327.6853
	32	57	63.3446	0.0321618	-0.0017989	1	0.0322121	-3.201301	-1.645467E-005	3.548364	11	0.1589751	0.0051203	-327.6853
	33	59	50.22321	0.0324918	-0.0018331	1	0.0325435	-3.22901	-2.012233E-005	3.548369	11	0.1589832	0.0051734	-327.6853
	34	60	38.42213	0.0328762	-0.0018488	1	0.0329282	-3.218729	-3.234614E-005	3.54837	11	0.1589838	0.0052348	-327.6853
	35	62	31.25	0.033168	-0.0018317	1	0.0332185	-3.160924	-3.439491E-005	3.548372	11	0.1590033	0.0052817	-327.6853
	36	63	24.93351	0.0334817	-0.0017908	1	0.0335296	-3.061559	-3.274216E-005	3.54838	11	0.158988	0.0053307	-327.6853
	37	65	19.86229	0.0337821	-0.0017415	1	0.033827	-2.951023	-2.096995E-005	3.54837	11	0.1589964	0.0053783	-327.6853
	38	66	15.625	0.0340792	-0.0016451	1	0.0341189	-2.763718	-3.283273E-005	3.548389	11	0.1589893	0.0054245	-327.6853
	39	68	12.40079	0.0343197	-0.0015408	1	0.0343543	-2.570532	-4.354515E-005	3.548383	11	0.1589875	0.0054619	-327.6853
	40	69	9.93114	0.0345546	-0.0014326	1	0.0345843	-2.374065	-5.371252E-005	3.548385	11	0.1589941	0.0054987	-327.6853
	41	71	7.944915	0.0347478	-0.0013365	1	0.0347735	-2.20262	1.284073E-005	3.54839	11	0.1590219	0.0055297	-327.6853
	42	73	6.317385	0.0349121	-0.0012365	1	0.034934	-2.028412	-2.740942E-005	3.548385	11	0.1589577	0.005553	-327.6853
	43	75	5.008013	0.0350639	-0.0011442	1	0.0350826	-1.868929	-2.39478E-006	3.548381	11	0.1590424	0.0055796	-327.6853
	44	77	3.945707	0.0351987	-0.001064	1	0.0352147	-1.731373	-3.71646E-005	3.548392	11	0.158999	0.0055991	-327.6853
	45	79	3.158693	0.0353029	-0.0010215	1	0.0353177	-1.657428	2.682977E-005	3.548395	11	0.1590121	0.0056159	-327.6853
	46	82	2.504006	0.0354332	-0.0009804	1	0.0354467	-1.584887	2.392021E-005	3.54838	11	0.1553797	0.0054848	-327.6853
	47	85	1.998082	0.0355437	-0.0009594	1	0.0355566	-1.54623	-0.0001387	3.548367	11	0.1613892	0.0057212	-327.6853
	48	89	1.584686	0.0356407	-0.0009634	1	0.0356537	-1.548457	-0.0003097	3.548385	11	0.1600237	0.0056938	-327.6853
	49	94	1.266892	0.0357435	-0.0009709	1	0.0357567	-1.555941	0.0001818	3.548453	11	0.1592498	0.0056866	-327.6853
	50	100	0.999041	0.0358606	-0.0010049	1	0.0358746	-1.605084	0.0001335	3.548486	11	0.1590337	0.0057004	-327.6853
	51	106	0.7923428	0.0359863	-0.0010464	1	0.0360015	-1.665565	-4.130253E-005	3.548514	11	0.1592419	0.0057298	-327.6853
	52	112	0.6334459	0.0361068	-0.0010929	1	0.0361233	-1.733682	-4.21282E-005	3.548532	11	0.1589836	0.005741	-327.6853
	53	120	0.5040323	0.0362264	-0.0011686	1	0.0362452	-1.847606	-4.821183E-005	3.548554	11	0.1589829	0.0057611	-327.6853
	54	131	0.400641	0.036362	-0.0012632	1	0.036384	-1.989582	-4.981653E-005	3.548592	11	0.1589855	0.0057837	-327.6853
	55	145	0.316723	0.0365162	-0.0013662	1	0.0365417	-2.142571	-4.192773E-005	3.548631	11	0.1589905	0.0058093	-327.6853
	56	160	0.2520161	0.0366682	-0.0014983	1	0.0366988	-2.339874	-4.086546E-005	3.548679	11	0.1589925	0.0058345	-327.6853
	57	181	0.2003205	0.0368465	-0.0016544	1	0.0368836	-2.570827	-4.240959E-005	3.548735	11	0.1589961	0.0058641	-327.6853
	58	202	0.1588983	0.0370207	-0.0018345	1	0.0370662	-2.836828	-4.015407E-005	3.548804	11	0.1589971	0.0058933	-327.6853
	59	234	0.1260081	0.0372466	-0.0020481	1	0.0373029	-3.147393	-4.523576E-005	3.548976	11	0.1589978	0.005931	-327.6853
	60	272	0.1001603	0.0375033	-0.0022863	1	0.0375729	-3.488579	-3.609988E-005	3.549236	11	0.1589984	0.005974	-327.6853
	61	318	0.0794492	0.0377848	-0.0025709	1	0.0378722	-3.892453	-4.284135E-005	3.549499	11	0.1590005	0.0060217	-327.6853
	62	370	0.0631739	0.0379989	-0.002909	1	0.0381101	-4.377731	-4.20987E-005	3.549486	11	0.159001	0.0060595	-327.6853
	63	419	0.0501337	0.0382876	-0.0033167	1	0.038431	-4.950944	-4.503969E-005	3.549564	11	0.1589972	0.0061104	-327.6853
	64	501	0.0398258	0.0386228	-0.0037875	1	0.0388081	-5.600718	-4.244663E-005	3.549704	11	0.1589996	0.0061705	-327.6853
	65	603	0.0316296	0.0389876	-0.0043381	1	0.0392282	-6.349038	-4.472564E-005	3.549871	11	0.1590011	0.0062373	-327.6853
	66	731	0.0251206	0.0394101	-0.0050093	1	0.0397272	-7.243793	-4.067314E-005	3.550075	11	0.1590004	0.0063166	-327.6853
	67	852	0.0199553	0.0398868	-0.0058215	1	0.0403094	-8.303668	-4.044863E-005	3.550298	11	0.1589994	0.0064092	-327.6853
	68	1054	0.0158522	0.0404689	-0.0067591	1	0.0410295	-9.481959	-3.668504E-005	3.550568	11	0.158999	0.0065236	-327.6853
	69	1244	0.0125907	0.0411457	-0.0078982	1	0.0418969	-10.86621	-4.163209E-005	3.550844	11	0.1589998	0.0066616	-327.6853
	70	1484	0.0100011	0.0420379	-0.0092106	1	0.0430351	-12.3584	-3.85775E-005	3.551161	11	0.1590001	0.0068426	-327.6853
