EXPLAIN
TAG	GALVEIS
TITLE	LABEL	Galvanostatic EIS	Test Identifier
DATE	LABEL	25.5.2024	Date
TIME	LABEL	10:46:53	Time
NOTES	NOTES	1	Notes...
	
PSTAT	PSTAT	REF600-12055	Potentiostat
FREQINIT	QUANT	1.00000E+005	Initial Freq. (Hz)
FREQFINAL	QUANT	1.00000E-002	Final Freq. (Hz)
PTSPERDEC	QUANT	1.00000E+001	Points/decade
IACREQ	QUANT	1.59000E-001	AC Current (A rms)
IDCREQ	QUANT	0.00000E+000	DC Current (A)
AREA	QUANT	1.00000E+000	Sample Area (cm^2)
SPEED	SELECTOR	1	Optimize for:
DRIFTCOR	SELECTOR	0	Drift Correction
THD	SELECTOR	0	THD
ZGUESS	QUANT	1.00000E-001	Estimated Z (ohms)
EOC	QUANT	3.233909	Open Circuit (V)
SEQUENCER	TOGGLE	TRUE	Run as Sequence
PSTATMODEL	IQUANT	4	Pstat Model
PSTATSECTION	LABEL	REF600-12055	Pstat Section
PSTATSERIALNO	LABEL	12055	Pstat Serial Number
CTRLMODE	IQUANT	0	Control Mode
ELECTROMETER	IQUANT	0	RE=0 or CS=1
IESTAB	IQUANT	0	I/E Stability
CASPEED	IQUANT	4	Control Amp Speed
CONVENTION	IQUANT	1	Current Convention
ICHRANGE	IQUANT	2	Ich Range
ICHRANGEMODE	TOGGLE	F	Ich Auto Range
ICHOFFSETENABLE	TOGGLE	T	Ich Offset Enable
ICHOFFSET	QUANT	0	Ich Offset (V)
ICHFILTER	IQUANT	3	Ich Filter
VCHRANGE	IQUANT	2	Vch Range
VCHRANGEMODE	TOGGLE	F	Vch Auto Range
VCHOFFSETENABLE	TOGGLE	T	Vch Offset Enable
VCHOFFSET	QUANT	0	Vch Offset (V)
VCHFILTER	IQUANT	3	Vch Filter
ACHRANGE	IQUANT	2	Ach Range
ACHOFFSETENABLE	TOGGLE	F	Ach Offset Enable
ACHOFFSET	QUANT	0	Ach Offset (V)
ACHFILTER	IQUANT	1	Ach Filter
IERANGELOWERLIMIT	IQUANT	1	I/E Range Lower Limit
IERANGEMODE	TOGGLE	F	I/E AutoRange
IERANGE	IQUANT	7	I/E Range
POSFEEDENABLE	TOGGLE	F	Positive Feedback IR Comp
POSFEEDRESISTANCE	QUANT	0	Positive Feedback Resistance (ohm)
ACHSELECT	IQUANT	4	Ach Select
SENSECABLEID	IQUANT	14	Sense Cable ID
PWRCABLEID	IQUANT	14	Power Cable ID
DCCALDATE	LABEL	2/12/2024	DC Calibration Date
ACCALDATE	LABEL	2/12/2024	AC Calibration Date
THERMOSELECT	IQUANT	1	Thermo Select
FRAMEWORKVERSION	LABEL	7.10.3	Framework Version
INSTRUMENTVERSION	LABEL	4.91	Instrument Version
COMMVERSION	LABEL	2.24	Communications Version
CPUPLDVERSION	LABEL	0.00	CPU PLD Version
CTRLPLDVERSION	LABEL	0.00	CTRL PLD Version
PSTATPLDVERSION	LABEL	0.00	PSTAT PLD Version
ZCURVE	TABLE
	Pt	Time	Freq	Zreal	Zimag	Zsig	Zmod	Zphz	Idc	Vdc	IERange	Imod	Vmod	Temp
	#	s	Hz	ohm	ohm	V	ohm	°	A	V	#	A	V	°C
	0	5	100078.1	0.0999667	0.2379313	1	0.2580787	67.21031	1.664035E-005	3.233987	11	0.1596479	0.0409018	-327.6853
	1	7	79453.13	0.0841794	0.1973385	1	0.2145429	66.89818	1.340604E-005	3.234016	11	0.16424	0.0350736	-327.6853
	2	9	63140.62	0.0717818	0.1632694	1	0.1783523	66.2672	-4.071626E-006	3.234047	11	0.1619827	0.0288049	-327.6853
	3	10	50203.12	0.0621386	0.1347114	1	0.1483521	65.23743	-6.938004E-006	3.234064	11	0.1609326	0.0238298	-327.6853
	4	12	39890.62	0.0547124	0.110833	1	0.1236018	63.72685	-8.040108E-006	3.234104	11	0.1602798	0.0197872	-327.6853
	5	14	31640.63	0.0489618	0.0909367	1	0.10328	61.70124	-2.604164E-005	3.234115	11	0.1598369	0.0164955	-327.6853
	6	15	25171.88	0.0445775	0.0748188	1	0.0870919	59.21327	-2.357978E-005	3.234151	11	0.1595446	0.0138884	-327.6853
	7	17	20015.62	0.0410408	0.0616056	1	0.0740243	56.329	-1.675205E-005	3.234168	11	0.1593596	0.0117929	-327.6853
	8	19	15890.62	0.0381127	0.0506784	1	0.0634104	53.055	-2.927613E-005	3.234188	11	0.1592265	0.0100947	-327.6853
	9	21	12609.38	0.0356247	0.0416163	1	0.0547817	49.43553	-2.909591E-005	3.234221	11	0.1591412	0.008717	-327.6853
	10	22	10078.13	0.0336215	0.0342491	1	0.0479938	45.5298	-1.987675E-005	3.234242	11	0.1590843	0.0076345	-327.6853
	11	24	8015.625	0.0319708	0.0278844	1	0.0424225	41.09439	-1.679722E-005	3.234267	11	0.1590551	0.0067472	-327.6853
	12	25	6328.125	0.0306819	0.0223368	1	0.0379514	36.05515	-1.838466E-005	3.234284	11	0.1590289	0.0060352	-327.6853
	13	27	5015.625	0.0297976	0.0177821	1	0.0347001	30.82721	-2.191597E-005	3.234314	11	0.1590194	0.0055179	-327.6853
	14	29	3984.375	0.0292132	0.0140311	1	0.032408	25.65507	-2.161111E-005	3.234337	11	0.1590093	0.0051531	-327.6853
	15	30	3170.956	0.0288785	0.0109588	1	0.0308879	20.78075	-2.222043E-005	3.234356	11	0.1589998	0.0049111	-327.6853
	16	32	2527.573	0.0287248	0.0084601	1	0.0299447	16.41092	-1.598604E-005	3.23439	11	0.1590057	0.0047614	-327.6853
	17	33	1976.103	0.0287072	0.0062426	1	0.0293781	12.26834	-2.226816E-005	3.234405	11	0.1590017	0.0046712	-327.6853
	18	35	1577.524	0.0288042	0.004543	1	0.0291603	8.962788	-1.567265E-005	3.234437	11	0.1589981	0.0046364	-327.6853
	19	36	1265.625	0.028958	0.0032671	1	0.0291417	6.437022	-2.147106E-005	3.234463	11	0.1590043	0.0046337	-327.6853
	20	38	998.264	0.0291633	0.0021054	1	0.0292392	4.129249	-1.888943E-005	3.234481	11	0.159	0.004649	-327.6853
	21	39	796.875	0.0293951	0.0012367	1	0.0294211	2.409199	-1.946953E-005	3.234509	11	0.1589988	0.0046779	-327.6853
	22	41	627.7902	0.0296487	0.0005143	1	0.0296532	0.993706	-1.715371E-005	3.234532	11	0.1590039	0.004715	-327.6853
	23	42	505.5147	0.0299449	-7.387349E-005	1	0.029945	-0.1413473	-2.948724E-005	3.234559	11	0.1575927	0.0046929	-327.6853
	24	44	397.9953	0.0302751	-0.0005667	1	0.0302805	-1.072421	-2.535916E-005	3.234582	11	0.1606055	0.0048432	-327.6853
	25	45	315.5048	0.03059	-0.0009554	1	0.0306049	-1.788936	-1.861015E-005	3.234608	11	0.159339	0.0048628	-327.6853
	26	47	252.4038	0.0309126	-0.0012723	1	0.0309388	-2.356873	-2.196163E-005	3.234634	11	0.1589705	0.0049091	-327.6853
	27	48	198.6229	0.0312642	-0.0015642	1	0.0313033	-2.864283	-1.323083E-005	3.234653	11	0.1588743	0.0049673	-327.6853
	28	50	158.3615	0.0316054	-0.0018015	1	0.0316567	-3.262379	-2.049282E-005	3.234674	11	0.1588925	0.0050261	-327.6853
	29	52	125.558	0.0319712	-0.0020052	1	0.032034	-3.588839	-1.985165E-005	3.234702	11	0.1589105	0.005088	-327.6853
	30	53	100.4464	0.0323202	-0.002185	1	0.032394	-3.867618	-3.319955E-005	3.23472	11	0.1589404	0.0051471	-327.6853
	31	55	79.00281	0.0327155	-0.0023481	1	0.0327997	-4.105288	-1.918816E-005	3.234749	11	0.1589565	0.0052127	-327.6853
	32	56	63.3446	0.0330905	-0.0024866	1	0.0331838	-4.297473	-2.732582E-005	3.234774	11	0.158976	0.0052748	-327.6853
	33	58	50.22321	0.0334847	-0.0026364	1	0.0335884	-4.501886	-1.588545E-005	3.234797	11	0.1589844	0.0053396	-327.6853
	34	60	38.42213	0.0339491	-0.0027897	1	0.0340635	-4.697673	-2.122513E-005	3.234829	11	0.1589851	0.0054153	-327.6853
	35	61	31.25	0.0343225	-0.0029227	1	0.0344468	-4.867153	-3.236704E-005	3.234849	11	0.1589982	0.0054768	-327.6853
	36	63	24.93351	0.0347374	-0.0030638	1	0.0348722	-5.040335	-2.028258E-005	3.234876	11	0.1589957	0.0055444	-327.6853
	37	65	19.86229	0.0351513	-0.0032186	1	0.0352983	-5.231734	-1.943269E-005	3.234867	11	0.1589887	0.005612	-327.6853
	38	66	15.625	0.0356436	-0.0034196	1	0.0358073	-5.48003	-3.578048E-005	3.23494	11	0.1589855	0.0056928	-327.6853
	39	68	12.40079	0.0361587	-0.0035711	1	0.0363346	-5.640422	-3.858889E-005	3.234896	11	0.1589968	0.0057771	-327.6853
	40	69	9.93114	0.0366495	-0.0037879	1	0.0368447	-5.900883	-5.038676E-005	3.234916	11	0.1589966	0.0058582	-327.6853
	41	71	7.944915	0.0372207	-0.0040064	1	0.0374357	-6.143652	9.915209E-006	3.234942	11	0.1590164	0.0059529	-327.6853
	42	72	6.317385	0.0378572	-0.0042496	1	0.038095	-6.404842	-0.000107	3.234954	11	0.1590188	0.0060578	-327.6853
	43	74	5.008013	0.0385738	-0.0044323	1	0.0388276	-6.554862	-7.759663E-007	3.235018	11	0.1589866	0.0061731	-327.6853
	44	77	3.945707	0.0393643	-0.0046021	1	0.0396324	-6.668224	1.413957E-005	3.235036	11	0.1589775	0.0063007	-327.6853
	45	79	3.158693	0.0401328	-0.0046859	1	0.0404055	-6.659738	1.440669E-005	3.235086	11	0.159032	0.0064258	-327.6853
	46	83	2.504006	0.040944	-0.0046907	1	0.0412118	-6.535565	-6.538676E-005	3.23516	11	0.1553816	0.0063769	-327.6853
	47	87	1.998082	0.0417157	-0.004652	1	0.0419743	-6.363095	0.0002487	3.235287	11	0.1615271	0.0067596	-327.6853
	48	91	1.584686	0.0424968	-0.0045435	1	0.042739	-6.102537	0.00029	3.235338	11	0.1599149	0.0068207	-327.6853
	49	96	1.266892	0.043177	-0.0044242	1	0.0434031	-5.850478	-0.0002962	3.235414	11	0.1593032	0.0069049	-327.6853
	50	102	0.999041	0.0438464	-0.0042841	1	0.0440552	-5.580509	-0.0002851	3.235453	11	0.1590772	0.0070021	-327.6853
	51	108	0.7923428	0.0444276	-0.0041057	1	0.044617	-5.279928	-3.761973E-005	3.235636	11	0.1591112	0.0070952	-327.6853
	52	115	0.6334459	0.0449409	-0.003992	1	0.0451178	-5.076174	-4.284992E-005	3.235748	11	0.1589832	0.0071704	-327.6853
	53	124	0.5040323	0.0454109	-0.0039065	1	0.0455786	-4.916864	-3.864101E-005	3.235902	11	0.1589824	0.0072446	-327.6853
	54	135	0.400641	0.0458499	-0.0038815	1	0.0460139	-4.838968	-4.317322E-005	3.236085	11	0.1589862	0.0073145	-327.6853
	55	149	0.316723	0.0462855	-0.0039178	1	0.046451	-4.838229	-5.1631E-005	3.236299	11	0.1589889	0.0073845	-327.6853
	56	164	0.2520161	0.0466893	-0.0040207	1	0.0468621	-4.921967	-4.141178E-005	3.236558	11	0.1589942	0.0074504	-327.6853
	57	185	0.2003205	0.0470761	-0.0042028	1	0.0472633	-5.101632	-4.050875E-005	3.236868	11	0.1589961	0.0075144	-327.6853
	58	206	0.1588983	0.0474967	-0.0044633	1	0.0477059	-5.368413	-3.875686E-005	3.23721	11	0.1589975	0.007585	-327.6853
	59	232	0.1260081	0.0479591	-0.0048201	1	0.0482008	-5.739157	-3.791459E-005	3.237857	11	0.1589972	0.0076637	-327.6853
	60	262	0.1001603	0.0484657	-0.0052558	1	0.0487498	-6.189201	-4.300914E-005	3.238868	11	0.1589983	0.0077511	-327.6853
	61	298	0.0794492	0.0489874	-0.005804	1	0.0493301	-6.756873	-4.240576E-005	3.24006	11	0.1590018	0.0078435	-327.6853
	62	338	0.0631739	0.049381	-0.0064965	1	0.0498065	-7.494761	-4.168765E-005	3.240512	11	0.1589985	0.0079191	-327.6853
	63	402	0.0501337	0.0498909	-0.0073373	1	0.0504275	-8.366304	-4.13794E-005	3.241249	11	0.1589988	0.0080179	-327.6853
	64	464	0.0398258	0.0504198	-0.0083559	1	0.0511075	-9.409872	-4.334127E-005	3.242089	11	0.1589996	0.0081261	-327.6853
	65	541	0.0316296	0.0509803	-0.0096132	1	0.0518788	-10.67875	-4.075313E-005	3.24322	11	0.1590001	0.0082487	-327.6853
	66	669	0.0251206	0.0516183	-0.0111748	1	0.0528141	-12.21538	-3.903091E-005	3.244555	11	0.1590005	0.0083975	-327.6853
	67	790	0.0199553	0.0523028	-0.0131238	1	0.0539242	-14.08577	-4.123511E-005	3.246152	11	0.1589992	0.0085739	-327.6853
	68	992	0.0158522	0.0531361	-0.015515	1	0.0553549	-16.27712	-4.067747E-005	3.247989	11	0.1590001	0.0088014	-327.6853
	69	1182	0.0125907	0.0541727	-0.0184231	1	0.0572197	-18.78217	-3.977387E-005	3.250124	11	0.1589998	0.0090979	-327.6853
	70	1502	0.0100011	0.055517	-0.0218619	1	0.0596664	-21.49393	-3.763707E-005	3.252809	11	0.1589997	0.0094869	-327.6853
