EXPLAIN
TAG	GALVEIS
TITLE	LABEL	Galvanostatic EIS	Test Identifier
DATE	LABEL	25.5.2024	Date
TIME	LABEL	5:45:31	Time
NOTES	NOTES	1	Notes...
	
PSTAT	PSTAT	REF600-12055	Potentiostat
FREQINIT	QUANT	1.00000E+005	Initial Freq. (Hz)
FREQFINAL	QUANT	1.00000E-002	Final Freq. (Hz)
PTSPERDEC	QUANT	1.00000E+001	Points/decade
IACREQ	QUANT	1.59000E-001	AC Current (A rms)
IDCREQ	QUANT	0.00000E+000	DC Current (A)
AREA	QUANT	1.00000E+000	Sample Area (cm^2)
SPEED	SELECTOR	1	Optimize for:
DRIFTCOR	SELECTOR	0	Drift Correction
THD	SELECTOR	0	THD
ZGUESS	QUANT	1.00000E-001	Estimated Z (ohms)
EOC	QUANT	3.663627	Open Circuit (V)
SEQUENCER	TOGGLE	TRUE	Run as Sequence
PSTATMODEL	IQUANT	4	Pstat Model
PSTATSECTION	LABEL	REF600-12055	Pstat Section
PSTATSERIALNO	LABEL	12055	Pstat Serial Number
CTRLMODE	IQUANT	0	Control Mode
ELECTROMETER	IQUANT	0	RE=0 or CS=1
IESTAB	IQUANT	0	I/E Stability
CASPEED	IQUANT	4	Control Amp Speed
CONVENTION	IQUANT	1	Current Convention
ICHRANGE	IQUANT	2	Ich Range
ICHRANGEMODE	TOGGLE	F	Ich Auto Range
ICHOFFSETENABLE	TOGGLE	T	Ich Offset Enable
ICHOFFSET	QUANT	0	Ich Offset (V)
ICHFILTER	IQUANT	3	Ich Filter
VCHRANGE	IQUANT	2	Vch Range
VCHRANGEMODE	TOGGLE	F	Vch Auto Range
VCHOFFSETENABLE	TOGGLE	T	Vch Offset Enable
VCHOFFSET	QUANT	0	Vch Offset (V)
VCHFILTER	IQUANT	3	Vch Filter
ACHRANGE	IQUANT	2	Ach Range
ACHOFFSETENABLE	TOGGLE	F	Ach Offset Enable
ACHOFFSET	QUANT	0	Ach Offset (V)
ACHFILTER	IQUANT	1	Ach Filter
IERANGELOWERLIMIT	IQUANT	1	I/E Range Lower Limit
IERANGEMODE	TOGGLE	F	I/E AutoRange
IERANGE	IQUANT	7	I/E Range
POSFEEDENABLE	TOGGLE	F	Positive Feedback IR Comp
POSFEEDRESISTANCE	QUANT	0	Positive Feedback Resistance (ohm)
ACHSELECT	IQUANT	4	Ach Select
SENSECABLEID	IQUANT	14	Sense Cable ID
PWRCABLEID	IQUANT	14	Power Cable ID
DCCALDATE	LABEL	2/12/2024	DC Calibration Date
ACCALDATE	LABEL	2/12/2024	AC Calibration Date
THERMOSELECT	IQUANT	1	Thermo Select
FRAMEWORKVERSION	LABEL	7.10.3	Framework Version
INSTRUMENTVERSION	LABEL	4.91	Instrument Version
COMMVERSION	LABEL	2.24	Communications Version
CPUPLDVERSION	LABEL	0.00	CPU PLD Version
CTRLPLDVERSION	LABEL	0.00	CTRL PLD Version
PSTATPLDVERSION	LABEL	0.00	PSTAT PLD Version
ZCURVE	TABLE
	Pt	Time	Freq	Zreal	Zimag	Zsig	Zmod	Zphz	Idc	Vdc	IERange	Imod	Vmod	Temp
	#	s	Hz	ohm	ohm	V	ohm	°	A	V	#	A	V	°C
	0	5	100078.1	0.100011	0.2365284	1	0.2568032	67.07996	3.310186E-005	3.663851	11	0.1596661	0.0407043	-327.6853
	1	7	79453.13	0.08409	0.1962975	1	0.2135506	66.81065	1.30618E-005	3.663869	11	0.1642616	0.034916	-327.6853
	2	9	63140.62	0.07158	0.1624811	1	0.1775494	66.22442	3.686291E-006	3.663865	11	0.1619852	0.0286756	-327.6853
	3	10	50203.12	0.0618665	0.1341244	1	0.1477051	65.23792	-1.353951E-005	3.66388	11	0.1609413	0.0237272	-327.6853
	4	12	39890.62	0.0543786	0.1103881	1	0.1230551	63.77455	-9.540236E-006	3.663881	11	0.1602772	0.0196994	-327.6853
	5	14	31640.63	0.0486048	0.0906056	1	0.1028192	61.78897	-1.328951E-005	3.663883	11	0.1598452	0.0164227	-327.6853
	6	15	25171.88	0.0441746	0.0745813	1	0.086682	59.36168	-1.426737E-005	3.663882	11	0.1595469	0.0138232	-327.6853
	7	17	20015.62	0.0406282	0.0614203	1	0.0736417	56.51621	-1.758023E-005	3.66389	11	0.1593598	0.011732	-327.6853
	8	19	15890.62	0.0376627	0.0505398	1	0.0630297	53.30621	-1.75871E-005	3.663894	11	0.1592267	0.0100341	-327.6853
	9	21	12609.38	0.035175	0.041525	1	0.0544207	49.73272	-1.909328E-005	3.663905	11	0.1591417	0.0086596	-327.6853
	10	22	10078.13	0.0331547	0.0341874	1	0.0476237	45.87855	-1.458719E-005	3.66392	11	0.1590874	0.0075757	-327.6853
	11	24	8015.625	0.0314971	0.0278359	1	0.0420346	41.46903	-1.968851E-005	3.663921	11	0.1590572	0.0066856	-327.6853
	12	25	6328.125	0.0302081	0.022316	1	0.0375571	36.45488	-2.011016E-005	3.66392	11	0.1590314	0.0059726	-327.6853
	13	27	5015.625	0.0293203	0.0177904	1	0.0342955	31.24776	-2.073555E-005	3.663926	11	0.159014	0.0054534	-327.6853
	14	29	3984.375	0.0287263	0.0140712	1	0.0319875	26.09735	-1.534456E-005	3.663939	11	0.1590083	0.0050862	-327.6853
	15	30	3170.956	0.0283899	0.0109931	1	0.0304439	21.16736	-1.429778E-005	3.663946	11	0.1590024	0.0048406	-327.6853
	16	32	2527.573	0.0282435	0.0084836	1	0.0294901	16.71879	-1.85789E-005	3.663949	11	0.1590069	0.0046891	-327.6853
	17	34	1976.103	0.0282082	0.0063153	1	0.0289064	12.61934	-1.675182E-005	3.66396	11	0.1590016	0.0045962	-327.6853
	18	35	1577.524	0.028287	0.0046783	1	0.0286712	9.391028	-1.6212E-005	3.663965	11	0.1590011	0.0045588	-327.6853
	19	37	1265.625	0.0284184	0.0033801	1	0.0286188	6.782821	-1.763471E-005	3.663972	11	0.1590021	0.0045504	-327.6853
	20	39	998.264	0.028598	0.0023275	1	0.0286926	4.652934	-2.019084E-005	3.66397	11	0.1589996	0.0045621	-327.6853
	21	40	796.875	0.0288196	0.0014972	1	0.0288585	2.973852	-3.05968E-005	3.663973	11	0.1590018	0.0045885	-327.6853
	22	42	627.7902	0.0290765	0.0007153	1	0.0290853	1.409292	-1.605979E-005	3.663991	11	0.158995	0.0046244	-327.6853
	23	43	505.5147	0.0293177	0.0001989	1	0.0293183	0.388671	-1.814228E-005	3.663998	11	0.1576015	0.0045949	-327.6853
	24	45	397.9953	0.0296136	-0.0002481	1	0.0296146	-0.4800043	-2.897345E-005	3.664002	11	0.1606015	0.0047366	-327.6853
	25	46	315.5048	0.0298944	-0.0005975	1	0.0299004	-1.145092	-1.972122E-005	3.66401	11	0.1593413	0.0047509	-327.6853
	26	48	252.4038	0.0301608	-0.0008702	1	0.0301734	-1.652719	-1.617929E-005	3.664013	11	0.1589664	0.0047875	-327.6853
	27	49	198.6229	0.0304677	-0.0011033	1	0.0304877	-2.073908	-2.981361E-005	3.664017	11	0.1588777	0.004838	-327.6853
	28	51	158.3615	0.030755	-0.0012775	1	0.0307816	-2.378662	-1.790316E-005	3.664026	11	0.1588872	0.004887	-327.6853
	29	52	125.558	0.0310507	-0.0014215	1	0.0310833	-2.621077	-2.275372E-005	3.664032	11	0.1589165	0.0049372	-327.6853
	30	54	100.4464	0.0313472	-0.0015222	1	0.0313842	-2.7801	-1.726481E-005	3.664036	11	0.1589351	0.0049865	-327.6853
	31	55	79.00281	0.0316637	-0.0015981	1	0.031704	-2.88926	-1.908373E-005	3.664037	11	0.1589592	0.0050386	-327.6853
	32	57	63.3446	0.0319602	-0.0016406	1	0.0320023	-2.938523	-2.120039E-005	3.664039	11	0.1589792	0.0050871	-327.6853
	33	59	50.22321	0.0322652	-0.0016559	1	0.0323076	-2.938017	-1.903041E-005	3.664045	11	0.1589791	0.0051358	-327.6853
	34	61	38.42213	0.0326236	-0.0016349	1	0.0326646	-2.86886	-1.911205E-005	3.66405	11	0.158987	0.005193	-327.6853
	35	62	31.25	0.0328831	-0.0016031	1	0.0329222	-2.790958	-9.478012E-006	3.664049	11	0.158995	0.0052343	-327.6853
	36	64	24.93351	0.033148	-0.0015447	1	0.033184	-2.667985	-1.897721E-005	3.664058	11	0.1589986	0.0052761	-327.6853
	37	65	19.86229	0.0333923	-0.0014722	1	0.0334248	-2.524393	8.380506E-006	3.664057	11	0.1589762	0.0053137	-327.6853
	38	67	15.625	0.033647	-0.0013656	1	0.0336747	-2.32417	-2.603297E-005	3.664069	11	0.1590088	0.0053545	-327.6853
	39	68	12.40079	0.0338322	-0.0012811	1	0.0338564	-2.168622	-1.934881E-005	3.664084	11	0.1589996	0.0053831	-327.6853
	40	70	9.93114	0.0340177	-0.0011769	1	0.034038	-1.981381	-8.732954E-006	3.664089	11	0.1590046	0.0054122	-327.6853
	41	71	7.944915	0.0341422	-0.0010865	1	0.0341595	-1.822633	-2.900111E-005	3.664082	11	0.158976	0.0054305	-327.6853
	42	73	6.317385	0.0342806	-0.0010089	1	0.0342954	-1.685686	-0.0001072	3.664082	11	0.1590424	0.0054544	-327.6853
	43	75	5.008013	0.0343906	-0.0009517	1	0.0344038	-1.585169	3.255263E-006	3.664101	11	0.1589813	0.0054696	-327.6853
	44	77	3.945707	0.0344979	-0.0008969	1	0.0345096	-1.489241	1.331826E-005	3.664104	11	0.1589788	0.0054863	-327.6853
	45	80	3.158693	0.0345977	-0.0008677	1	0.0346086	-1.436688	1.460314E-005	3.664112	11	0.159035	0.005504	-327.6853
	46	83	2.504006	0.0346911	-0.0008502	1	0.0347015	-1.403918	-7.495307E-005	3.664126	11	0.1553871	0.0053697	-327.6853
	47	86	1.998082	0.0347786	-0.0008524	1	0.0347891	-1.403954	0.000248	3.664171	11	0.1615205	0.0056022	-327.6853
	48	90	1.584686	0.0348842	-0.0008644	1	0.0348949	-1.419461	0.0002749	3.66418	11	0.1599172	0.0055689	-327.6853
	49	94	1.266892	0.0349776	-0.0008956	1	0.034989	-1.466656	-0.0003047	3.664184	11	0.1593039	0.0055664	-327.6853
	50	99	0.999041	0.0350799	-0.0009319	1	0.0350922	-1.521746	-0.0002892	3.664179	11	0.1590763	0.0055775	-327.6853
	51	105	0.7923428	0.0351971	-0.0009797	1	0.0352108	-1.59447	-4.382877E-005	3.664241	11	0.1591162	0.0055995	-327.6853
	52	112	0.6334459	0.035307	-0.001041	1	0.0353224	-1.68888	-4.041623E-005	3.664263	11	0.1589849	0.0056137	-327.6853
	53	120	0.5040323	0.035431	-0.0011178	1	0.0354486	-1.806929	-4.278941E-005	3.664287	11	0.1589816	0.0056344	-327.6853
	54	132	0.400641	0.0355559	-0.0012155	1	0.0355766	-1.957963	-4.058737E-005	3.664325	11	0.1589872	0.0056554	-327.6853
	55	146	0.316723	0.0356983	-0.0013291	1	0.035723	-2.132257	-4.093527E-005	3.66437	11	0.1589898	0.0056791	-327.6853
	56	160	0.2520161	0.0358489	-0.0014616	1	0.0358787	-2.334753	-4.04672E-005	3.664416	11	0.1589939	0.0057042	-327.6853
	57	181	0.2003205	0.0360125	-0.0016069	1	0.0360483	-2.554856	-4.164335E-005	3.66448	11	0.1589958	0.0057313	-327.6853
	58	203	0.1588983	0.0361894	-0.0017912	1	0.0362336	-2.833496	-4.066869E-005	3.664547	11	0.1589972	0.0057609	-327.6853
	59	228	0.1260081	0.0364199	-0.0019994	1	0.0364747	-3.14232	-3.711265E-005	3.664711	11	0.1589986	0.0057993	-327.6853
	60	266	0.1001603	0.0366687	-0.0022314	1	0.0367365	-3.482277	-4.069598E-005	3.664966	11	0.1589975	0.005841	-327.6853
	61	312	0.0794492	0.0369515	-0.0025041	1	0.0370362	-3.876802	-4.119247E-005	3.665248	11	0.1590019	0.0058888	-327.6853
	62	352	0.0631739	0.0371517	-0.00283	1	0.0372594	-4.356072	-3.952128E-005	3.665241	11	0.1589987	0.0059242	-327.6853
	63	417	0.0501337	0.0374253	-0.0032013	1	0.0375619	-4.889068	-4.051248E-005	3.665358	11	0.1589996	0.0059723	-327.6853
	64	498	0.0398258	0.0377549	-0.0036335	1	0.0379294	-5.497103	-3.953549E-005	3.66551	11	0.1590004	0.0060308	-327.6853
	65	575	0.0316296	0.038117	-0.0041473	1	0.0383419	-6.209674	-4.038779E-005	3.66569	11	0.1589995	0.0060963	-327.6853
	66	703	0.0251206	0.0385437	-0.0047568	1	0.0388361	-7.035465	-3.951713E-005	3.665907	11	0.159001	0.006175	-327.6853
	67	824	0.0199553	0.03902	-0.0054865	1	0.0394038	-8.003719	-3.95861E-005	3.666153	11	0.158999	0.0062652	-327.6853
	68	1026	0.0158522	0.039631	-0.0063438	1	0.0401355	-9.09424	-3.980342E-005	3.666465	11	0.1589995	0.0063815	-327.6853
	69	1280	0.0125907	0.0403498	-0.0073655	1	0.0410165	-10.34491	-4.017345E-005	3.666775	11	0.1590006	0.0065217	-327.6853
	70	1519	0.0100011	0.0411975	-0.0085352	1	0.0420723	-11.70485	-4.036589E-005	3.667093	11	0.1589994	0.0066895	-327.6853
