EXPLAIN
TAG	GALVEIS
TITLE	LABEL	Galvanostatic EIS	Test Identifier
DATE	LABEL	25.5.2024	Date
TIME	LABEL	0:32:18	Time
NOTES	NOTES	1	Notes...
	
PSTAT	PSTAT	REF600-12055	Potentiostat
FREQINIT	QUANT	1.00000E+005	Initial Freq. (Hz)
FREQFINAL	QUANT	1.00000E-002	Final Freq. (Hz)
PTSPERDEC	QUANT	1.00000E+001	Points/decade
IACREQ	QUANT	1.59000E-001	AC Current (A rms)
IDCREQ	QUANT	0.00000E+000	DC Current (A)
AREA	QUANT	1.00000E+000	Sample Area (cm^2)
SPEED	SELECTOR	1	Optimize for:
DRIFTCOR	SELECTOR	0	Drift Correction
THD	SELECTOR	0	THD
ZGUESS	QUANT	1.00000E-001	Estimated Z (ohms)
EOC	QUANT	4.035381	Open Circuit (V)
SEQUENCER	TOGGLE	TRUE	Run as Sequence
PSTATMODEL	IQUANT	4	Pstat Model
PSTATSECTION	LABEL	REF600-12055	Pstat Section
PSTATSERIALNO	LABEL	12055	Pstat Serial Number
CTRLMODE	IQUANT	0	Control Mode
ELECTROMETER	IQUANT	0	RE=0 or CS=1
IESTAB	IQUANT	0	I/E Stability
CASPEED	IQUANT	4	Control Amp Speed
CONVENTION	IQUANT	1	Current Convention
ICHRANGE	IQUANT	2	Ich Range
ICHRANGEMODE	TOGGLE	F	Ich Auto Range
ICHOFFSETENABLE	TOGGLE	T	Ich Offset Enable
ICHOFFSET	QUANT	0	Ich Offset (V)
ICHFILTER	IQUANT	3	Ich Filter
VCHRANGE	IQUANT	2	Vch Range
VCHRANGEMODE	TOGGLE	F	Vch Auto Range
VCHOFFSETENABLE	TOGGLE	T	Vch Offset Enable
VCHOFFSET	QUANT	0	Vch Offset (V)
VCHFILTER	IQUANT	3	Vch Filter
ACHRANGE	IQUANT	2	Ach Range
ACHOFFSETENABLE	TOGGLE	F	Ach Offset Enable
ACHOFFSET	QUANT	0	Ach Offset (V)
ACHFILTER	IQUANT	1	Ach Filter
IERANGELOWERLIMIT	IQUANT	1	I/E Range Lower Limit
IERANGEMODE	TOGGLE	F	I/E AutoRange
IERANGE	IQUANT	7	I/E Range
POSFEEDENABLE	TOGGLE	F	Positive Feedback IR Comp
POSFEEDRESISTANCE	QUANT	0	Positive Feedback Resistance (ohm)
ACHSELECT	IQUANT	4	Ach Select
SENSECABLEID	IQUANT	14	Sense Cable ID
PWRCABLEID	IQUANT	14	Power Cable ID
DCCALDATE	LABEL	2/12/2024	DC Calibration Date
ACCALDATE	LABEL	2/12/2024	AC Calibration Date
THERMOSELECT	IQUANT	1	Thermo Select
FRAMEWORKVERSION	LABEL	7.10.3	Framework Version
INSTRUMENTVERSION	LABEL	4.91	Instrument Version
COMMVERSION	LABEL	2.24	Communications Version
CPUPLDVERSION	LABEL	0.00	CPU PLD Version
CTRLPLDVERSION	LABEL	0.00	CTRL PLD Version
PSTATPLDVERSION	LABEL	0.00	PSTAT PLD Version
ZCURVE	TABLE
	Pt	Time	Freq	Zreal	Zimag	Zsig	Zmod	Zphz	Idc	Vdc	IERange	Imod	Vmod	Temp
	#	s	Hz	ohm	ohm	V	ohm	°	A	V	#	A	V	°C
	0	5	100078.1	0.099915	0.2361302	1	0.2563991	67.06507	1.941393E-005	4.035579	11	0.1596626	0.0406393	-327.6853
	1	7	79453.13	0.0839292	0.1959928	1	0.2132071	66.81813	4.36604E-006	4.035594	11	0.1642628	0.0348601	-327.6853
	2	8	63140.62	0.0714038	0.1622294	1	0.1772481	66.24373	-6.915303E-006	4.035592	11	0.1619764	0.0286254	-327.6853
	3	10	50203.12	0.061673	0.1339085	1	0.1474281	65.27106	-1.464912E-005	4.035604	11	0.1609511	0.0236841	-327.6853
	4	12	39890.62	0.0541807	0.110204	1	0.1228025	63.81942	-6.399234E-006	4.035615	11	0.1602728	0.0196584	-327.6853
	5	13	31640.63	0.0484177	0.0904415	1	0.1025863	61.83773	-1.576659E-005	4.035601	11	0.1598485	0.0163859	-327.6853
	6	15	25171.88	0.0439982	0.0744421	1	0.0864724	59.41523	-1.104793E-005	4.035613	11	0.1595516	0.0137902	-327.6853
	7	17	20015.62	0.0404599	0.0613138	1	0.0734601	56.57989	-1.865753E-005	4.035601	11	0.1593579	0.0117029	-327.6853
	8	19	15890.62	0.0375167	0.0504577	1	0.0628767	53.36819	-1.903315E-005	4.035611	11	0.1592247	0.0100096	-327.6853
	9	20	12609.38	0.0350303	0.0414504	1	0.0542702	49.79839	-1.520466E-005	4.035619	11	0.1591487	0.008636	-327.6853
	10	22	10078.13	0.0330118	0.0341384	1	0.0474891	45.96113	-1.612655E-005	4.035625	11	0.1590848	0.0075542	-327.6853
	11	23	8015.625	0.0313488	0.0278014	1	0.0419006	41.56787	-1.595414E-005	4.035629	11	0.159049	0.0066639	-327.6853
	12	25	6328.125	0.0300519	0.022296	1	0.0374196	36.57226	-1.62355E-005	4.035616	11	0.1590364	0.0059509	-327.6853
	13	26	5015.625	0.0291736	0.017769	1	0.034159	31.34466	-1.63134E-005	4.035635	11	0.1590111	0.0054316	-327.6853
	14	28	3984.375	0.0285804	0.0140634	1	0.031853	26.20016	-2.125162E-005	4.035636	11	0.1590096	0.0050649	-327.6853
	15	29	3170.956	0.0282367	0.0109892	1	0.0302998	21.26495	-1.943891E-005	4.035634	11	0.1590083	0.0048179	-327.6853
	16	31	2527.573	0.0280852	0.0084729	1	0.0293355	16.78775	-2.106314E-005	4.035637	11	0.1590048	0.0046645	-327.6853
	17	33	1976.103	0.0280426	0.0063041	1	0.0287425	12.66978	-1.975941E-005	4.035657	11	0.1589999	0.00457	-327.6853
	18	34	1577.524	0.0281153	0.0047491	1	0.0285136	9.58759	-2.284592E-005	4.035659	11	0.1590046	0.0045338	-327.6853
	19	36	1265.625	0.0282617	0.00341	1	0.0284667	6.879966	-1.743902E-005	4.03566	11	0.1589954	0.0045261	-327.6853
	20	37	998.264	0.0284163	0.0023441	1	0.0285128	4.715783	-1.864583E-005	4.03567	11	0.1590002	0.0045335	-327.6853
	21	39	796.875	0.0286325	0.0014275	1	0.028668	2.854106	-2.075109E-005	4.035653	11	0.1589978	0.0045582	-327.6853
	22	40	627.7902	0.0288891	0.0007636	1	0.0288991	1.514165	-2.336898E-005	4.035665	11	0.1589985	0.0045949	-327.6853
	23	42	505.5147	0.0291253	0.0002168	1	0.0291261	0.4265162	-2.847181E-005	4.035677	11	0.1576056	0.0045649	-327.6853
	24	43	397.9953	0.0294012	-0.0002315	1	0.0294021	-0.4510802	-3.051874E-005	4.035682	11	0.1605995	0.0047026	-327.6853
	25	45	315.5048	0.029676	-0.0005856	1	0.0296818	-1.13057	-2.995448E-005	4.03568	11	0.159339	0.0047161	-327.6853
	26	46	252.4038	0.0299415	-0.0008677	1	0.0299541	-1.659878	-2.032157E-005	4.035688	11	0.1589701	0.0047528	-327.6853
	27	48	198.6229	0.0302303	-0.0011251	1	0.0302513	-2.131505	-1.860328E-005	4.035692	11	0.1588747	0.0048004	-327.6853
	28	49	158.3615	0.0305095	-0.0013212	1	0.0305381	-2.479686	-1.993828E-005	4.035694	11	0.1588923	0.0048485	-327.6853
	29	51	125.558	0.0308025	-0.0014904	1	0.0308385	-2.77007	-2.1271E-005	4.035703	11	0.1589107	0.0048981	-327.6853
	30	53	100.4464	0.0310926	-0.0016253	1	0.031135	-2.992276	-2.717425E-005	4.035707	11	0.1589415	0.0049471	-327.6853
	31	54	79.00281	0.0314154	-0.0017468	1	0.031464	-3.182511	-1.863693E-005	4.03571	11	0.1589569	0.0050004	-327.6853
	32	56	63.3446	0.0317164	-0.0018393	1	0.0317697	-3.319029	-2.014317E-005	4.035717	11	0.1589761	0.00505	-327.6853
	33	57	50.22321	0.0320505	-0.0019188	1	0.0321079	-3.426175	-2.129569E-005	4.035721	11	0.1589838	0.0051042	-327.6853
	34	59	38.42213	0.0324437	-0.0019836	1	0.0325043	-3.498685	-1.762342E-005	4.035717	11	0.1589863	0.0051675	-327.6853
	35	61	31.25	0.0327448	-0.0020111	1	0.0328065	-3.514484	-3.036915E-005	4.035733	11	0.1589915	0.0052158	-327.6853
	36	62	24.93351	0.0330754	-0.0020197	1	0.033137	-3.494326	-2.425734E-005	4.035728	11	0.1589958	0.0052685	-327.6853
	37	64	19.86229	0.0334247	-0.0020113	1	0.0334852	-3.443607	-4.474469E-005	4.035748	11	0.1589807	0.0053234	-327.6853
	38	65	15.625	0.0337696	-0.0019758	1	0.0338274	-3.348386	-2.655952E-005	4.035736	11	0.1590065	0.0053787	-327.6853
	39	67	12.40079	0.0341045	-0.0019317	1	0.0341591	-3.241869	-3.900821E-005	4.035724	11	0.1589917	0.005431	-327.6853
	40	68	9.93114	0.0343972	-0.0018464	1	0.0344467	-3.072697	-5.183264E-005	4.03572	11	0.1589897	0.0054767	-327.6853
	41	70	7.944915	0.0346665	-0.0017749	1	0.0347119	-2.931015	-1.170236E-005	4.03575	11	0.1590036	0.0055193	-327.6853
	42	71	6.317385	0.0349163	-0.0016817	1	0.0349568	-2.757469	-1.018691E-005	4.03573	11	0.1589728	0.0055572	-327.6853
	43	73	5.008013	0.0351599	-0.0015946	1	0.035196	-2.596707	3.318302E-005	4.035726	11	0.1590182	0.0055968	-327.6853
	44	76	3.945707	0.0353585	-0.0015103	1	0.0353908	-2.445794	2.991175E-006	4.035732	11	0.1590203	0.0056278	-327.6853
	45	78	3.158693	0.03554	-0.0014626	1	0.0355701	-2.356647	9.21475E-005	4.035725	11	0.1589594	0.0056542	-327.6853
	46	81	2.504006	0.03573	-0.001397	1	0.0357573	-2.239037	-7.125083E-006	4.035716	11	0.1554738	0.0055362	-327.6853
	47	85	1.998082	0.0358833	-0.0013792	1	0.0359098	-2.201082	0.0001243	4.035738	11	0.1613701	0.0057773	-327.6853
	48	89	1.584686	0.0360339	-0.0013854	1	0.0360606	-2.201807	-3.920379E-005	4.035741	11	0.1598419	0.0057523	-327.6853
	49	93	1.266892	0.0361902	-0.0014007	1	0.0362173	-2.216525	-6.915568E-005	4.035824	11	0.1593025	0.0057617	-327.6853
	50	100	0.999041	0.0363516	-0.0014393	1	0.0363801	-2.267447	-0.0001174	4.035831	11	0.1591096	0.0057834	-327.6853
	51	105	0.7923428	0.0365231	-0.001501	1	0.0365539	-2.353358	-3.969012E-005	4.035867	11	0.159286	0.0058193	-327.6853
	52	112	0.6334459	0.0366968	-0.0015811	1	0.0367308	-2.467133	-3.98517E-005	4.035891	11	0.1589831	0.0058375	-327.6853
	53	120	0.5040323	0.0368813	-0.0016967	1	0.0369204	-2.633958	-3.784162E-005	4.035913	11	0.1589822	0.0058684	-327.6853
	54	131	0.400641	0.0370876	-0.0018206	1	0.0371323	-2.810291	-4.032993E-005	4.035948	11	0.1589861	0.0059027	-327.6853
	55	143	0.316723	0.0372994	-0.0019802	1	0.0373519	-3.038875	-4.07716E-005	4.035981	11	0.1589899	0.005938	-327.6853
	56	160	0.2520161	0.0375321	-0.0021627	1	0.0375944	-3.29782	-3.99835E-005	4.03603	11	0.1589932	0.0059769	-327.6853
	57	181	0.2003205	0.0377843	-0.0023679	1	0.0378584	-3.585989	-4.12503E-005	4.036088	11	0.1589956	0.0060191	-327.6853
	58	203	0.1588983	0.0380743	-0.0026135	1	0.0381639	-3.926769	-4.137552E-005	4.036151	11	0.1589965	0.0060678	-327.6853
	59	228	0.1260081	0.0384133	-0.002878	1	0.038521	-4.284682	-4.605833E-005	4.036313	11	0.1590008	0.0061248	-327.6853
	60	258	0.1001603	0.0387852	-0.0031816	1	0.0389154	-4.68962	-3.878963E-005	4.036559	11	0.1589983	0.0061874	-327.6853
	61	305	0.0794492	0.0391933	-0.0035259	1	0.0393516	-5.1406	-4.05042E-005	4.03682	11	0.1589982	0.0062568	-327.6853
	62	357	0.0631739	0.0395298	-0.0039362	1	0.0397253	-5.686572	-3.942975E-005	4.036772	11	0.1590012	0.0063163	-327.6853
	63	406	0.0501337	0.0399726	-0.0044032	1	0.0402144	-6.286095	-4.034829E-005	4.036834	11	0.1589984	0.006394	-327.6853
	64	467	0.0398258	0.0404466	-0.0049218	1	0.0407449	-6.938046	-4.119494E-005	4.036946	11	0.1590004	0.0064784	-327.6853
	65	544	0.0316296	0.0409936	-0.0055103	1	0.0413623	-7.655715	-4.129861E-005	4.037092	11	0.1590012	0.0065766	-327.6853
	66	672	0.0251206	0.0415892	-0.00619	1	0.0420473	-8.465522	-4.348785E-005	4.03729	11	0.158998	0.0066854	-327.6853
	67	793	0.0199553	0.042229	-0.0070003	1	0.0428053	-9.412313	-4.131001E-005	4.037485	11	0.159002	0.0068061	-327.6853
	68	945	0.0158522	0.0429898	-0.0079379	1	0.0437165	-10.4616	-4.152492E-005	4.037727	11	0.1589998	0.0069509	-327.6853
	69	1199	0.0125907	0.0438919	-0.0090255	1	0.0448102	-11.61983	-3.690072E-005	4.038	11	0.1589998	0.0071248	-327.6853
	70	1438	0.0100011	0.0449871	-0.0102889	1	0.0461487	-12.88239	-4.052129E-005	4.038278	11	0.1590004	0.0073377	-327.6853
