EXPLAIN
TAG	GALVEIS
TITLE	LABEL	Galvanostatic EIS	Test Identifier
DATE	LABEL	25.5.2024	Date
TIME	LABEL	2:57:23	Time
NOTES	NOTES	1	Notes...
	
PSTAT	PSTAT	REF600-12055	Potentiostat
FREQINIT	QUANT	1.00000E+005	Initial Freq. (Hz)
FREQFINAL	QUANT	1.00000E-002	Final Freq. (Hz)
PTSPERDEC	QUANT	1.00000E+001	Points/decade
IACREQ	QUANT	1.61000E-001	AC Current (A rms)
IDCREQ	QUANT	0.00000E+000	DC Current (A)
AREA	QUANT	1.00000E+000	Sample Area (cm^2)
SPEED	SELECTOR	1	Optimize for:
DRIFTCOR	SELECTOR	0	Drift Correction
THD	SELECTOR	0	THD
ZGUESS	QUANT	1.00000E-001	Estimated Z (ohms)
EOC	QUANT	3.876486	Open Circuit (V)
SEQUENCER	TOGGLE	TRUE	Run as Sequence
PSTATMODEL	IQUANT	4	Pstat Model
PSTATSECTION	LABEL	REF600-12055	Pstat Section
PSTATSERIALNO	LABEL	12055	Pstat Serial Number
CTRLMODE	IQUANT	0	Control Mode
ELECTROMETER	IQUANT	0	RE=0 or CS=1
IESTAB	IQUANT	0	I/E Stability
CASPEED	IQUANT	4	Control Amp Speed
CONVENTION	IQUANT	1	Current Convention
ICHRANGE	IQUANT	2	Ich Range
ICHRANGEMODE	TOGGLE	F	Ich Auto Range
ICHOFFSETENABLE	TOGGLE	T	Ich Offset Enable
ICHOFFSET	QUANT	0	Ich Offset (V)
ICHFILTER	IQUANT	3	Ich Filter
VCHRANGE	IQUANT	2	Vch Range
VCHRANGEMODE	TOGGLE	F	Vch Auto Range
VCHOFFSETENABLE	TOGGLE	T	Vch Offset Enable
VCHOFFSET	QUANT	0	Vch Offset (V)
VCHFILTER	IQUANT	3	Vch Filter
ACHRANGE	IQUANT	2	Ach Range
ACHOFFSETENABLE	TOGGLE	F	Ach Offset Enable
ACHOFFSET	QUANT	0	Ach Offset (V)
ACHFILTER	IQUANT	1	Ach Filter
IERANGELOWERLIMIT	IQUANT	1	I/E Range Lower Limit
IERANGEMODE	TOGGLE	F	I/E AutoRange
IERANGE	IQUANT	7	I/E Range
POSFEEDENABLE	TOGGLE	F	Positive Feedback IR Comp
POSFEEDRESISTANCE	QUANT	0	Positive Feedback Resistance (ohm)
ACHSELECT	IQUANT	4	Ach Select
SENSECABLEID	IQUANT	14	Sense Cable ID
PWRCABLEID	IQUANT	14	Power Cable ID
DCCALDATE	LABEL	2/12/2024	DC Calibration Date
ACCALDATE	LABEL	2/12/2024	AC Calibration Date
THERMOSELECT	IQUANT	1	Thermo Select
FRAMEWORKVERSION	LABEL	7.10.3	Framework Version
INSTRUMENTVERSION	LABEL	4.91	Instrument Version
COMMVERSION	LABEL	2.24	Communications Version
CPUPLDVERSION	LABEL	0.00	CPU PLD Version
CTRLPLDVERSION	LABEL	0.00	CTRL PLD Version
PSTATPLDVERSION	LABEL	0.00	PSTAT PLD Version
ZCURVE	TABLE
	Pt	Time	Freq	Zreal	Zimag	Zsig	Zmod	Zphz	Idc	Vdc	IERange	Imod	Vmod	Temp
	#	s	Hz	ohm	ohm	V	ohm	°	A	V	#	A	V	°C
	0	5	100078.1	0.1000131	0.2362705	1	0.2565665	67.05711	3.456243E-005	3.876838	11	0.1616223	0.041165	-327.6853
	1	7	79453.13	0.0840429	0.1961113	1	0.2133609	66.80259	7.132068E-006	3.876855	11	0.1662856	0.0353148	-327.6853
	2	9	63140.62	0.0715182	0.1623403	1	0.1773957	66.22436	3.467489E-006	3.876859	11	0.1639917	0.0290057	-327.6853
	3	10	50203.12	0.0617882	0.134012	1	0.1475703	65.24725	-1.424225E-006	3.876871	11	0.1629492	0.0240013	-327.6853
	4	12	39890.62	0.054296	0.1102933	1	0.1229336	63.78955	-8.485862E-006	3.876868	11	0.162281	0.019926	-327.6853
	5	14	31640.63	0.0485232	0.0905317	1	0.1027156	61.8096	-1.168821E-005	3.876883	11	0.1618403	0.016611	-327.6853
	6	16	25171.88	0.0440932	0.0745188	1	0.0865868	59.38694	-1.158584E-005	3.876884	11	0.1615491	0.0139813	-327.6853
	7	17	20015.62	0.0405342	0.0613753	1	0.0735523	56.55795	-1.741527E-005	3.876872	11	0.1613597	0.0118648	-327.6853
	8	19	15890.62	0.0375833	0.0505115	1	0.0629597	53.34875	-1.458765E-005	3.876889	11	0.1612276	0.0101489	-327.6853
	9	21	12609.38	0.0350812	0.0414999	1	0.0543409	49.79106	-2.578425E-005	3.876885	11	0.1611437	0.0087556	-327.6853
	10	22	10078.13	0.0330651	0.0341782	1	0.0475547	45.94832	-3.208802E-005	3.876903	11	0.1610812	0.0076596	-327.6853
	11	24	8015.625	0.0314049	0.0278354	1	0.0419651	41.55184	-2.732163E-005	3.876898	11	0.1610572	0.0067585	-327.6853
	12	26	6328.125	0.0301144	0.0223205	1	0.0374844	36.54549	-3.175158E-005	3.876911	11	0.1610323	0.006036	-327.6853
	13	27	5015.625	0.0292274	0.0177968	1	0.0342195	31.3376	-1.815811E-005	3.876909	11	0.1610135	0.0055097	-327.6853
	14	29	3984.375	0.0286331	0.0140658	1	0.0319014	26.16229	-2.200203E-005	3.87693	11	0.1610104	0.0051364	-327.6853
	15	31	3170.956	0.0282903	0.0110147	1	0.0303589	21.27326	-2.343976E-005	3.876938	11	0.1610012	0.0048878	-327.6853
	16	32	2527.573	0.0281312	0.0085431	1	0.0293998	16.89292	-1.776754E-005	3.876931	11	0.1610065	0.0047335	-327.6853
	17	34	1976.103	0.0280945	0.0063602	1	0.0288055	12.75589	-1.736084E-005	3.87695	11	0.1610034	0.0046378	-327.6853
	18	35	1577.524	0.0281604	0.0047268	1	0.0285543	9.52836	-2.313475E-005	3.876959	11	0.161	0.0045972	-327.6853
	19	37	1265.625	0.028293	0.0034834	1	0.0285066	7.01883	-2.801034E-005	3.876967	11	0.1610049	0.0045897	-327.6853
	20	39	998.264	0.0284975	0.0023776	1	0.0285965	4.769255	-3.0278E-005	3.876968	11	0.1610033	0.0046041	-327.6853
	21	40	796.875	0.0287026	0.0014699	1	0.0287403	2.931727	-2.998672E-005	3.876974	11	0.1609893	0.0046269	-327.6853
	22	42	627.7902	0.0289434	0.0008126	1	0.0289548	1.608147	-3.486226E-005	3.876975	11	0.16101	0.004662	-327.6853
	23	43	505.5147	0.029173	0.0002393	1	0.029174	0.4700283	-3.215799E-005	3.87699	11	0.1595691	0.0046294	-327.6853
	24	45	397.9953	0.0294565	-0.0002055	1	0.0294572	-0.3998079	-2.528966E-005	3.876995	11	0.1626271	0.0047709	-327.6853
	25	46	315.5048	0.0297228	-0.000561	1	0.0297281	-1.081289	-2.637925E-005	3.877001	11	0.1613405	0.0047828	-327.6853
	26	48	252.4038	0.0299872	-0.0008319	1	0.0299987	-1.589012	-3.153586E-005	3.877013	11	0.1609693	0.0048198	-327.6853
	27	49	198.6229	0.0302807	-0.0010772	1	0.0302998	-2.037335	-3.237661E-005	3.877021	11	0.1608791	0.0048687	-327.6853
	28	51	158.3615	0.0305605	-0.0012666	1	0.0305867	-2.373351	-2.176082E-005	3.877025	11	0.1608831	0.004917	-327.6853
	29	52	125.558	0.0308579	-0.0014173	1	0.0308904	-2.629777	-2.379966E-005	3.877037	11	0.1609132	0.0049682	-327.6853
	30	54	100.4464	0.0311397	-0.0015319	1	0.0311773	-2.816288	-2.583256E-005	3.877038	11	0.1609459	0.0050163	-327.6853
	31	55	79.00281	0.0314616	-0.0016233	1	0.0315035	-2.953635	-2.265879E-005	3.877042	11	0.1609524	0.0050696	-327.6853
	32	57	63.3446	0.0317611	-0.0016839	1	0.0318057	-3.034816	-2.030958E-005	3.87705	11	0.1609711	0.0051191	-327.6853
	33	59	50.22321	0.03207	-0.0017163	1	0.0321159	-3.063306	-1.694215E-005	3.877056	11	0.160987	0.0051698	-327.6853
	34	60	38.42213	0.0324354	-0.0017267	1	0.0324814	-3.047252	-2.257538E-005	3.877069	11	0.1609871	0.0052288	-327.6853
	35	62	31.25	0.032709	-0.0017088	1	0.0327536	-2.990502	-9.303447E-006	3.877068	11	0.1609928	0.0052729	-327.6853
	36	64	24.93351	0.0329966	-0.001667	1	0.0330386	-2.89216	-2.126093E-005	3.877086	11	0.1609965	0.005319	-327.6853
	37	65	19.86229	0.033259	-0.0016111	1	0.033298	-2.77329	-2.991827E-005	3.877072	11	0.1609958	0.0053608	-327.6853
	38	66	15.625	0.0335294	-0.0015254	1	0.0335641	-2.604849	-3.449153E-005	3.8771	11	0.1609821	0.0054032	-327.6853
	39	68	12.40079	0.0337559	-0.0014401	1	0.0337866	-2.442895	-4.374632E-005	3.877087	11	0.1609936	0.0054394	-327.6853
	40	70	9.93114	0.0339576	-0.0013526	1	0.0339846	-2.281055	-5.184603E-005	3.877076	11	0.1609955	0.0054713	-327.6853
	41	71	7.944915	0.0341323	-0.0012719	1	0.034156	-2.134137	8.980278E-006	3.877088	11	0.1610212	0.0054998	-327.6853
	42	73	6.317385	0.0342783	-0.0011957	1	0.0342992	-1.997743	2.565444E-005	3.877084	11	0.1609693	0.0055211	-327.6853
	43	75	5.008013	0.0344195	-0.0011482	1	0.0344387	-1.910568	2.6586E-005	3.877078	11	0.161007	0.0055449	-327.6853
	44	77	3.945707	0.0345514	-0.0011108	1	0.0345692	-1.841299	-9.4797E-006	3.877085	11	0.1610209	0.0055664	-327.6853
	45	80	3.158693	0.0346688	-0.0010999	1	0.0346863	-1.81717	7.915532E-005	3.877077	11	0.1609671	0.0055833	-327.6853
	46	82	2.504006	0.0348078	-0.0010948	1	0.034825	-1.801561	1.098972E-005	3.877074	11	0.1574027	0.0054588	-327.6853
	47	86	1.998082	0.0349306	-0.0011069	1	0.0349481	-1.814947	1.383026E-005	3.877091	11	0.1633545	0.0056917	-327.6853
	48	91	1.584686	0.0350484	-0.0011563	1	0.0350675	-1.889668	-0.0001822	3.877103	11	0.1619677	0.0056682	-327.6853
	49	95	1.266892	0.035173	-0.0012042	1	0.0351936	-1.960809	5.317925E-005	3.877197	11	0.1612564	0.0056675	-327.6853
	50	102	0.999041	0.0353152	-0.0012793	1	0.0353384	-2.074655	-6.813741E-006	3.87723	11	0.1610761	0.0056873	-327.6853
	51	108	0.7923428	0.0354785	-0.0013669	1	0.0355048	-2.206448	-4.14511E-005	3.877256	11	0.1613065	0.005724	-327.6853
	52	115	0.6334459	0.0356361	-0.0014758	1	0.0356667	-2.371396	-4.444097E-005	3.877288	11	0.1609835	0.0057397	-327.6853
	53	125	0.5040323	0.0358055	-0.0015974	1	0.0358412	-2.554517	-4.33175E-005	3.877326	11	0.1609806	0.0057684	-327.6853
	54	136	0.400641	0.0359986	-0.00175	1	0.0360411	-2.78317	-4.537372E-005	3.877375	11	0.1609876	0.0058013	-327.6853
	55	148	0.316723	0.0362212	-0.0019295	1	0.0362725	-3.049247	-4.106153E-005	3.877427	11	0.1609889	0.005839	-327.6853
	56	162	0.2520161	0.0364341	-0.0021294	1	0.0364963	-3.34479	-5.029337E-005	3.877483	11	0.1609935	0.0058753	-327.6853
	57	180	0.2003205	0.0366921	-0.0023475	1	0.0367671	-3.660646	-4.203769E-005	3.877552	11	0.1609967	0.0059192	-327.6853
	58	201	0.1588983	0.0369812	-0.0026146	1	0.0370735	-4.04407	-4.094289E-005	3.877628	11	0.1609947	0.0059685	-327.6853
	59	226	0.1260081	0.0373047	-0.0028988	1	0.0374171	-4.443255	-5.187313E-005	3.877826	11	0.1609999	0.0060241	-327.6853
	60	264	0.1001603	0.0376773	-0.0032116	1	0.0378139	-4.872169	-4.254602E-005	3.87815	11	0.1609987	0.0060879	-327.6853
	61	311	0.0794492	0.0380875	-0.0035699	1	0.0382544	-5.35458	-4.354759E-005	3.878461	11	0.1609985	0.0061589	-327.6853
	62	362	0.0631739	0.0384166	-0.0040018	1	0.0386244	-5.94702	-4.30236E-005	3.878416	11	0.1609997	0.0062185	-327.6853
	63	427	0.0501337	0.0388449	-0.0044776	1	0.0391022	-6.575383	-4.182632E-005	3.878509	11	0.1610009	0.0062955	-327.6853
	64	509	0.0398258	0.0393137	-0.0050282	1	0.0396339	-7.288535	-4.336614E-005	3.87866	11	0.1609997	0.006381	-327.6853
	65	611	0.0316296	0.0398506	-0.00566	1	0.0402505	-8.083706	-4.36026E-005	3.87883	11	0.1609992	0.0064803	-327.6853
	66	707	0.0251206	0.0404053	-0.0064257	1	0.0409131	-9.036118	-4.156079E-005	3.879016	11	0.1610002	0.006587	-327.6853
	67	868	0.0199553	0.0410557	-0.0073123	1	0.0417018	-10.09883	-4.418735E-005	3.879233	11	0.1610003	0.006714	-327.6853
	68	1020	0.0158522	0.0417987	-0.0083712	1	0.0426288	-11.32507	-4.238923E-005	3.879444	11	0.1609994	0.0068632	-327.6853
	69	1211	0.0125907	0.0427111	-0.0096313	1	0.0437836	-12.7076	-4.137986E-005	3.879674	11	0.1610004	0.0070492	-327.6853
	70	1450	0.0100011	0.0438161	-0.0110972	1	0.0451996	-14.21237	-4.295326E-005	3.87993	11	0.1609995	0.0072771	-327.6853
