EXPLAIN
TAG	GALVEIS
TITLE	LABEL	Galvanostatic EIS	Test Identifier
DATE	LABEL	24.5.2024	Date
TIME	LABEL	23:12:54	Time
NOTES	NOTES	1	Notes...
	
PSTAT	PSTAT	REF600-12055	Potentiostat
FREQINIT	QUANT	1.00000E+005	Initial Freq. (Hz)
FREQFINAL	QUANT	1.00000E-002	Final Freq. (Hz)
PTSPERDEC	QUANT	1.00000E+001	Points/decade
IACREQ	QUANT	1.59000E-001	AC Current (A rms)
IDCREQ	QUANT	0.00000E+000	DC Current (A)
AREA	QUANT	1.00000E+000	Sample Area (cm^2)
SPEED	SELECTOR	1	Optimize for:
DRIFTCOR	SELECTOR	0	Drift Correction
THD	SELECTOR	0	THD
ZGUESS	QUANT	1.00000E-001	Estimated Z (ohms)
EOC	QUANT	4.091823	Open Circuit (V)
SEQUENCER	TOGGLE	TRUE	Run as Sequence
PSTATMODEL	IQUANT	4	Pstat Model
PSTATSECTION	LABEL	REF600-12055	Pstat Section
PSTATSERIALNO	LABEL	12055	Pstat Serial Number
CTRLMODE	IQUANT	0	Control Mode
ELECTROMETER	IQUANT	0	RE=0 or CS=1
IESTAB	IQUANT	0	I/E Stability
CASPEED	IQUANT	4	Control Amp Speed
CONVENTION	IQUANT	1	Current Convention
ICHRANGE	IQUANT	2	Ich Range
ICHRANGEMODE	TOGGLE	F	Ich Auto Range
ICHOFFSETENABLE	TOGGLE	T	Ich Offset Enable
ICHOFFSET	QUANT	0	Ich Offset (V)
ICHFILTER	IQUANT	3	Ich Filter
VCHRANGE	IQUANT	2	Vch Range
VCHRANGEMODE	TOGGLE	F	Vch Auto Range
VCHOFFSETENABLE	TOGGLE	T	Vch Offset Enable
VCHOFFSET	QUANT	0	Vch Offset (V)
VCHFILTER	IQUANT	3	Vch Filter
ACHRANGE	IQUANT	2	Ach Range
ACHOFFSETENABLE	TOGGLE	F	Ach Offset Enable
ACHOFFSET	QUANT	0	Ach Offset (V)
ACHFILTER	IQUANT	1	Ach Filter
IERANGELOWERLIMIT	IQUANT	1	I/E Range Lower Limit
IERANGEMODE	TOGGLE	F	I/E AutoRange
IERANGE	IQUANT	7	I/E Range
POSFEEDENABLE	TOGGLE	F	Positive Feedback IR Comp
POSFEEDRESISTANCE	QUANT	0	Positive Feedback Resistance (ohm)
ACHSELECT	IQUANT	4	Ach Select
SENSECABLEID	IQUANT	14	Sense Cable ID
PWRCABLEID	IQUANT	14	Power Cable ID
DCCALDATE	LABEL	2/12/2024	DC Calibration Date
ACCALDATE	LABEL	2/12/2024	AC Calibration Date
THERMOSELECT	IQUANT	1	Thermo Select
FRAMEWORKVERSION	LABEL	7.10.3	Framework Version
INSTRUMENTVERSION	LABEL	4.91	Instrument Version
COMMVERSION	LABEL	2.24	Communications Version
CPUPLDVERSION	LABEL	0.00	CPU PLD Version
CTRLPLDVERSION	LABEL	0.00	CTRL PLD Version
PSTATPLDVERSION	LABEL	0.00	PSTAT PLD Version
ZCURVE	TABLE
	Pt	Time	Freq	Zreal	Zimag	Zsig	Zmod	Zphz	Idc	Vdc	IERange	Imod	Vmod	Temp
	#	s	Hz	ohm	ohm	V	ohm	°	A	V	#	A	V	°C
	0	5	100078.1	0.0999969	0.2362138	1	0.256508	67.05549	2.799224E-005	4.092067	11	0.159678	0.0406605	-327.6853
	1	7	79453.13	0.0839925	0.1960674	1	0.2133006	66.8104	1.851597E-005	4.092084	11	0.1642497	0.0348726	-327.6853
	2	8	63140.62	0.0714407	0.1623101	1	0.1773368	66.24333	9.326322E-008	4.092075	11	0.1619804	0.0286404	-327.6853
	3	10	50203.12	0.0617009	0.1339714	1	0.1474969	65.27142	-6.313669E-006	4.092094	11	0.1609467	0.0236945	-327.6853
	4	12	39890.62	0.054211	0.1102557	1	0.1228623	63.81736	-3.883732E-006	4.092092	11	0.160276	0.0196684	-327.6853
	5	13	31640.63	0.0484349	0.0904783	1	0.1026268	61.83897	-2.522895E-005	4.092095	11	0.1598542	0.0163929	-327.6853
	6	15	25171.88	0.0440137	0.0744727	1	0.0865066	59.41672	-1.427496E-005	4.09209	11	0.1595436	0.013795	-327.6853
	7	17	20015.62	0.0404673	0.0613349	1	0.0734819	56.58412	-1.250883E-005	4.092087	11	0.1593616	0.0117066	-327.6853
	8	19	15890.62	0.0375159	0.0504706	1	0.0628866	53.3758	-1.19938E-005	4.092096	11	0.159231	0.0100116	-327.6853
	9	20	12609.38	0.0350304	0.0414611	1	0.0542785	49.80561	-1.400089E-005	4.0921	11	0.1591402	0.0086368	-327.6853
	10	22	10078.13	0.033003	0.0341387	1	0.0474832	45.96909	-1.300138E-005	4.092096	11	0.1590826	0.0075532	-327.6853
	11	23	8015.625	0.0313624	0.0278021	1	0.0419112	41.55628	-1.948583E-005	4.092106	11	0.1590564	0.0066659	-327.6853
	12	25	6328.125	0.0300721	0.0222951	1	0.0374354	36.5528	-2.079294E-005	4.092097	11	0.1590363	0.0059534	-327.6853
	13	27	5015.625	0.0291747	0.01777	1	0.0341605	31.34513	-1.864269E-005	4.092099	11	0.1590128	0.0054318	-327.6853
	14	28	3984.375	0.0285973	0.0140481	1	0.0318615	26.16205	-3.067357E-005	4.092106	11	0.1590097	0.0050662	-327.6853
	15	30	3170.956	0.0282589	0.0109674	1	0.0303125	21.21142	-2.779136E-005	4.092114	11	0.1590085	0.0048199	-327.6853
	16	32	2527.573	0.0280945	0.0084582	1	0.0293401	16.75503	-1.612585E-005	4.092118	11	0.1589977	0.004665	-327.6853
	17	33	1976.103	0.0280854	0.0063009	1	0.0287835	12.64484	-2.734503E-005	4.092109	11	0.1590086	0.0045768	-327.6853
	18	35	1577.524	0.0281632	0.0046869	1	0.0285505	9.448621	-1.65801E-005	4.092123	11	0.1589989	0.0045395	-327.6853
	19	37	1265.625	0.0282735	0.0034406	1	0.0284821	6.938159	-1.723575E-005	4.092116	11	0.158997	0.0045286	-327.6853
	20	38	998.264	0.0284669	0.0022606	1	0.0285566	4.540318	-1.531147E-005	4.092132	11	0.1589997	0.0045405	-327.6853
	21	40	796.875	0.0286865	0.0014175	1	0.0287215	2.828868	-1.607975E-005	4.09213	11	0.1589964	0.0045666	-327.6853
	22	41	627.7902	0.028924	0.0006989	1	0.0289324	1.384255	-2.946227E-005	4.09212	11	0.1590023	0.0046003	-327.6853
	23	43	505.5147	0.0291651	0.0002044	1	0.0291658	0.4016185	-1.889281E-005	4.092134	11	0.1576011	0.004571	-327.6853
	24	44	397.9953	0.0294431	-0.0002413	1	0.0294441	-0.4696434	-1.704658E-005	4.092135	11	0.1605999	0.0047093	-327.6853
	25	46	315.5048	0.0297139	-0.0005976	1	0.0297199	-1.152242	-1.867069E-005	4.09214	11	0.1593394	0.0047222	-327.6853
	26	47	252.4038	0.0299782	-0.0008826	1	0.0299912	-1.686459	-1.883617E-005	4.092139	11	0.1589715	0.0047587	-327.6853
	27	49	198.6229	0.0302616	-0.00113	1	0.0302826	-2.138511	-1.815264E-005	4.092146	11	0.1588737	0.0048053	-327.6853
	28	50	158.3615	0.0305352	-0.0013387	1	0.0305645	-2.510277	-1.763739E-005	4.09215	11	0.1588947	0.0048527	-327.6853
	29	52	125.558	0.0308227	-0.0015172	1	0.03086	-2.818046	-1.22526E-005	4.092153	11	0.1589091	0.0049015	-327.6853
	30	54	100.4464	0.0311052	-0.0016617	1	0.0311496	-3.057957	-2.390728E-005	4.092155	11	0.1589441	0.0049495	-327.6853
	31	55	79.00281	0.0314157	-0.0018002	1	0.0314673	-3.279581	-2.783258E-005	4.092157	11	0.158957	0.005001	-327.6853
	32	57	63.3446	0.0317166	-0.0019227	1	0.0317749	-3.469177	-1.717417E-005	4.092156	11	0.1589707	0.0050506	-327.6853
	33	58	50.22321	0.0320269	-0.0020392	1	0.0320917	-3.643117	-1.356506E-005	4.092165	11	0.1589854	0.0051017	-327.6853
	34	60	38.42213	0.0324032	-0.0021615	1	0.0324752	-3.816278	-1.919025E-005	4.092171	11	0.1589868	0.0051629	-327.6853
	35	61	31.25	0.032707	-0.0022573	1	0.0327848	-3.948101	-5.309004E-006	4.092173	11	0.1589923	0.0052124	-327.6853
	36	63	24.93351	0.0330501	-0.0023597	1	0.0331342	-4.083808	-1.651875E-005	4.092177	11	0.1589947	0.0052681	-327.6853
	37	64	19.86229	0.0334083	-0.0024642	1	0.0334991	-4.218526	-4.603004E-006	4.092163	11	0.1589992	0.0053263	-327.6853
	38	66	15.625	0.033821	-0.0025807	1	0.0339194	-4.363474	-2.934411E-005	4.092185	11	0.1589825	0.0053925	-327.6853
	39	67	12.40079	0.0342394	-0.0026671	1	0.0343431	-4.45402	-3.699143E-005	4.092175	11	0.1589967	0.0054604	-327.6853
	40	69	9.93114	0.0346743	-0.0027379	1	0.0347822	-4.514809	-4.863285E-005	4.092165	11	0.1589969	0.0055302	-327.6853
	41	70	7.944915	0.0351359	-0.0027769	1	0.0352454	-4.518883	1.346995E-005	4.09217	11	0.1590195	0.0056047	-327.6853
	42	72	6.317385	0.0356184	-0.0027911	1	0.0357276	-4.480693	-0.000101	4.092166	11	0.1590102	0.005681	-327.6853
	43	75	5.008013	0.0361112	-0.0027552	1	0.0362162	-4.363006	3.207475E-005	4.092171	11	0.1589594	0.0057569	-327.6853
	44	77	3.945707	0.0365831	-0.0026575	1	0.0366795	-4.154866	1.496298E-005	4.092171	11	0.1590089	0.0058324	-327.6853
	45	79	3.158693	0.0369998	-0.0025552	1	0.037088	-3.95057	7.337425E-005	4.092161	11	0.1589802	0.0058962	-327.6853
	46	82	2.504006	0.0373903	-0.0023992	1	0.0374672	-3.671455	-4.158283E-005	4.092168	11	0.1554605	0.0058004	-327.6853
	47	86	1.998082	0.0377158	-0.0022635	1	0.0377837	-3.434518	0.0002173	4.092209	11	0.1614661	0.0060824	-327.6853
	48	90	1.584686	0.038018	-0.0021456	1	0.0380785	-3.230123	0.0001317	4.092212	11	0.1597996	0.0060725	-327.6853
	49	94	1.266892	0.0382773	-0.0020441	1	0.0383319	-3.056831	-0.000204	4.092253	11	0.1593303	0.0060992	-327.6853
	50	101	0.999041	0.0385391	-0.001965	1	0.0385891	-2.918889	-0.0002309	4.092246	11	0.159128	0.0061353	-327.6853
	51	107	0.7923428	0.038792	-0.0019172	1	0.0388394	-2.829348	-3.794476E-005	4.092278	11	0.159191	0.0061795	-327.6853
	52	113	0.6334459	0.0389981	-0.0018954	1	0.0390441	-2.782544	-3.928886E-005	4.092289	11	0.1589829	0.0062052	-327.6853
	53	123	0.5040323	0.0392202	-0.0019058	1	0.0392665	-2.781984	-3.830186E-005	4.092308	11	0.1589826	0.0062413	-327.6853
	54	132	0.400641	0.0394453	-0.0019365	1	0.0394928	-2.810576	-3.884541E-005	4.092325	11	0.1589862	0.0062779	-327.6853
	55	144	0.316723	0.0396649	-0.0019991	1	0.0397152	-2.885293	-3.913678E-005	4.092349	11	0.15899	0.0063138	-327.6853
	56	161	0.2520161	0.0399007	-0.0020826	1	0.0399551	-2.987845	-4.002808E-005	4.092377	11	0.1589924	0.0063522	-327.6853
	57	178	0.2003205	0.0401456	-0.0022019	1	0.040206	-3.139369	-4.057038E-005	4.092414	11	0.158998	0.0063924	-327.6853
	58	200	0.1588983	0.0404112	-0.002363	1	0.0404802	-3.346524	-4.132273E-005	4.092448	11	0.1589971	0.0064361	-327.6853
	59	231	0.1260081	0.0407206	-0.0025408	1	0.0407998	-3.570408	-3.893927E-005	4.092561	11	0.1589975	0.006487	-327.6853
	60	270	0.1001603	0.041092	-0.0027426	1	0.0411835	-3.818385	-3.956514E-005	4.092744	11	0.1590003	0.0065481	-327.6853
	61	306	0.0794492	0.0414459	-0.0029869	1	0.0415534	-4.122065	-4.171687E-005	4.092874	11	0.1589987	0.0066069	-327.6853
	62	358	0.0631739	0.0417585	-0.0033038	1	0.041889	-4.523581	-4.308796E-005	4.092816	11	0.1589996	0.0066603	-327.6853
	63	407	0.0501337	0.0421569	-0.0036468	1	0.0423144	-4.944078	-4.151269E-005	4.09284	11	0.1590013	0.006728	-327.6853
	64	468	0.0398258	0.0426258	-0.0040333	1	0.0428162	-5.405276	-4.030315E-005	4.09289	11	0.1589987	0.0068077	-327.6853
	65	545	0.0316296	0.043124	-0.00449	1	0.0433572	-5.944174	-4.189124E-005	4.092963	11	0.1589987	0.0068937	-327.6853
	66	673	0.0251206	0.0437322	-0.0050091	1	0.0440181	-6.534259	-3.88826E-005	4.093067	11	0.1590006	0.0069989	-327.6853
	67	834	0.0199553	0.0444007	-0.0055947	1	0.0447518	-7.181659	-3.979453E-005	4.093173	11	0.1589993	0.0071155	-327.6853
	68	1036	0.0158522	0.0451618	-0.0062944	1	0.0455984	-7.934461	-3.968886E-005	4.093279	11	0.1590008	0.0072502	-327.6853
	69	1227	0.0125907	0.046016	-0.0070959	1	0.0465599	-8.76629	-3.751774E-005	4.09338	11	0.1590003	0.007403	-327.6853
	70	1466	0.0100011	0.0470364	-0.0079809	1	0.0477087	-9.62997	-3.969859E-005	4.093481	11	0.1589997	0.0075857	-327.6853
