EXPLAIN
TAG	GALVEIS
TITLE	LABEL	Galvanostatic EIS	Test Identifier
DATE	LABEL	25.5.2024	Date
TIME	LABEL	7:10:01	Time
NOTES	NOTES	1	Notes...
	
PSTAT	PSTAT	REF600-12055	Potentiostat
FREQINIT	QUANT	1.00000E+005	Initial Freq. (Hz)
FREQFINAL	QUANT	1.00000E-002	Final Freq. (Hz)
PTSPERDEC	QUANT	1.00000E+001	Points/decade
IACREQ	QUANT	1.59000E-001	AC Current (A rms)
IDCREQ	QUANT	0.00000E+000	DC Current (A)
AREA	QUANT	1.00000E+000	Sample Area (cm^2)
SPEED	SELECTOR	1	Optimize for:
DRIFTCOR	SELECTOR	0	Drift Correction
THD	SELECTOR	0	THD
ZGUESS	QUANT	1.00000E-001	Estimated Z (ohms)
EOC	QUANT	3.603279	Open Circuit (V)
SEQUENCER	TOGGLE	TRUE	Run as Sequence
PSTATMODEL	IQUANT	4	Pstat Model
PSTATSECTION	LABEL	REF600-12055	Pstat Section
PSTATSERIALNO	LABEL	12055	Pstat Serial Number
CTRLMODE	IQUANT	0	Control Mode
ELECTROMETER	IQUANT	0	RE=0 or CS=1
IESTAB	IQUANT	0	I/E Stability
CASPEED	IQUANT	4	Control Amp Speed
CONVENTION	IQUANT	1	Current Convention
ICHRANGE	IQUANT	2	Ich Range
ICHRANGEMODE	TOGGLE	F	Ich Auto Range
ICHOFFSETENABLE	TOGGLE	T	Ich Offset Enable
ICHOFFSET	QUANT	0	Ich Offset (V)
ICHFILTER	IQUANT	3	Ich Filter
VCHRANGE	IQUANT	2	Vch Range
VCHRANGEMODE	TOGGLE	F	Vch Auto Range
VCHOFFSETENABLE	TOGGLE	T	Vch Offset Enable
VCHOFFSET	QUANT	0	Vch Offset (V)
VCHFILTER	IQUANT	3	Vch Filter
ACHRANGE	IQUANT	2	Ach Range
ACHOFFSETENABLE	TOGGLE	F	Ach Offset Enable
ACHOFFSET	QUANT	0	Ach Offset (V)
ACHFILTER	IQUANT	1	Ach Filter
IERANGELOWERLIMIT	IQUANT	1	I/E Range Lower Limit
IERANGEMODE	TOGGLE	F	I/E AutoRange
IERANGE	IQUANT	7	I/E Range
POSFEEDENABLE	TOGGLE	F	Positive Feedback IR Comp
POSFEEDRESISTANCE	QUANT	0	Positive Feedback Resistance (ohm)
ACHSELECT	IQUANT	4	Ach Select
SENSECABLEID	IQUANT	14	Sense Cable ID
PWRCABLEID	IQUANT	14	Power Cable ID
DCCALDATE	LABEL	2/12/2024	DC Calibration Date
ACCALDATE	LABEL	2/12/2024	AC Calibration Date
THERMOSELECT	IQUANT	1	Thermo Select
FRAMEWORKVERSION	LABEL	7.10.3	Framework Version
INSTRUMENTVERSION	LABEL	4.91	Instrument Version
COMMVERSION	LABEL	2.24	Communications Version
CPUPLDVERSION	LABEL	0.00	CPU PLD Version
CTRLPLDVERSION	LABEL	0.00	CTRL PLD Version
PSTATPLDVERSION	LABEL	0.00	PSTAT PLD Version
ZCURVE	TABLE
	Pt	Time	Freq	Zreal	Zimag	Zsig	Zmod	Zphz	Idc	Vdc	IERange	Imod	Vmod	Temp
	#	s	Hz	ohm	ohm	V	ohm	°	A	V	#	A	V	°C
	0	5	100078.1	0.0999357	0.2366138	1	0.2568526	67.10284	2.78434E-005	3.603456	11	0.1596549	0.0407092	-327.6853
	1	6	79453.13	0.0840331	0.196357	1	0.2135828	66.83098	1.392956E-005	3.603473	11	0.1642723	0.0349236	-327.6853
	2	8	63140.62	0.0715489	0.1625197	1	0.1775723	66.23862	1.713634E-007	3.603477	11	0.1619887	0.0286799	-327.6853
	3	10	50203.12	0.0618436	0.134142	1	0.1477115	65.24884	-1.398614E-005	3.60348	11	0.1609427	0.0237284	-327.6853
	4	12	39890.62	0.0543723	0.1104031	1	0.1230658	63.78024	-1.884496E-005	3.603493	11	0.1602792	0.0197013	-327.6853
	5	13	31640.63	0.0486088	0.0906038	1	0.1028196	61.78648	-1.295388E-005	3.603494	11	0.1598494	0.0164232	-327.6853
	6	15	25171.88	0.0441887	0.074581	1	0.0866889	59.35356	-1.67127E-005	3.603494	11	0.1595537	0.0138249	-327.6853
	7	17	20015.62	0.0406472	0.0614146	1	0.0736474	56.50146	-1.484551E-005	3.603509	11	0.1593584	0.0117328	-327.6853
	8	18	15890.62	0.0376905	0.0505359	1	0.0630433	53.28378	-1.839246E-005	3.603514	11	0.1592272	0.0100363	-327.6853
	9	20	12609.38	0.0352001	0.0415163	1	0.0544303	49.7067	-1.640851E-005	3.603508	11	0.1591438	0.0086612	-327.6853
	10	22	10078.13	0.0331883	0.0341734	1	0.047637	45.83781	-1.656369E-005	3.603534	11	0.1590816	0.0075776	-327.6853
	11	23	8015.625	0.0315292	0.0278313	1	0.0420556	41.43528	-1.93849E-005	3.603534	11	0.1590573	0.0066889	-327.6853
	12	25	6328.125	0.0302382	0.0223018	1	0.0375729	36.41014	-2.21862E-005	3.603539	11	0.1590327	0.0059751	-327.6853
	13	26	5015.625	0.0293494	0.0177674	1	0.0343084	31.18964	-2.153328E-005	3.603541	11	0.1590159	0.0054555	-327.6853
	14	28	3984.375	0.0287704	0.0140293	1	0.0320087	25.99526	-3.080675E-005	3.603556	11	0.1590048	0.0050895	-327.6853
	15	30	3170.956	0.0284252	0.010991	1	0.0304761	21.13963	-2.236897E-005	3.603548	11	0.1590115	0.004846	-327.6853
	16	31	2527.573	0.0282699	0.0084759	1	0.0295131	16.68977	-3.204844E-005	3.603561	11	0.1590001	0.0046926	-327.6853
	17	33	1976.103	0.0282531	0.0062718	1	0.0289409	12.5159	-2.809614E-005	3.603559	11	0.1590018	0.0046016	-327.6853
	18	35	1577.524	0.0283238	0.0046201	1	0.0286981	9.264338	-1.978304E-005	3.603577	11	0.1590007	0.004563	-327.6853
	19	36	1265.625	0.0284838	0.0033954	1	0.0286855	6.797834	-1.863425E-005	3.603586	11	0.1590012	0.004561	-327.6853
	20	38	998.264	0.0286929	0.0022543	1	0.0287813	4.492229	-2.407999E-005	3.603584	11	0.1590028	0.0045763	-327.6853
	21	40	796.875	0.0289098	0.0014334	1	0.0289454	2.838417	-2.220558E-005	3.603589	11	0.1590067	0.0046025	-327.6853
	22	41	627.7902	0.029148	0.0006823	1	0.029156	1.341024	-2.301927E-005	3.603598	11	0.15899	0.0046355	-327.6853
	23	43	505.5147	0.0294063	0.0001356	1	0.0294066	0.2641928	-1.87516E-005	3.603614	11	0.1575963	0.0046086	-327.6853
	24	44	397.9953	0.0297071	-0.0003103	1	0.0297088	-0.5984266	-1.879752E-005	3.603622	11	0.1606035	0.0047518	-327.6853
	25	46	315.5048	0.0299977	-0.0006645	1	0.0300051	-1.26906	-1.876621E-005	3.603626	11	0.1593415	0.0047676	-327.6853
	26	47	252.4038	0.0302848	-0.0009372	1	0.0302993	-1.772583	-1.901388E-005	3.603629	11	0.1589681	0.0048075	-327.6853
	27	49	198.6229	0.03059	-0.0011788	1	0.0306127	-2.206831	-1.547753E-005	3.603637	11	0.1588781	0.0048578	-327.6853
	28	50	158.3615	0.0308881	-0.0013614	1	0.0309181	-2.523776	-1.884485E-005	3.603647	11	0.1588894	0.0049087	-327.6853
	29	52	125.558	0.0311992	-0.0015042	1	0.0312354	-2.760232	-1.85445E-005	3.603654	11	0.1589142	0.0049613	-327.6853
	30	53	100.4464	0.0315075	-0.0016189	1	0.0315491	-2.941327	-1.531292E-005	3.603659	11	0.1589372	0.0050127	-327.6853
	31	55	79.00281	0.0318411	-0.0016962	1	0.0318862	-3.049285	-2.811891E-005	3.603666	11	0.1589607	0.0050677	-327.6853
	32	56	63.3446	0.0321498	-0.001736	1	0.0321967	-3.090746	-2.58924E-005	3.603675	11	0.1589743	0.0051178	-327.6853
	33	58	50.22321	0.0324774	-0.0017643	1	0.0325253	-3.109483	-1.612562E-005	3.603684	11	0.1589843	0.0051706	-327.6853
	34	60	38.42213	0.0328509	-0.0017538	1	0.0328976	-3.056012	-2.46116E-005	3.60369	11	0.1589843	0.00523	-327.6853
	35	61	31.25	0.033122	-0.0017183	1	0.0331665	-2.969707	-5.533919E-006	3.603693	11	0.1589905	0.005273	-327.6853
	36	63	24.93351	0.0334102	-0.0016633	1	0.0334516	-2.850043	-2.375746E-005	3.603708	11	0.1589988	0.0053187	-327.6853
	37	64	19.86229	0.0336857	-0.0015904	1	0.0337232	-2.703022	-8.158735E-006	3.603698	11	0.1589917	0.0053616	-327.6853
	38	66	15.625	0.0339473	-0.0014873	1	0.0339799	-2.508668	-3.62962E-005	3.603716	11	0.1589862	0.0054023	-327.6853
	39	67	12.40079	0.0341712	-0.0013845	1	0.0341992	-2.320235	-3.66529E-005	3.603718	11	0.1590054	0.0054378	-327.6853
	40	69	9.93114	0.0343571	-0.0012855	1	0.0343812	-2.142723	-2.456298E-005	3.603721	11	0.1590075	0.0054668	-327.6853
	41	70	7.944915	0.0345176	-0.0011818	1	0.0345379	-1.960974	1.056399E-005	3.603722	11	0.159	0.0054915	-327.6853
	42	72	6.317385	0.0346591	-0.0010967	1	0.0346764	-1.812393	-0.0001089	3.60372	11	0.1590142	0.005514	-327.6853
	43	74	5.008013	0.0347767	-0.001025	1	0.0347918	-1.688211	2.237363E-005	3.603718	11	0.1589721	0.0055309	-327.6853
	44	76	3.945707	0.034897	-0.0009615	1	0.0349102	-1.578269	-1.525966E-005	3.603731	11	0.1590133	0.0055512	-327.6853
	45	79	3.158693	0.0349972	-0.0009314	1	0.0350096	-1.524532	5.389703E-005	3.603731	11	0.158975	0.0055657	-327.6853
	46	83	2.504006	0.0351121	-0.0009025	1	0.0351237	-1.472452	1.851143E-005	3.603731	11	0.1554343	0.0054367	-327.6853
	47	86	1.998082	0.0352099	-0.0008883	1	0.0352211	-1.445271	-2.966561E-005	3.603735	11	0.1613333	0.0056652	-327.6853
	48	89	1.584686	0.0353089	-0.0009097	1	0.0353206	-1.475911	-0.0002009	3.603747	11	0.1599696	0.0056387	-327.6853
	49	93	1.266892	0.0354025	-0.0009228	1	0.0354145	-1.493115	7.680332E-005	3.603823	11	0.1592559	0.0056324	-327.6853
	50	98	0.999041	0.0355164	-0.0009534	1	0.0355292	-1.537699	1.397323E-005	3.603842	11	0.1590572	0.0056463	-327.6853
	51	104	0.7923428	0.0356322	-0.0009951	1	0.0356461	-1.599696	-4.178789E-005	3.603866	11	0.1593133	0.0056758	-327.6853
	52	112	0.6334459	0.0357461	-0.0010518	1	0.0357616	-1.685357	-4.631915E-005	3.6039	11	0.1589839	0.0056835	-327.6853
	53	119	0.5040323	0.0358516	-0.0011275	1	0.0358694	-1.801261	-4.690635E-005	3.603936	11	0.1589802	0.0057012	-327.6853
	54	131	0.400641	0.035982	-0.0012078	1	0.0360023	-1.922483	-4.127591E-005	3.603989	11	0.1589871	0.0057231	-327.6853
	55	145	0.316723	0.0361296	-0.0013191	1	0.0361537	-2.090977	-4.624543E-005	3.604047	11	0.1589898	0.0057476	-327.6853
	56	159	0.2520161	0.0362679	-0.0014466	1	0.0362968	-2.284106	-4.333975E-005	3.604111	11	0.1589921	0.0057706	-327.6853
	57	181	0.2003205	0.036422	-0.001588	1	0.0364566	-2.49651	-4.279423E-005	3.604192	11	0.158997	0.0057963	-327.6853
	58	207	0.1588983	0.0365982	-0.0017636	1	0.0366407	-2.758881	-3.548112E-005	3.604273	11	0.1589979	0.0058257	-327.6853
	59	232	0.1260081	0.0368108	-0.0019585	1	0.0368629	-3.045452	-4.216439E-005	3.604449	11	0.1590001	0.0058611	-327.6853
	60	262	0.1001603	0.0370413	-0.0021911	1	0.0371061	-3.385292	-4.241414E-005	3.604716	11	0.1589963	0.0058997	-327.6853
	61	309	0.0794492	0.037319	-0.0024483	1	0.0373992	-3.753435	-3.978994E-005	3.605007	11	0.1590011	0.0059465	-327.6853
	62	348	0.0631739	0.0375025	-0.0027799	1	0.0376053	-4.239312	-3.97019E-005	3.60502	11	0.1589997	0.0059792	-327.6853
	63	413	0.0501337	0.0377653	-0.0031438	1	0.0378959	-4.758699	-3.730717E-005	3.605151	11	0.158999	0.0060254	-327.6853
	64	494	0.0398258	0.0380663	-0.0035714	1	0.0382335	-5.359812	-4.198626E-005	3.605343	11	0.1590009	0.0060792	-327.6853
	65	596	0.0316296	0.0384072	-0.0040772	1	0.038623	-6.059627	-3.79557E-005	3.605551	11	0.1589999	0.006141	-327.6853
	66	693	0.0251206	0.0387874	-0.0046826	1	0.039069	-6.88378	-3.771323E-005	3.605756	11	0.1589982	0.0062119	-327.6853
	67	814	0.0199553	0.0392334	-0.0053926	1	0.0396022	-7.826158	-4.280613E-005	3.606022	11	0.1590007	0.0062968	-327.6853
	68	1016	0.0158522	0.0397645	-0.0062544	1	0.0402534	-8.938523	-4.263111E-005	3.606356	11	0.159	0.0064003	-327.6853
	69	1269	0.0125907	0.0404088	-0.0072504	1	0.0410541	-10.17206	-3.936623E-005	3.606714	11	0.1590006	0.0065276	-327.6853
	70	1589	0.0100011	0.0411989	-0.0084161	1	0.0420497	-11.54546	-4.068933E-005	3.607088	11	0.1590002	0.0066859	-327.6853
