EXPLAIN
TAG	GALVEIS
TITLE	LABEL	Galvanostatic EIS	Test Identifier
DATE	LABEL	25.5.2024	Date
TIME	LABEL	9:39:22	Time
NOTES	NOTES	1	Notes...
	
PSTAT	PSTAT	REF600-12055	Potentiostat
FREQINIT	QUANT	1.00000E+005	Initial Freq. (Hz)
FREQFINAL	QUANT	1.00000E-002	Final Freq. (Hz)
PTSPERDEC	QUANT	1.00000E+001	Points/decade
IACREQ	QUANT	1.59000E-001	AC Current (A rms)
IDCREQ	QUANT	0.00000E+000	DC Current (A)
AREA	QUANT	1.00000E+000	Sample Area (cm^2)
SPEED	SELECTOR	1	Optimize for:
DRIFTCOR	SELECTOR	0	Drift Correction
THD	SELECTOR	0	THD
ZGUESS	QUANT	1.00000E-001	Estimated Z (ohms)
EOC	QUANT	3.433632	Open Circuit (V)
SEQUENCER	TOGGLE	TRUE	Run as Sequence
PSTATMODEL	IQUANT	4	Pstat Model
PSTATSECTION	LABEL	REF600-12055	Pstat Section
PSTATSERIALNO	LABEL	12055	Pstat Serial Number
CTRLMODE	IQUANT	0	Control Mode
ELECTROMETER	IQUANT	0	RE=0 or CS=1
IESTAB	IQUANT	0	I/E Stability
CASPEED	IQUANT	4	Control Amp Speed
CONVENTION	IQUANT	1	Current Convention
ICHRANGE	IQUANT	2	Ich Range
ICHRANGEMODE	TOGGLE	F	Ich Auto Range
ICHOFFSETENABLE	TOGGLE	T	Ich Offset Enable
ICHOFFSET	QUANT	0	Ich Offset (V)
ICHFILTER	IQUANT	3	Ich Filter
VCHRANGE	IQUANT	2	Vch Range
VCHRANGEMODE	TOGGLE	F	Vch Auto Range
VCHOFFSETENABLE	TOGGLE	T	Vch Offset Enable
VCHOFFSET	QUANT	0	Vch Offset (V)
VCHFILTER	IQUANT	3	Vch Filter
ACHRANGE	IQUANT	2	Ach Range
ACHOFFSETENABLE	TOGGLE	F	Ach Offset Enable
ACHOFFSET	QUANT	0	Ach Offset (V)
ACHFILTER	IQUANT	1	Ach Filter
IERANGELOWERLIMIT	IQUANT	1	I/E Range Lower Limit
IERANGEMODE	TOGGLE	F	I/E AutoRange
IERANGE	IQUANT	7	I/E Range
POSFEEDENABLE	TOGGLE	F	Positive Feedback IR Comp
POSFEEDRESISTANCE	QUANT	0	Positive Feedback Resistance (ohm)
ACHSELECT	IQUANT	4	Ach Select
SENSECABLEID	IQUANT	14	Sense Cable ID
PWRCABLEID	IQUANT	14	Power Cable ID
DCCALDATE	LABEL	2/12/2024	DC Calibration Date
ACCALDATE	LABEL	2/12/2024	AC Calibration Date
THERMOSELECT	IQUANT	1	Thermo Select
FRAMEWORKVERSION	LABEL	7.10.3	Framework Version
INSTRUMENTVERSION	LABEL	4.91	Instrument Version
COMMVERSION	LABEL	2.24	Communications Version
CPUPLDVERSION	LABEL	0.00	CPU PLD Version
CTRLPLDVERSION	LABEL	0.00	CTRL PLD Version
PSTATPLDVERSION	LABEL	0.00	PSTAT PLD Version
ZCURVE	TABLE
	Pt	Time	Freq	Zreal	Zimag	Zsig	Zmod	Zphz	Idc	Vdc	IERange	Imod	Vmod	Temp
	#	s	Hz	ohm	ohm	V	ohm	°	A	V	#	A	V	°C
	0	5	100078.1	0.100016	0.2372209	1	0.2574431	67.13895	2.67042E-005	3.433822	11	0.1596808	0.0408095	-327.6853
	1	7	79453.13	0.0841355	0.1968243	1	0.2140528	66.85499	1.331855E-005	3.433835	11	0.1642494	0.0349955	-327.6853
	2	9	63140.62	0.0716599	0.1628711	1	0.1779385	66.25151	-9.384239E-007	3.433836	11	0.1619828	0.0287381	-327.6853
	3	10	50203.12	0.0619652	0.1344176	1	0.1480128	65.25076	-1.619721E-005	3.433842	11	0.1609466	0.0237774	-327.6853
	4	12	39890.62	0.0544957	0.110614	1	0.1233095	63.77211	-8.212635E-006	3.433863	11	0.1602736	0.0197397	-327.6853
	5	14	31640.63	0.0487388	0.0907808	1	0.103037	61.76932	-1.302431E-005	3.43386	11	0.15985	0.016458	-327.6853
	6	15	25171.88	0.0443176	0.0747094	1	0.0868651	59.3236	-1.578918E-005	3.433865	11	0.1595474	0.0138525	-327.6853
	7	17	20015.62	0.0407811	0.0615129	1	0.0738033	56.45691	-1.185341E-005	3.433872	11	0.1593578	0.0117576	-327.6853
	8	19	15890.62	0.0378332	0.0506133	1	0.0631906	53.22204	-1.646949E-005	3.433867	11	0.1592256	0.0100596	-327.6853
	9	20	12609.38	0.0353376	0.0415664	1	0.0545574	49.63053	-1.606287E-005	3.433881	11	0.1591434	0.0086814	-327.6853
	10	22	10078.13	0.033331	0.0342227	1	0.0477718	45.75623	-1.332199E-005	3.433873	11	0.1590879	0.0075993	-327.6853
	11	24	8015.625	0.0316825	0.0278654	1	0.0421931	41.33231	-1.482933E-005	3.433892	11	0.159058	0.0067108	-327.6853
	12	25	6328.125	0.0303935	0.0223306	1	0.037715	36.30532	-2.267223E-005	3.433896	11	0.1590324	0.0059977	-327.6853
	13	27	5015.625	0.0295072	0.0177957	1	0.0344581	31.0941	-3.157929E-005	3.4339	11	0.1590157	0.0054793	-327.6853
	14	29	3984.375	0.0289141	0.0140464	1	0.0321454	25.91027	-2.593885E-005	3.433912	11	0.1590037	0.0051112	-327.6853
	15	30	3170.956	0.0285749	0.0109835	1	0.0306131	21.02545	-3.120454E-005	3.433912	11	0.1590111	0.0048678	-327.6853
	16	32	2527.573	0.0284155	0.008495	1	0.0296582	16.64445	-2.04941E-005	3.433911	11	0.1590023	0.0047157	-327.6853
	17	34	1976.103	0.0284064	0.0062542	1	0.0290868	12.41655	-2.964173E-005	3.43393	11	0.1590049	0.0046249	-327.6853
	18	35	1577.524	0.0284831	0.0046617	1	0.0288621	9.294901	-3.372901E-005	3.433934	11	0.1590042	0.0045892	-327.6853
	19	37	1265.625	0.0286134	0.0033904	1	0.0288135	6.757398	-2.66108E-005	3.433939	11	0.1589961	0.0045812	-327.6853
	20	38	998.264	0.0288234	0.0021694	1	0.0289049	4.304323	-2.687587E-005	3.433948	11	0.1589964	0.0045958	-327.6853
	21	40	796.875	0.0290608	0.0013883	1	0.0290939	2.735052	-3.034458E-005	3.433951	11	0.1590075	0.0046262	-327.6853
	22	41	627.7902	0.0292973	0.0006234	1	0.029304	1.218924	-1.920178E-005	3.433951	11	0.158994	0.0046592	-327.6853
	23	43	505.5147	0.0295625	6.213293E-005	1	0.0295626	0.1204212	-2.72675E-005	3.433966	11	0.1575962	0.0046331	-327.6853
	24	44	397.9953	0.0298718	-0.0003941	1	0.0298744	-0.7557674	-1.416344E-005	3.433971	11	0.1606036	0.0047782	-327.6853
	25	46	315.5048	0.0301734	-0.0007663	1	0.0301831	-1.454895	-1.904729E-005	3.433975	11	0.1593364	0.0047957	-327.6853
	26	47	252.4038	0.0304659	-0.0010586	1	0.0304843	-1.989992	-1.735013E-005	3.433978	11	0.1589757	0.0048371	-327.6853
	27	49	198.6229	0.0307858	-0.001321	1	0.0308141	-2.456958	-1.776684E-005	3.433985	11	0.158873	0.0048896	-327.6853
	28	50	158.3615	0.0310924	-0.0015312	1	0.03113	-2.819375	-1.982844E-005	3.433991	11	0.1588923	0.0049425	-327.6853
	29	52	125.558	0.0314204	-0.0017038	1	0.0314666	-3.103882	-1.201034E-005	3.433997	11	0.1589054	0.0049977	-327.6853
	30	53	100.4464	0.0317404	-0.0018424	1	0.0317938	-3.322067	-1.576438E-005	3.434006	11	0.1589447	0.0050518	-327.6853
	31	55	79.00281	0.032094	-0.0019748	1	0.0321547	-3.521092	-2.069908E-005	3.434012	11	0.158962	0.0051104	-327.6853
	32	57	63.3446	0.0324252	-0.0020815	1	0.0324919	-3.673029	-3.360037E-005	3.434015	11	0.1589747	0.0051647	-327.6853
	33	58	50.22321	0.0327819	-0.0021697	1	0.0328537	-3.786694	-2.143771E-005	3.43402	11	0.1589749	0.0052225	-327.6853
	34	60	38.42213	0.0332	-0.0022647	1	0.0332771	-3.902294	-1.856301E-005	3.434023	11	0.1589902	0.0052905	-327.6853
	35	62	31.25	0.0335373	-0.0023251	1	0.0336178	-3.965885	-3.351236E-005	3.434039	11	0.158994	0.0053449	-327.6853
	36	63	24.93351	0.0339125	-0.0023723	1	0.0339954	-4.001465	-2.484175E-005	3.434035	11	0.1589997	0.0054052	-327.6853
	37	65	19.86229	0.034314	-0.0024069	1	0.0343983	-4.012407	-3.654114E-005	3.434056	11	0.1589977	0.0054692	-327.6853
	38	66	15.625	0.0347225	-0.0024224	1	0.0348069	-3.990779	-6.698421E-006	3.434042	11	0.1589811	0.0055336	-327.6853
	39	68	12.40079	0.0351294	-0.002403	1	0.0352114	-3.913112	4.344271E-006	3.434062	11	0.1589924	0.0055983	-327.6853
	40	69	9.93114	0.0355288	-0.0023793	1	0.0356084	-3.831303	1.000753E-005	3.434078	11	0.158996	0.0056616	-327.6853
	41	71	7.944915	0.0359074	-0.0022988	1	0.0359809	-3.663107	-5.019992E-005	3.434081	11	0.1590207	0.0057217	-327.6853
	42	73	6.317385	0.0362793	-0.0022067	1	0.0363463	-3.480766	6.108871E-005	3.434104	11	0.1590063	0.0057793	-327.6853
	43	75	5.008013	0.0366225	-0.002086	1	0.0366819	-3.260094	-7.65794E-005	3.434119	11	0.1589658	0.0058312	-327.6853
	44	77	3.945707	0.0369339	-0.0019467	1	0.0369852	-3.017205	-3.948051E-005	3.434128	11	0.159021	0.0058814	-327.6853
	45	80	3.158693	0.0371964	-0.0018388	1	0.0372418	-2.830185	-0.0001248	3.434153	11	0.158961	0.00592	-327.6853
	46	82	2.504006	0.0374437	-0.0017067	1	0.0374826	-2.609782	-4.119554E-005	3.434173	11	0.1554679	0.0058031	-327.6853
	47	86	1.998082	0.0376394	-0.001612	1	0.0376739	-2.452337	-0.0001193	3.434182	11	0.1613469	0.0060603	-327.6853
	48	90	1.584686	0.0378194	-0.0015432	1	0.0378509	-2.336551	6.159346E-005	3.434204	11	0.1598854	0.0060395	-327.6853
	49	94	1.266892	0.0380056	-0.0014973	1	0.0380351	-2.256145	-2.459982E-005	3.434156	11	0.1592831	0.0060502	-327.6853
	50	99	0.999041	0.0381761	-0.0014688	1	0.0382044	-2.203336	3.802998E-005	3.434177	11	0.159098	0.006073	-327.6853
	51	104	0.7923428	0.0383392	-0.001464	1	0.0383672	-2.186823	-4.157171E-005	3.434279	11	0.1592996	0.0061085	-327.6853
	52	112	0.6334459	0.0384965	-0.0014831	1	0.038525	-2.206333	-3.856968E-005	3.434285	11	0.1589843	0.0061227	-327.6853
	53	121	0.5040323	0.038652	-0.00153	1	0.0386822	-2.266856	-3.865964E-005	3.434316	11	0.1589822	0.0061484	-327.6853
	54	133	0.400641	0.0388229	-0.0015946	1	0.0388556	-2.352016	-3.983016E-005	3.434356	11	0.1589861	0.0061766	-327.6853
	55	147	0.316723	0.038988	-0.0016886	1	0.0390246	-2.479927	-3.965606E-005	3.434416	11	0.15899	0.006204	-327.6853
	56	164	0.2520161	0.0391645	-0.0018107	1	0.0392064	-2.647152	-4.063112E-005	3.434476	11	0.1589928	0.0062332	-327.6853
	57	185	0.2003205	0.0393423	-0.0019667	1	0.0393914	-2.861779	-4.174493E-005	3.43455	11	0.1589971	0.0062629	-327.6853
	58	207	0.1588983	0.0395322	-0.0021648	1	0.0395915	-3.134358	-4.057591E-005	3.434643	11	0.1589958	0.0062947	-327.6853
	59	238	0.1260081	0.0397667	-0.0024104	1	0.0398397	-3.468689	-3.992019E-005	3.43486	11	0.1590008	0.0063345	-327.6853
	60	277	0.1001603	0.0400279	-0.0026936	1	0.0401185	-3.849855	-3.869509E-005	3.435198	11	0.1589974	0.0063787	-327.6853
	61	323	0.0794492	0.0403177	-0.0030487	1	0.0404328	-4.324242	-3.550039E-005	3.43557	11	0.1589993	0.0064287	-327.6853
	62	375	0.0631739	0.0405388	-0.003475	1	0.0406875	-4.89939	-3.607372E-005	3.435585	11	0.1589995	0.0064693	-327.6853
	63	440	0.0501337	0.0408368	-0.0039825	1	0.0410306	-5.569964	-4.415056E-005	3.435736	11	0.1590009	0.0065239	-327.6853
	64	521	0.0398258	0.041197	-0.004578	1	0.0414505	-6.34093	-4.290906E-005	3.435936	11	0.1589987	0.0065906	-327.6853
	65	598	0.0316296	0.0415915	-0.0052829	1	0.0419257	-7.2389	-4.336005E-005	3.436167	11	0.1590001	0.0066662	-327.6853
	66	694	0.0251206	0.0420407	-0.0061374	1	0.0424863	-8.305807	-3.566255E-005	3.436436	11	0.1589997	0.0067553	-327.6853
	67	815	0.0199553	0.0425725	-0.0071526	1	0.0431692	-9.53715	-4.055032E-005	3.436753	11	0.1590008	0.0068639	-327.6853
	68	967	0.0158522	0.0432036	-0.0083826	1	0.0440093	-10.98039	-4.064671E-005	3.437119	11	0.1589996	0.0069975	-327.6853
	69	1158	0.0125907	0.0439745	-0.0098359	1	0.0450611	-12.60799	-3.719019E-005	3.437591	11	0.1590007	0.0071647	-327.6853
	70	1477	0.0100011	0.0449731	-0.0114926	1	0.0464183	-14.33476	-3.956689E-005	3.438194	11	0.1589995	0.0073805	-327.6853
