EXPLAIN
TAG	GALVEIS
TITLE	LABEL	Galvanostatic EIS	Test Identifier
DATE	LABEL	24.5.2024	Date
TIME	LABEL	14:19:54	Time
NOTES	NOTES	1	Notes...
	
PSTAT	PSTAT	REF600-12055	Potentiostat
FREQINIT	QUANT	1.00000E+005	Initial Freq. (Hz)
FREQFINAL	QUANT	1.00000E-002	Final Freq. (Hz)
PTSPERDEC	QUANT	1.00000E+001	Points/decade
IACREQ	QUANT	1.59000E-001	AC Current (A rms)
IDCREQ	QUANT	0.00000E+000	DC Current (A)
AREA	QUANT	1.00000E+000	Sample Area (cm^2)
SPEED	SELECTOR	1	Optimize for:
DRIFTCOR	SELECTOR	0	Drift Correction
THD	SELECTOR	0	THD
ZGUESS	QUANT	1.00000E-001	Estimated Z (ohms)
EOC	QUANT	3.634501	Open Circuit (V)
SEQUENCER	TOGGLE	TRUE	Run as Sequence
PSTATMODEL	IQUANT	4	Pstat Model
PSTATSECTION	LABEL	REF600-12055	Pstat Section
PSTATSERIALNO	LABEL	12055	Pstat Serial Number
CTRLMODE	IQUANT	0	Control Mode
ELECTROMETER	IQUANT	0	RE=0 or CS=1
IESTAB	IQUANT	0	I/E Stability
CASPEED	IQUANT	4	Control Amp Speed
CONVENTION	IQUANT	1	Current Convention
ICHRANGE	IQUANT	2	Ich Range
ICHRANGEMODE	TOGGLE	F	Ich Auto Range
ICHOFFSETENABLE	TOGGLE	T	Ich Offset Enable
ICHOFFSET	QUANT	0	Ich Offset (V)
ICHFILTER	IQUANT	3	Ich Filter
VCHRANGE	IQUANT	2	Vch Range
VCHRANGEMODE	TOGGLE	F	Vch Auto Range
VCHOFFSETENABLE	TOGGLE	T	Vch Offset Enable
VCHOFFSET	QUANT	0	Vch Offset (V)
VCHFILTER	IQUANT	3	Vch Filter
ACHRANGE	IQUANT	2	Ach Range
ACHOFFSETENABLE	TOGGLE	F	Ach Offset Enable
ACHOFFSET	QUANT	0	Ach Offset (V)
ACHFILTER	IQUANT	1	Ach Filter
IERANGELOWERLIMIT	IQUANT	1	I/E Range Lower Limit
IERANGEMODE	TOGGLE	F	I/E AutoRange
IERANGE	IQUANT	7	I/E Range
POSFEEDENABLE	TOGGLE	F	Positive Feedback IR Comp
POSFEEDRESISTANCE	QUANT	0	Positive Feedback Resistance (ohm)
ACHSELECT	IQUANT	4	Ach Select
SENSECABLEID	IQUANT	14	Sense Cable ID
PWRCABLEID	IQUANT	14	Power Cable ID
DCCALDATE	LABEL	2/12/2024	DC Calibration Date
ACCALDATE	LABEL	2/12/2024	AC Calibration Date
THERMOSELECT	IQUANT	1	Thermo Select
FRAMEWORKVERSION	LABEL	7.10.3	Framework Version
INSTRUMENTVERSION	LABEL	4.91	Instrument Version
COMMVERSION	LABEL	2.24	Communications Version
CPUPLDVERSION	LABEL	0.00	CPU PLD Version
CTRLPLDVERSION	LABEL	0.00	CTRL PLD Version
PSTATPLDVERSION	LABEL	0.00	PSTAT PLD Version
ZCURVE	TABLE
	Pt	Time	Freq	Zreal	Zimag	Zsig	Zmod	Zphz	Idc	Vdc	IERange	Imod	Vmod	Temp
	#	s	Hz	ohm	ohm	V	ohm	°	A	V	#	A	V	°C
	0	5	100078.1	0.0998192	0.2366036	1	0.2567978	67.12592	3.349141E-005	3.634669	11	0.1596822	0.0407075	-327.6853
	1	7	79453.13	0.0839388	0.1963364	1	0.2135268	66.85206	1.787615E-005	3.634667	11	0.1643112	0.0349227	-327.6853
	2	8	63140.62	0.0714571	0.1624885	1	0.1775067	66.2617	4.944508E-006	3.634663	11	0.1619779	0.0286674	-327.6853
	3	10	50203.12	0.0617589	0.1341195	1	0.1476556	65.27503	-3.938738E-006	3.634656	11	0.16096	0.023722	-327.6853
	4	12	39890.62	0.0542846	0.1103685	1	0.1229961	63.80981	-9.305542E-006	3.634641	11	0.1602799	0.0196902	-327.6853
	5	13	31640.63	0.0485259	0.0905703	1	0.1027509	61.8184	-1.061033E-005	3.634634	11	0.1598536	0.0164127	-327.6853
	6	15	25171.88	0.0441194	0.0745371	1	0.0866158	59.37821	-2.211018E-005	3.634638	11	0.1595608	0.0138139	-327.6853
	7	17	20015.62	0.040576	0.0613621	1	0.0735643	56.52514	-2.971993E-005	3.634623	11	0.1593561	0.0117194	-327.6853
	8	19	15890.62	0.0376372	0.0504874	1	0.0629726	53.29631	-2.923518E-005	3.634614	11	0.1592324	0.0100254	-327.6853
	9	20	12609.38	0.0351519	0.0414558	1	0.0543529	49.70409	-1.558801E-005	3.63462	11	0.1591435	0.0086489	-327.6853
	10	22	10078.13	0.0331524	0.0341274	1	0.047579	45.83027	-1.419708E-005	3.634614	11	0.1590888	0.0075687	-327.6853
	11	24	8015.625	0.0314969	0.0277789	1	0.0419967	41.41093	-1.511103E-005	3.634609	11	0.1590533	0.0066794	-327.6853
	12	25	6328.125	0.0302201	0.0222494	1	0.0375272	36.36214	-1.610199E-005	3.634605	11	0.1590356	0.005968	-327.6853
	13	27	5015.625	0.0293259	0.0177129	1	0.0342601	31.13202	-2.153246E-005	3.634594	11	0.1590122	0.0054477	-327.6853
	14	28	3984.375	0.0287533	0.0139932	1	0.0319775	25.95047	-2.070417E-005	3.63457	11	0.1590087	0.0050846	-327.6853
	15	30	3170.956	0.0284166	0.0109228	1	0.0304436	21.02579	-1.871237E-005	3.634584	11	0.1590082	0.0048407	-327.6853
	16	32	2527.573	0.0282663	0.008405	1	0.0294895	16.5598	-2.115848E-005	3.634567	11	0.159005	0.0046889	-327.6853
	17	33	1976.103	0.0282812	0.0061674	1	0.0289459	12.30208	-1.93452E-005	3.634573	11	0.1590009	0.0046024	-327.6853
	18	35	1577.524	0.0283635	0.0045139	1	0.0287204	9.042554	-1.739315E-005	3.634568	11	0.159	0.0045665	-327.6853
	19	37	1265.625	0.028496	0.0032837	1	0.0286845	6.573502	-1.678301E-005	3.634566	11	0.159001	0.0045609	-327.6853
	20	38	998.264	0.0287397	0.0021536	1	0.0288203	4.285405	-2.335044E-005	3.634561	11	0.1590076	0.0045826	-327.6853
	21	40	796.875	0.028982	0.0012314	1	0.0290082	2.432993	-2.987636E-005	3.634561	11	0.1589942	0.0046121	-327.6853
	22	41	627.7902	0.0292547	0.0005259	1	0.0292594	1.029842	-3.128545E-005	3.634548	11	0.1589933	0.0046521	-327.6853
	23	43	505.5147	0.0295309	-2.215122E-005	1	0.0295309	-0.0429777	-3.212621E-005	3.634552	11	0.1575996	0.0046282	-327.6853
	24	44	397.9953	0.0298614	-0.0004809	1	0.0298653	-0.9226913	-2.013647E-005	3.634547	11	0.1606051	0.0047768	-327.6853
	25	46	315.5048	0.0301758	-0.0008359	1	0.0301873	-1.586839	-2.014241E-005	3.634545	11	0.1593383	0.0047965	-327.6853
	26	47	252.4038	0.0304904	-0.0011247	1	0.0305112	-2.112603	-1.909176E-005	3.634541	11	0.1589703	0.0048412	-327.6853
	27	49	198.6229	0.0308261	-0.0013693	1	0.0308565	-2.543324	-1.946301E-005	3.634537	11	0.158874	0.0048964	-327.6853
	28	50	158.3615	0.0311517	-0.0015571	1	0.0311906	-2.861516	-2.198888E-005	3.634533	11	0.1588927	0.0049521	-327.6853
	29	52	125.558	0.0314907	-0.0017099	1	0.0315371	-3.108004	-2.282538E-005	3.634531	11	0.1589108	0.0050091	-327.6853
	30	53	100.4464	0.0318259	-0.0018272	1	0.0318783	-3.285835	-1.875103E-005	3.634527	11	0.1589393	0.0050651	-327.6853
	31	55	79.00281	0.0321902	-0.001918	1	0.0322473	-3.409853	-1.799013E-005	3.634523	11	0.1589632	0.0051251	-327.6853
	32	56	63.3446	0.0325365	-0.0019778	1	0.0325965	-3.478646	-1.785683E-005	3.634516	11	0.1589708	0.0051812	-327.6853
	33	58	50.22321	0.0328917	-0.0020111	1	0.0329531	-3.498866	-1.715601E-005	3.634514	11	0.1589859	0.0052387	-327.6853
	34	60	38.42213	0.0332993	-0.0020161	1	0.0333603	-3.464656	-2.19912E-005	3.634511	11	0.1589874	0.0053036	-327.6853
	35	61	31.25	0.0336248	-0.001995	1	0.0336839	-3.395483	-1.457299E-005	3.634502	11	0.1589875	0.0053552	-327.6853
	36	63	24.93351	0.0339583	-0.0019483	1	0.0340142	-3.283725	-2.91043E-005	3.634506	11	0.1590003	0.0054082	-327.6853
	37	65	19.86229	0.0342891	-0.0018739	1	0.0343403	-3.128136	-8.351635E-007	3.634492	11	0.1589816	0.0054594	-327.6853
	38	66	15.625	0.0346108	-0.0017759	1	0.0346563	-2.937234	-2.734741E-005	3.634499	11	0.1590077	0.0055106	-327.6853
	39	67	12.40079	0.0348814	-0.0016747	1	0.0349216	-2.74874	-1.366599E-005	3.634504	11	0.1589847	0.005552	-327.6853
	40	69	9.93114	0.0351074	-0.0015715	1	0.0351426	-2.562943	-1.812365E-005	3.634501	11	0.1590139	0.0055881	-327.6853
	41	71	7.944915	0.0353242	-0.0014409	1	0.0353536	-2.335854	-4.313607E-005	3.634487	11	0.1589859	0.0056207	-327.6853
	42	72	6.317385	0.0355077	-0.0013355	1	0.0355328	-2.153943	-0.0001163	3.634478	11	0.1590286	0.0056507	-327.6853
	43	74	5.008013	0.0356655	-0.0012386	1	0.035687	-1.988976	-5.273346E-005	3.634491	11	0.1589865	0.0056737	-327.6853
	44	77	3.945707	0.0358134	-0.0011602	1	0.0358322	-1.855544	-2.779998E-007	3.634472	11	0.1589769	0.0056965	-327.6853
	45	79	3.158693	0.0359316	-0.0011037	1	0.0359485	-1.75943	5.902199E-006	3.634463	11	0.1590391	0.0057172	-327.6853
	46	82	2.504006	0.0360558	-0.0010615	1	0.0360714	-1.686307	-7.278856E-005	3.634462	11	0.1553829	0.0055816	-327.6853
	47	86	1.998082	0.036173	-0.0010533	1	0.0361883	-1.667865	0.0002454	3.634494	11	0.161525	0.0058277	-327.6853
	48	89	1.584686	0.0362803	-0.0010534	1	0.0362956	-1.663197	0.0002804	3.634476	11	0.1599045	0.005792	-327.6853
	49	95	1.266892	0.0363925	-0.0010627	1	0.036408	-1.672648	-0.0003038	3.634451	11	0.1593139	0.0057925	-327.6853
	50	100	0.999041	0.0365187	-0.001113	1	0.0365356	-1.745661	-0.0002839	3.634412	11	0.1590726	0.0058068	-327.6853
	51	105	0.7923428	0.0366723	-0.0011556	1	0.0366905	-1.804809	-4.776276E-005	3.634453	11	0.1591398	0.0058357	-327.6853
	52	111	0.6334459	0.0367969	-0.0012268	1	0.0368174	-1.909522	-3.59462E-005	3.634429	11	0.1589848	0.0058513	-327.6853
	53	121	0.5040323	0.036951	-0.0013076	1	0.0369741	-2.026707	-4.116131E-005	3.634407	11	0.1589832	0.0058769	-327.6853
	54	130	0.400641	0.0371018	-0.0014082	1	0.0371286	-2.173678	-3.956034E-005	3.63439	11	0.158985	0.005902	-327.6853
	55	142	0.316723	0.0372762	-0.0015407	1	0.037308	-2.366774	-3.838776E-005	3.634363	11	0.1589897	0.0059311	-327.6853
	56	159	0.2520161	0.037465	-0.0016731	1	0.0375024	-2.557021	-3.930301E-005	3.634335	11	0.1589941	0.0059623	-327.6853
	57	176	0.2003205	0.0376603	-0.0018419	1	0.0377053	-2.80004	-3.79811E-005	3.634302	11	0.1589963	0.0059948	-327.6853
	58	198	0.1588983	0.0378749	-0.0020413	1	0.0379299	-3.08509	-4.043573E-005	3.634257	11	0.1589975	0.0060306	-327.6853
	59	229	0.1260081	0.0381353	-0.0022643	1	0.0382025	-3.39791	-4.005586E-005	3.634308	11	0.1589987	0.0060741	-327.6853
	60	260	0.1001603	0.0384583	-0.0025169	1	0.0385405	-3.744396	-4.020482E-005	3.63443	11	0.1589984	0.0061278	-327.6853
	61	296	0.0794492	0.0387923	-0.0028294	1	0.0388953	-4.171575	-3.978364E-005	3.634548	11	0.1590004	0.0061843	-327.6853
	62	335	0.0631739	0.0390376	-0.0031831	1	0.0391672	-4.661592	-4.093757E-005	3.634347	11	0.1589977	0.0062275	-327.6853
	63	384	0.0501337	0.0393785	-0.0035881	1	0.0395417	-5.206322	-4.299184E-005	3.634181	11	0.1590004	0.0062871	-327.6853
	64	466	0.0398258	0.039754	-0.0040615	1	0.039961	-5.83345	-4.014278E-005	3.63402	11	0.159	0.0063538	-327.6853
	65	568	0.0316296	0.0401815	-0.0046077	1	0.0404448	-6.541595	-4.128857E-005	3.633865	11	0.1590005	0.0064307	-327.6853
	66	696	0.0251206	0.0406694	-0.0052693	1	0.0410094	-7.382407	-4.120341E-005	3.633747	11	0.1589993	0.0065205	-327.6853
	67	816	0.0199553	0.0412247	-0.0060294	1	0.0416633	-8.320967	-3.994998E-005	3.633627	11	0.1590017	0.0066245	-327.6853
	68	968	0.0158522	0.0418293	-0.00695	1	0.0424028	-9.433526	-4.103117E-005	3.633505	11	0.1589988	0.006742	-327.6853
	69	1159	0.0125907	0.0425847	-0.008036	1	0.0433363	-10.68636	-4.270537E-005	3.633325	11	0.1590007	0.0068905	-327.6853
	70	1478	0.0100011	0.0434927	-0.0092953	1	0.0444749	-12.06376	-4.130789E-005	3.633173	11	0.1589997	0.0070715	-327.6853
