EXPLAIN
TAG	GALVEIS
TITLE	LABEL	Galvanostatic EIS	Test Identifier
DATE	LABEL	24.5.2024	Date
TIME	LABEL	21:01:58	Time
NOTES	NOTES	1	Notes...
	
PSTAT	PSTAT	REF600-12055	Potentiostat
FREQINIT	QUANT	1.00000E+005	Initial Freq. (Hz)
FREQFINAL	QUANT	1.00000E-002	Final Freq. (Hz)
PTSPERDEC	QUANT	1.00000E+001	Points/decade
IACREQ	QUANT	1.59000E-001	AC Current (A rms)
IDCREQ	QUANT	0.00000E+000	DC Current (A)
AREA	QUANT	1.00000E+000	Sample Area (cm^2)
SPEED	SELECTOR	1	Optimize for:
DRIFTCOR	SELECTOR	0	Drift Correction
THD	SELECTOR	0	THD
ZGUESS	QUANT	1.00000E-001	Estimated Z (ohms)
EOC	QUANT	4.060273	Open Circuit (V)
SEQUENCER	TOGGLE	TRUE	Run as Sequence
PSTATMODEL	IQUANT	4	Pstat Model
PSTATSECTION	LABEL	REF600-12055	Pstat Section
PSTATSERIALNO	LABEL	12055	Pstat Serial Number
CTRLMODE	IQUANT	0	Control Mode
ELECTROMETER	IQUANT	0	RE=0 or CS=1
IESTAB	IQUANT	0	I/E Stability
CASPEED	IQUANT	4	Control Amp Speed
CONVENTION	IQUANT	1	Current Convention
ICHRANGE	IQUANT	2	Ich Range
ICHRANGEMODE	TOGGLE	F	Ich Auto Range
ICHOFFSETENABLE	TOGGLE	T	Ich Offset Enable
ICHOFFSET	QUANT	0	Ich Offset (V)
ICHFILTER	IQUANT	3	Ich Filter
VCHRANGE	IQUANT	2	Vch Range
VCHRANGEMODE	TOGGLE	F	Vch Auto Range
VCHOFFSETENABLE	TOGGLE	T	Vch Offset Enable
VCHOFFSET	QUANT	0	Vch Offset (V)
VCHFILTER	IQUANT	3	Vch Filter
ACHRANGE	IQUANT	2	Ach Range
ACHOFFSETENABLE	TOGGLE	F	Ach Offset Enable
ACHOFFSET	QUANT	0	Ach Offset (V)
ACHFILTER	IQUANT	1	Ach Filter
IERANGELOWERLIMIT	IQUANT	1	I/E Range Lower Limit
IERANGEMODE	TOGGLE	F	I/E AutoRange
IERANGE	IQUANT	7	I/E Range
POSFEEDENABLE	TOGGLE	F	Positive Feedback IR Comp
POSFEEDRESISTANCE	QUANT	0	Positive Feedback Resistance (ohm)
ACHSELECT	IQUANT	4	Ach Select
SENSECABLEID	IQUANT	14	Sense Cable ID
PWRCABLEID	IQUANT	14	Power Cable ID
DCCALDATE	LABEL	2/12/2024	DC Calibration Date
ACCALDATE	LABEL	2/12/2024	AC Calibration Date
THERMOSELECT	IQUANT	1	Thermo Select
FRAMEWORKVERSION	LABEL	7.10.3	Framework Version
INSTRUMENTVERSION	LABEL	4.91	Instrument Version
COMMVERSION	LABEL	2.24	Communications Version
CPUPLDVERSION	LABEL	0.00	CPU PLD Version
CTRLPLDVERSION	LABEL	0.00	CTRL PLD Version
PSTATPLDVERSION	LABEL	0.00	PSTAT PLD Version
ZCURVE	TABLE
	Pt	Time	Freq	Zreal	Zimag	Zsig	Zmod	Zphz	Idc	Vdc	IERange	Imod	Vmod	Temp
	#	s	Hz	ohm	ohm	V	ohm	°	A	V	#	A	V	°C
	0	5	100078.1	0.099623	0.2359879	1	0.2561543	67.11282	2.741453E-005	4.06036	11	0.159693	0.0406083	-327.6853
	1	6	79453.13	0.0837364	0.1958626	1	0.2130116	66.85201	1.748407E-005	4.060358	11	0.1642835	0.0348325	-327.6853
	2	8	63140.62	0.0712503	0.1621192	1	0.1770854	66.27484	5.882408E-006	4.060349	11	0.1620094	0.028605	-327.6853
	3	10	50203.12	0.0615488	0.1338098	1	0.1472865	65.29887	-5.672569E-006	4.060339	11	0.1609537	0.0236618	-327.6853
	4	11	39890.62	0.054088	0.1101138	1	0.1226808	63.83968	-9.673298E-006	4.06034	11	0.1603026	0.0196426	-327.6853
	5	13	31640.63	0.048336	0.090362	1	0.1024776	61.85702	-1.456414E-005	4.060323	11	0.1598508	0.0163688	-327.6853
	6	15	25171.88	0.0439331	0.0743635	1	0.0863715	59.4259	-1.275982E-005	4.060306	11	0.1595684	0.0137756	-327.6853
	7	17	20015.62	0.0404047	0.0612171	1	0.073349	56.57428	-1.851621E-005	4.060297	11	0.1593567	0.0116851	-327.6853
	8	18	15890.62	0.0374672	0.0503691	1	0.0627761	53.3562	-2.07439E-005	4.060288	11	0.1592357	0.0099943	-327.6853
	9	20	12609.38	0.0349954	0.0413622	1	0.0541803	49.76634	-1.848594E-005	4.060289	11	0.1591417	0.0086213	-327.6853
	10	22	10078.13	0.0329875	0.0340534	1	0.047411	45.91088	-1.556356E-005	4.060286	11	0.1590864	0.0075419	-327.6853
	11	23	8015.625	0.0313425	0.0277184	1	0.0418409	41.4886	-1.779874E-005	4.060265	11	0.1590584	0.0066548	-327.6853
	12	25	6328.125	0.0300676	0.0222062	1	0.0373788	36.44753	-1.846789E-005	4.060261	11	0.1590334	0.0059443	-327.6853
	13	27	5015.625	0.029185	0.0177027	1	0.0341343	31.23967	-1.959532E-005	4.060262	11	0.159018	0.0054279	-327.6853
	14	28	3984.375	0.0286036	0.0139622	1	0.0318294	26.0183	-1.666555E-005	4.06026	11	0.1590094	0.0050611	-327.6853
	15	30	3170.956	0.0282796	0.0108832	1	0.0303015	21.04875	-1.920515E-005	4.060244	11	0.159003	0.004818	-327.6853
	16	32	2527.573	0.0281257	0.0083759	1	0.0293464	16.58369	-1.947058E-005	4.060246	11	0.1590035	0.0046662	-327.6853
	17	33	1976.103	0.028119	0.0062107	1	0.0287968	12.45505	-1.763355E-005	4.06024	11	0.1590007	0.0045787	-327.6853
	18	35	1577.524	0.0281952	0.0046228	1	0.0285716	9.311141	-1.956359E-005	4.060234	11	0.1590058	0.004543	-327.6853
	19	36	1265.625	0.0283685	0.0032632	1	0.0285555	6.561759	-2.136058E-005	4.060229	11	0.1589942	0.0045402	-327.6853
	20	38	998.264	0.028571	0.0021454	1	0.0286515	4.294237	-1.795002E-005	4.060223	11	0.1590023	0.0045556	-327.6853
	21	39	796.875	0.0288063	0.0013125	1	0.0288362	2.608672	-2.13919E-005	4.060213	11	0.1589988	0.0045849	-327.6853
	22	41	627.7902	0.0290661	0.0005955	1	0.0290722	1.173785	-3.045192E-005	4.060193	11	0.1590047	0.0046226	-327.6853
	23	42	505.5147	0.0293312	6.946267E-005	1	0.0293313	0.1356888	-3.105105E-005	4.060194	11	0.1575966	0.0045968	-327.6853
	24	44	397.9953	0.0296383	-0.0003685	1	0.0296406	-0.7124023	-2.876419E-005	4.060184	11	0.1606019	0.0047408	-327.6853
	25	45	315.5048	0.0299364	-0.0007288	1	0.0299452	-1.394506	-2.92206E-005	4.060179	11	0.1593405	0.0047581	-327.6853
	26	47	252.4038	0.0302225	-0.0010114	1	0.0302394	-1.916787	-3.165269E-005	4.060175	11	0.1589667	0.004798	-327.6853
	27	48	198.6229	0.0305299	-0.0012534	1	0.0305556	-2.351033	-3.153741E-005	4.060167	11	0.1588828	0.0048489	-327.6853
	28	50	158.3615	0.0308319	-0.0014413	1	0.0308656	-2.676552	-3.004877E-005	4.060167	11	0.1588899	0.0049004	-327.6853
	29	51	125.558	0.031146	-0.001605	1	0.0311873	-2.949953	-3.083941E-005	4.060159	11	0.1589132	0.0049536	-327.6853
	30	53	100.4464	0.031447	-0.0017325	1	0.0314946	-3.153415	-1.611677E-005	4.060154	11	0.1589392	0.0050041	-327.6853
	31	54	79.00281	0.0317843	-0.0018502	1	0.0318381	-3.331573	-2.339296E-005	4.060145	11	0.1589517	0.0050597	-327.6853
	32	56	63.3446	0.0321008	-0.0019336	1	0.032159	-3.447086	-3.348442E-005	4.060137	11	0.1589795	0.005112	-327.6853
	33	58	50.22321	0.0324402	-0.0020067	1	0.0325022	-3.539752	-3.51253E-005	4.060129	11	0.1589829	0.0051669	-327.6853
	34	60	38.42213	0.0328418	-0.0020735	1	0.0329072	-3.612598	-1.830015E-005	4.060128	11	0.1589878	0.0052316	-327.6853
	35	61	31.25	0.0331483	-0.0021031	1	0.0332149	-3.630203	-1.737051E-005	4.060122	11	0.1590013	0.0052811	-327.6853
	36	63	24.93351	0.0335072	-0.0021175	1	0.033574	-3.615957	-1.892107E-005	4.060116	11	0.1589864	0.0053377	-327.6853
	37	64	19.86229	0.0338575	-0.0021124	1	0.0339233	-3.570118	6.484101E-006	4.060111	11	0.1589875	0.0053933	-327.6853
	38	66	15.625	0.0342347	-0.0021031	1	0.0342993	-3.515298	-1.053355E-005	4.060107	11	0.1589957	0.0054534	-327.6853
	39	67	12.40079	0.0345727	-0.0020469	1	0.0346333	-3.388227	-1.563225E-006	4.060114	11	0.1589942	0.0055065	-327.6853
	40	68	9.93114	0.0349037	-0.0019821	1	0.0349599	-3.250144	1.157774E-005	4.060111	11	0.1589938	0.0055584	-327.6853
	41	70	7.944915	0.0352045	-0.0019019	1	0.0352558	-3.092345	-3.575732E-005	4.060087	11	0.159003	0.0056058	-327.6853
	42	72	6.317385	0.0354936	-0.0017975	1	0.0355391	-2.899182	-0.0001107	4.060075	11	0.1590253	0.0056516	-327.6853
	43	74	5.008013	0.035753	-0.0016868	1	0.0357928	-2.701124	1.703447E-005	4.060065	11	0.1589847	0.0056905	-327.6853
	44	77	3.945707	0.0359854	-0.0015784	1	0.03602	-2.511479	-9.034586E-006	4.060043	11	0.1590047	0.0057273	-327.6853
	45	80	3.158693	0.0361879	-0.0014998	1	0.036219	-2.373284	7.873413E-005	4.060019	11	0.1589641	0.0057575	-327.6853
	46	82	2.504006	0.0363684	-0.0014071	1	0.0363957	-2.215715	1.36809E-005	4.05999	11	0.1554513	0.0056342	-327.6853
	47	85	1.998082	0.0365339	-0.0013511	1	0.0365589	-2.117885	1.271637E-005	4.059972	11	0.1613269	0.0058802	-327.6853
	48	89	1.584686	0.0366847	-0.0013204	1	0.0367085	-2.061346	-0.0001739	4.059948	11	0.1599481	0.0058595	-327.6853
	49	94	1.266892	0.0368447	-0.0013039	1	0.0368677	-2.02676	3.764703E-005	4.059999	11	0.1592653	0.0058638	-327.6853
	50	98	0.999041	0.036998	-0.0013022	1	0.0370209	-2.015823	-1.336075E-005	4.059985	11	0.1590699	0.0058838	-327.6853
	51	103	0.7923428	0.037159	-0.0013188	1	0.0371824	-2.032664	-4.072534E-005	4.059971	11	0.1593307	0.005921	-327.6853
	52	109	0.6334459	0.0373039	-0.0013544	1	0.0373285	-2.07931	-4.157968E-005	4.059935	11	0.1589827	0.0059325	-327.6853
	53	119	0.5040323	0.0374642	-0.0014166	1	0.037491	-2.165391	-3.985237E-005	4.059912	11	0.158982	0.0059591	-327.6853
	54	128	0.400641	0.0376351	-0.0014982	1	0.037665	-2.279643	-4.285402E-005	4.059878	11	0.1589863	0.0059874	-327.6853
	55	140	0.316723	0.0378053	-0.001601	1	0.0378392	-2.424989	-3.762508E-005	4.059834	11	0.1589907	0.0060155	-327.6853
	56	154	0.2520161	0.0380007	-0.0017247	1	0.0380398	-2.598689	-4.176097E-005	4.059783	11	0.1589917	0.0060477	-327.6853
	57	171	0.2003205	0.038195	-0.0018768	1	0.038241	-2.813093	-3.962089E-005	4.059714	11	0.1589965	0.00608	-327.6853
	58	198	0.1588983	0.0384349	-0.0020605	1	0.03849	-3.068742	-4.073094E-005	4.059639	11	0.1589988	0.0061197	-327.6853
	59	223	0.1260081	0.0386973	-0.0022753	1	0.0387641	-3.365005	-4.033285E-005	4.059623	11	0.1589982	0.0061633	-327.6853
	60	261	0.1001603	0.0390039	-0.0025247	1	0.0390855	-3.703569	-4.132844E-005	4.059656	11	0.1589997	0.0062145	-327.6853
	61	308	0.0794492	0.0393346	-0.0028159	1	0.0394352	-4.094715	-4.027744E-005	4.059669	11	0.1589981	0.0062701	-327.6853
	62	359	0.0631739	0.0396091	-0.0031553	1	0.0397346	-4.554554	-4.106336E-005	4.059428	11	0.1589999	0.0063178	-327.6853
	63	408	0.0501337	0.039964	-0.0035563	1	0.040122	-5.085152	-4.028704E-005	4.059269	11	0.1590001	0.0063794	-327.6853
	64	470	0.0398258	0.0403574	-0.0040014	1	0.0405553	-5.662357	-3.997119E-005	4.0591	11	0.1590002	0.0064483	-327.6853
	65	547	0.0316296	0.0408368	-0.0045373	1	0.0410881	-6.340013	-3.991378E-005	4.058914	11	0.1589994	0.006533	-327.6853
	66	643	0.0251206	0.0413565	-0.0051492	1	0.0416758	-7.097264	-4.099427E-005	4.058671	11	0.1590009	0.0066265	-327.6853
	67	804	0.0199553	0.0419538	-0.0058565	1	0.0423606	-7.946755	-4.060064E-005	4.058428	11	0.1589985	0.0067353	-327.6853
	68	956	0.0158522	0.0426365	-0.0066688	1	0.0431548	-8.88964	-4.098074E-005	4.058137	11	0.1590014	0.0068617	-327.6853
	69	1210	0.0125907	0.0434388	-0.0076278	1	0.0441035	-9.95949	-4.178849E-005	4.057877	11	0.1589998	0.0070124	-327.6853
	70	1449	0.0100011	0.0443808	-0.0087205	1	0.0452294	-11.11656	-3.745258E-005	4.05757	11	0.1589997	0.0071915	-327.6853
