EXPLAIN
TAG	GALVEIS
TITLE	LABEL	Galvanostatic EIS	Test Identifier
DATE	LABEL	24.5.2024	Date
TIME	LABEL	15:47:38	Time
NOTES	NOTES	1	Notes...
	
PSTAT	PSTAT	REF600-12055	Potentiostat
FREQINIT	QUANT	1.00000E+005	Initial Freq. (Hz)
FREQFINAL	QUANT	1.00000E-002	Final Freq. (Hz)
PTSPERDEC	QUANT	1.00000E+001	Points/decade
IACREQ	QUANT	1.59000E-001	AC Current (A rms)
IDCREQ	QUANT	0.00000E+000	DC Current (A)
AREA	QUANT	1.00000E+000	Sample Area (cm^2)
SPEED	SELECTOR	1	Optimize for:
DRIFTCOR	SELECTOR	0	Drift Correction
THD	SELECTOR	0	THD
ZGUESS	QUANT	1.00000E-001	Estimated Z (ohms)
EOC	QUANT	3.71872	Open Circuit (V)
SEQUENCER	TOGGLE	TRUE	Run as Sequence
PSTATMODEL	IQUANT	4	Pstat Model
PSTATSECTION	LABEL	REF600-12055	Pstat Section
PSTATSERIALNO	LABEL	12055	Pstat Serial Number
CTRLMODE	IQUANT	0	Control Mode
ELECTROMETER	IQUANT	0	RE=0 or CS=1
IESTAB	IQUANT	0	I/E Stability
CASPEED	IQUANT	4	Control Amp Speed
CONVENTION	IQUANT	1	Current Convention
ICHRANGE	IQUANT	2	Ich Range
ICHRANGEMODE	TOGGLE	F	Ich Auto Range
ICHOFFSETENABLE	TOGGLE	T	Ich Offset Enable
ICHOFFSET	QUANT	0	Ich Offset (V)
ICHFILTER	IQUANT	3	Ich Filter
VCHRANGE	IQUANT	2	Vch Range
VCHRANGEMODE	TOGGLE	F	Vch Auto Range
VCHOFFSETENABLE	TOGGLE	T	Vch Offset Enable
VCHOFFSET	QUANT	0	Vch Offset (V)
VCHFILTER	IQUANT	3	Vch Filter
ACHRANGE	IQUANT	2	Ach Range
ACHOFFSETENABLE	TOGGLE	F	Ach Offset Enable
ACHOFFSET	QUANT	0	Ach Offset (V)
ACHFILTER	IQUANT	1	Ach Filter
IERANGELOWERLIMIT	IQUANT	1	I/E Range Lower Limit
IERANGEMODE	TOGGLE	F	I/E AutoRange
IERANGE	IQUANT	7	I/E Range
POSFEEDENABLE	TOGGLE	F	Positive Feedback IR Comp
POSFEEDRESISTANCE	QUANT	0	Positive Feedback Resistance (ohm)
ACHSELECT	IQUANT	4	Ach Select
SENSECABLEID	IQUANT	14	Sense Cable ID
PWRCABLEID	IQUANT	14	Power Cable ID
DCCALDATE	LABEL	2/12/2024	DC Calibration Date
ACCALDATE	LABEL	2/12/2024	AC Calibration Date
THERMOSELECT	IQUANT	1	Thermo Select
FRAMEWORKVERSION	LABEL	7.10.3	Framework Version
INSTRUMENTVERSION	LABEL	4.91	Instrument Version
COMMVERSION	LABEL	2.24	Communications Version
CPUPLDVERSION	LABEL	0.00	CPU PLD Version
CTRLPLDVERSION	LABEL	0.00	CTRL PLD Version
PSTATPLDVERSION	LABEL	0.00	PSTAT PLD Version
ZCURVE	TABLE
	Pt	Time	Freq	Zreal	Zimag	Zsig	Zmod	Zphz	Idc	Vdc	IERange	Imod	Vmod	Temp
	#	s	Hz	ohm	ohm	V	ohm	°	A	V	#	A	V	°C
	0	5	100078.1	0.099864	0.2364367	1	0.2566615	67.10221	2.664037E-005	3.71869	11	0.1596808	0.0406856	-327.6853
	1	7	79453.13	0.0839484	0.1962196	1	0.2134232	66.83736	1.185096E-005	3.718686	11	0.1642796	0.034899	-327.6853
	2	8	63140.62	0.0714512	0.1624272	1	0.1774483	66.25546	5.678914E-006	3.71869	11	0.1620059	0.028663	-327.6853
	3	10	50203.12	0.0617329	0.1340666	1	0.1475968	65.2756	-6.173621E-006	3.718678	11	0.1609596	0.0237125	-327.6853
	4	12	39890.62	0.0542514	0.1103269	1	0.1229441	63.81512	-9.485753E-006	3.718663	11	0.1602906	0.0196832	-327.6853
	5	14	31640.63	0.0484865	0.0905366	1	0.1027025	61.82892	-9.540498E-006	3.718671	11	0.1598604	0.0164057	-327.6853
	6	15	25171.88	0.0440811	0.07451	1	0.086573	59.39085	-1.651677E-005	3.718653	11	0.1595529	0.0138064	-327.6853
	7	17	20015.62	0.0405323	0.0613469	1	0.0735276	56.54703	-1.878198E-005	3.718642	11	0.159362	0.011714	-327.6853
	8	19	15890.62	0.0375856	0.05048	1	0.0629357	53.32996	-1.901726E-005	3.718637	11	0.1592336	0.0100196	-327.6853
	9	20	12609.38	0.0351037	0.041459	1	0.0543242	49.74511	-2.028188E-005	3.718637	11	0.1591444	0.0086444	-327.6853
	10	22	10078.13	0.0330903	0.0341325	1	0.0475395	45.88823	-1.515727E-005	3.718637	11	0.1590919	0.0075626	-327.6853
	11	23	8015.625	0.0314387	0.0277823	1	0.0419554	41.46695	-1.435285E-005	3.718633	11	0.1590482	0.0066726	-327.6853
	12	25	6328.125	0.0301536	0.0222591	1	0.0374794	36.43441	-1.924415E-005	3.718625	11	0.1590372	0.0059604	-327.6853
	13	27	5015.625	0.0292663	0.0177341	1	0.0342201	31.21401	-1.675205E-005	3.718617	11	0.1590148	0.0054414	-327.6853
	14	28	3984.375	0.0286876	0.0139813	1	0.0319132	25.98299	-1.806417E-005	3.718618	11	0.159009	0.0050744	-327.6853
	15	30	3170.956	0.0283516	0.0109115	1	0.0303789	21.04995	-1.529895E-005	3.71861	11	0.1590023	0.0048303	-327.6853
	16	31	2527.573	0.0282019	0.0083782	1	0.0294201	16.54562	-1.864927E-005	3.718595	11	0.1590047	0.0046779	-327.6853
	17	33	1976.103	0.0281898	0.006251	1	0.0288746	12.50291	-2.023562E-005	3.718595	11	0.1590061	0.0045912	-327.6853
	18	35	1577.524	0.0282782	0.0046005	1	0.02865	9.240426	-1.911831E-005	3.718591	11	0.1589968	0.0045552	-327.6853
	19	36	1265.625	0.0284446	0.0033193	1	0.0286376	6.655986	-1.793168E-005	3.71859	11	0.1590085	0.0045536	-327.6853
	20	38	998.264	0.0286649	0.0021483	1	0.0287453	4.28602	-2.199589E-005	3.718573	11	0.1589991	0.0045705	-327.6853
	21	40	796.875	0.0288834	0.0013498	1	0.0289149	2.675706	-2.354931E-005	3.718576	11	0.1590052	0.0045976	-327.6853
	22	41	627.7902	0.0291625	0.0005521	1	0.0291677	1.084608	-1.956569E-005	3.718575	11	0.1589922	0.0046374	-327.6853
	23	43	505.5147	0.0294276	3.293039E-005	1	0.0294276	0.0641157	-1.836091E-005	3.718572	11	0.1575968	0.0046119	-327.6853
	24	44	397.9953	0.0297426	-0.0004132	1	0.0297454	-0.7959605	-1.983903E-005	3.718567	11	0.160603	0.0047576	-327.6853
	25	46	315.5048	0.0300511	-0.0007695	1	0.030061	-1.466758	-1.471874E-005	3.71856	11	0.1593352	0.0047763	-327.6853
	26	47	252.4038	0.0303519	-0.00105	1	0.0303701	-1.981318	-2.417131E-005	3.718557	11	0.1589728	0.0048189	-327.6853
	27	49	198.6229	0.0306799	-0.0012907	1	0.030707	-2.408971	-1.877721E-005	3.718557	11	0.1588777	0.0048728	-327.6853
	28	50	158.3615	0.0309969	-0.0014717	1	0.0310318	-2.718224	-2.100668E-005	3.718547	11	0.1588894	0.0049268	-327.6853
	29	52	125.558	0.0313226	-0.0016146	1	0.0313642	-2.950846	-2.13543E-005	3.718541	11	0.1589138	0.0049817	-327.6853
	30	53	100.4464	0.0316441	-0.0017239	1	0.031691	-3.118231	-2.77767E-005	3.718538	11	0.1589387	0.0050353	-327.6853
	31	55	79.00281	0.0319922	-0.0018117	1	0.0320435	-3.241081	-3.004423E-005	3.718534	11	0.1589605	0.0050926	-327.6853
	32	57	63.3446	0.0323139	-0.0018602	1	0.0323674	-3.294734	-3.235659E-005	3.718527	11	0.1589736	0.0051449	-327.6853
	33	58	50.22321	0.0326575	-0.001882	1	0.0327117	-3.298253	-1.571013E-005	3.718523	11	0.1589852	0.0052003	-327.6853
	34	60	38.42213	0.0330485	-0.0018843	1	0.0331022	-3.263309	-2.217048E-005	3.718523	11	0.1589826	0.0052624	-327.6853
	35	61	31.25	0.033339	-0.0018588	1	0.0333908	-3.191174	-5.864073E-006	3.718511	11	0.1589941	0.0053088	-327.6853
	36	63	24.93351	0.0336541	-0.0017981	1	0.0337021	-3.058304	-2.074195E-005	3.718513	11	0.1589972	0.0053584	-327.6853
	37	64	19.86229	0.0339419	-0.0017362	1	0.0339863	-2.928254	-5.721813E-006	3.718494	11	0.1589894	0.0054034	-327.6853
	38	66	15.625	0.0342282	-0.0016411	1	0.0342675	-2.745057	-3.34793E-005	3.718508	11	0.1589894	0.0054481	-327.6853
	39	67	12.40079	0.0344823	-0.001535	1	0.0345164	-2.548889	-3.048213E-005	3.718505	11	0.1590015	0.0054881	-327.6853
	40	69	9.93114	0.0346944	-0.0014324	1	0.034724	-2.364107	-4.138472E-005	3.718482	11	0.1589976	0.005521	-327.6853
	41	70	7.944915	0.0348808	-0.0013313	1	0.0349062	-2.185739	8.143601E-006	3.718486	11	0.1590083	0.0055504	-327.6853
	42	72	6.317385	0.0350373	-0.0012438	1	0.0350593	-2.033184	-7.498916E-005	3.718456	11	0.1589815	0.0055738	-327.6853
	43	74	5.008013	0.035181	-0.0011664	1	0.0352003	-1.898908	7.004128E-007	3.718442	11	0.1590209	0.0055976	-327.6853
	44	77	3.945707	0.0353165	-0.0011146	1	0.0353341	-1.807655	-5.023088E-005	3.71845	11	0.1589823	0.0056175	-327.6853
	45	80	3.158693	0.0354386	-0.0010811	1	0.0354551	-1.747372	-4.77038E-005	3.718444	11	0.1590408	0.0056388	-327.6853
	46	83	2.504006	0.0355541	-0.0010615	1	0.03557	-1.710135	3.238779E-005	3.718425	11	0.1553708	0.0055035	-327.6853
	47	86	1.998082	0.0356566	-0.0010765	1	0.0356728	-1.729295	-0.0002773	3.718374	11	0.1615219	0.0057446	-327.6853
	48	89	1.584686	0.035773	-0.0010917	1	0.0357897	-1.748	-0.0003465	3.718373	11	0.1599444	0.0057127	-327.6853
	49	93	1.266892	0.0358851	-0.0011473	1	0.0359034	-1.831173	0.0002505	3.718378	11	0.1592876	0.0057112	-327.6853
	50	98	0.999041	0.0360208	-0.0012155	1	0.0360413	-1.932683	0.0002423	3.7184	11	0.159059	0.0057278	-327.6853
	51	104	0.7923428	0.0361876	-0.0012925	1	0.0362107	-2.045525	-4.71872E-005	3.718427	11	0.1591532	0.0057599	-327.6853
	52	110	0.6334459	0.036335	-0.0013925	1	0.0363616	-2.194707	-3.8978E-005	3.718392	11	0.1589833	0.0057788	-327.6853
	53	120	0.5040323	0.0365003	-0.0015172	1	0.0365318	-2.380278	-4.07965E-005	3.71836	11	0.1589815	0.0058066	-327.6853
	54	131	0.400641	0.0366807	-0.0016596	1	0.0367183	-2.590522	-3.788306E-005	3.718338	11	0.1589871	0.0058369	-327.6853
	55	143	0.316723	0.0368796	-0.0018337	1	0.0369252	-2.846416	-3.928218E-005	3.718305	11	0.1589896	0.0058702	-327.6853
	56	160	0.2520161	0.037105	-0.0020319	1	0.0371606	-3.134506	-4.397228E-005	3.718265	11	0.1589923	0.0059079	-327.6853
	57	181	0.2003205	0.0373478	-0.0022553	1	0.0374159	-3.455709	-4.069402E-005	3.718224	11	0.1589968	0.0059488	-327.6853
	58	203	0.1588983	0.0376147	-0.0025142	1	0.0376986	-3.823973	-4.036639E-005	3.71818	11	0.1589976	0.0059939	-327.6853
	59	228	0.1260081	0.0379375	-0.0028063	1	0.0380412	-4.23051	-4.115987E-005	3.718216	11	0.1589994	0.0060484	-327.6853
	60	266	0.1001603	0.0383124	-0.0031449	1	0.0384413	-4.692636	-4.122816E-005	3.718333	11	0.1589995	0.0061121	-327.6853
	61	312	0.0794492	0.0387246	-0.0035361	1	0.0388857	-5.217441	-4.092213E-005	3.718447	11	0.1589977	0.0061827	-327.6853
	62	364	0.0631739	0.039066	-0.0039675	1	0.0392669	-5.799055	-3.934827E-005	3.718199	11	0.1590002	0.0062434	-327.6853
	63	413	0.0501337	0.0394751	-0.0044734	1	0.0397277	-6.465266	-4.007704E-005	3.718035	11	0.1590004	0.0063167	-327.6853
	64	495	0.0398258	0.039952	-0.0050672	1	0.0402721	-7.228297	-4.021543E-005	3.717867	11	0.1589995	0.0064032	-327.6853
	65	597	0.0316296	0.040477	-0.0057449	1	0.0408827	-8.078031	-3.817405E-005	3.717728	11	0.1589989	0.0065003	-327.6853
	66	693	0.0251206	0.0410534	-0.006568	1	0.0415755	-9.089558	-4.229983E-005	3.717555	11	0.1590006	0.0066105	-327.6853
	67	854	0.0199553	0.0416915	-0.0075328	1	0.0423665	-10.24174	-4.118973E-005	3.717367	11	0.1590009	0.0067363	-327.6853
	68	1056	0.0158522	0.042427	-0.0086924	1	0.0433083	-11.57843	-4.079815E-005	3.717211	11	0.1589992	0.006886	-327.6853
	69	1247	0.0125907	0.0433062	-0.0100842	1	0.0444648	-13.10815	-4.121571E-005	3.717037	11	0.1590001	0.0070699	-327.6853
	70	1566	0.0100011	0.0443794	-0.0117079	1	0.0458978	-14.77867	-4.111693E-005	3.71685	11	0.1589995	0.0072977	-327.6853
