EXPLAIN
TAG	GALVEIS
TITLE	LABEL	Galvanostatic EIS	Test Identifier
DATE	LABEL	24.5.2024	Date
TIME	LABEL	12:57:42	Time
NOTES	NOTES	1	Notes...
	
PSTAT	PSTAT	REF600-12055	Potentiostat
FREQINIT	QUANT	1.00000E+005	Initial Freq. (Hz)
FREQFINAL	QUANT	1.00000E-002	Final Freq. (Hz)
PTSPERDEC	QUANT	1.00000E+001	Points/decade
IACREQ	QUANT	1.59000E-001	AC Current (A rms)
IDCREQ	QUANT	0.00000E+000	DC Current (A)
AREA	QUANT	1.00000E+000	Sample Area (cm^2)
SPEED	SELECTOR	1	Optimize for:
DRIFTCOR	SELECTOR	0	Drift Correction
THD	SELECTOR	0	THD
ZGUESS	QUANT	1.00000E-001	Estimated Z (ohms)
EOC	QUANT	3.572418	Open Circuit (V)
SEQUENCER	TOGGLE	TRUE	Run as Sequence
PSTATMODEL	IQUANT	4	Pstat Model
PSTATSECTION	LABEL	REF600-12055	Pstat Section
PSTATSERIALNO	LABEL	12055	Pstat Serial Number
CTRLMODE	IQUANT	0	Control Mode
ELECTROMETER	IQUANT	0	RE=0 or CS=1
IESTAB	IQUANT	0	I/E Stability
CASPEED	IQUANT	4	Control Amp Speed
CONVENTION	IQUANT	1	Current Convention
ICHRANGE	IQUANT	2	Ich Range
ICHRANGEMODE	TOGGLE	F	Ich Auto Range
ICHOFFSETENABLE	TOGGLE	T	Ich Offset Enable
ICHOFFSET	QUANT	0	Ich Offset (V)
ICHFILTER	IQUANT	3	Ich Filter
VCHRANGE	IQUANT	2	Vch Range
VCHRANGEMODE	TOGGLE	F	Vch Auto Range
VCHOFFSETENABLE	TOGGLE	T	Vch Offset Enable
VCHOFFSET	QUANT	0	Vch Offset (V)
VCHFILTER	IQUANT	3	Vch Filter
ACHRANGE	IQUANT	2	Ach Range
ACHOFFSETENABLE	TOGGLE	F	Ach Offset Enable
ACHOFFSET	QUANT	0	Ach Offset (V)
ACHFILTER	IQUANT	1	Ach Filter
IERANGELOWERLIMIT	IQUANT	1	I/E Range Lower Limit
IERANGEMODE	TOGGLE	F	I/E AutoRange
IERANGE	IQUANT	7	I/E Range
POSFEEDENABLE	TOGGLE	F	Positive Feedback IR Comp
POSFEEDRESISTANCE	QUANT	0	Positive Feedback Resistance (ohm)
ACHSELECT	IQUANT	4	Ach Select
SENSECABLEID	IQUANT	14	Sense Cable ID
PWRCABLEID	IQUANT	14	Power Cable ID
DCCALDATE	LABEL	2/12/2024	DC Calibration Date
ACCALDATE	LABEL	2/12/2024	AC Calibration Date
THERMOSELECT	IQUANT	1	Thermo Select
FRAMEWORKVERSION	LABEL	7.10.3	Framework Version
INSTRUMENTVERSION	LABEL	4.91	Instrument Version
COMMVERSION	LABEL	2.24	Communications Version
CPUPLDVERSION	LABEL	0.00	CPU PLD Version
CTRLPLDVERSION	LABEL	0.00	CTRL PLD Version
PSTATPLDVERSION	LABEL	0.00	PSTAT PLD Version
ZCURVE	TABLE
	Pt	Time	Freq	Zreal	Zimag	Zsig	Zmod	Zphz	Idc	Vdc	IERange	Imod	Vmod	Temp
	#	s	Hz	ohm	ohm	V	ohm	°	A	V	#	A	V	°C
	0	5	100078.1	0.099819	0.2368073	1	0.2569854	67.14361	3.130536E-005	3.572558	11	0.1596666	0.0407333	-327.6853
	1	6	79453.13	0.0839536	0.1964904	1	0.2136742	66.86466	1.330476E-005	3.572544	11	0.1642996	0.0349443	-327.6853
	2	8	63140.62	0.0715008	0.1626157	1	0.1776407	66.2653	1.569395E-006	3.572552	11	0.1619878	0.0286908	-327.6853
	3	10	50203.12	0.0617995	0.1342051	1	0.1477504	65.27461	-1.680863E-006	3.57254	11	0.1609452	0.023735	-327.6853
	4	12	39890.62	0.0543406	0.110438	1	0.1230831	63.80067	-5.610811E-006	3.572535	11	0.16029	0.0197054	-327.6853
	5	13	31640.63	0.0485806	0.0906254	1	0.1028253	61.80606	-1.541551E-005	3.572522	11	0.1598543	0.0164246	-327.6853
	6	15	25171.88	0.0441749	0.0745684	1	0.086671	59.35714	-2.281275E-005	3.572523	11	0.1595557	0.0138222	-327.6853
	7	17	20015.62	0.04064	0.0614037	1	0.0736344	56.5014	-1.728232E-005	3.572506	11	0.159355	0.0117305	-327.6853
	8	18	15890.62	0.0376899	0.0505061	1	0.063019	53.26807	-1.842354E-005	3.572498	11	0.1592311	0.0100327	-327.6853
	9	20	12609.38	0.0352145	0.0414769	1	0.0544095	49.66826	-1.873472E-005	3.572503	11	0.1591424	0.0086578	-327.6853
	10	22	10078.13	0.0332096	0.0341335	1	0.0476232	45.78595	-3.200979E-005	3.572491	11	0.1590884	0.0075757	-327.6853
	11	23	8015.625	0.031558	0.0277881	1	0.0420486	41.36526	-2.278242E-005	3.572488	11	0.1590599	0.0066879	-327.6853
	12	25	6328.125	0.0302737	0.0222499	1	0.0375707	36.31428	-2.089178E-005	3.572479	11	0.1590275	0.0059746	-327.6853
	13	26	5015.625	0.0293905	0.0177168	1	0.0343175	31.08191	-2.046983E-005	3.572482	11	0.159017	0.005457	-327.6853
	14	28	3984.375	0.0288123	0.0139638	1	0.0320177	25.85698	-1.65333E-005	3.572479	11	0.1590063	0.005091	-327.6853
	15	29	3170.956	0.0284817	0.0108848	1	0.0304907	20.91524	-2.181332E-005	3.572466	11	0.1590073	0.0048482	-327.6853
	16	31	2527.573	0.0283264	0.00835	1	0.0295314	16.42433	-1.769641E-005	3.572471	11	0.1590031	0.0046956	-327.6853
	17	33	1976.103	0.0283389	0.0061555	1	0.0289997	12.25477	-2.343941E-005	3.572454	11	0.1590079	0.0046112	-327.6853
	18	34	1577.524	0.0284144	0.0045311	1	0.0287735	9.06045	-1.822028E-005	3.572462	11	0.1590003	0.004575	-327.6853
	19	36	1265.625	0.0285645	0.0032411	1	0.0287478	6.473436	-1.726771E-005	3.572455	11	0.1590021	0.004571	-327.6853
	20	37	998.264	0.0288216	0.0020793	1	0.0288965	4.12649	-1.644046E-005	3.572444	11	0.1589999	0.0045945	-327.6853
	21	39	796.875	0.0290458	0.0012487	1	0.0290726	2.46172	-2.082976E-005	3.572445	11	0.1590027	0.0046226	-327.6853
	22	40	627.7902	0.0293494	0.0004542	1	0.0293529	0.8867119	-1.901062E-005	3.572441	11	0.1589979	0.0046671	-327.6853
	23	42	505.5147	0.02963	-0.0001004	1	0.0296301	-0.1942008	-2.018898E-005	3.572437	11	0.1575934	0.0046436	-327.6853
	24	43	397.9953	0.0299666	-0.0005651	1	0.0299719	-1.080296	-1.808594E-005	3.572432	11	0.1606068	0.0047939	-327.6853
	25	45	315.5048	0.0303009	-0.0009347	1	0.0303153	-1.766909	-3.037648E-005	3.572428	11	0.1593339	0.0048167	-327.6853
	26	46	252.4038	0.0306182	-0.0012287	1	0.0306428	-2.297988	-2.161109E-005	3.572422	11	0.158973	0.0048622	-327.6853
	27	48	198.6229	0.0309692	-0.0014854	1	0.0310048	-2.746053	-2.002879E-005	3.572421	11	0.1588759	0.00492	-327.6853
	28	49	158.3615	0.0313141	-0.0016893	1	0.0313597	-3.087846	-2.078353E-005	3.572415	11	0.1588867	0.0049787	-327.6853
	29	51	125.558	0.0316703	-0.0018525	1	0.0317245	-3.347677	-2.187747E-005	3.572408	11	0.1589174	0.0050391	-327.6853
	30	53	100.4464	0.0320131	-0.0019871	1	0.0320748	-3.55196	-2.469518E-005	3.572402	11	0.1589358	0.0050962	-327.6853
	31	54	79.00281	0.0324005	-0.0020974	1	0.0324683	-3.703774	-3.296987E-005	3.572397	11	0.1589584	0.0051601	-327.6853
	32	56	63.3446	0.0327578	-0.0021792	1	0.0328302	-3.805957	-2.117979E-005	3.572398	11	0.1589769	0.0052186	-327.6853
	33	57	50.22321	0.0331448	-0.0022474	1	0.0332209	-3.878969	-2.06402E-005	3.572393	11	0.1589789	0.005281	-327.6853
	34	59	38.42213	0.0336007	-0.0022913	1	0.0336787	-3.901054	-1.926755E-005	3.572383	11	0.1589937	0.0053545	-327.6853
	35	60	31.25	0.0339474	-0.0023053	1	0.0340256	-3.884879	-2.895319E-005	3.572379	11	0.1589978	0.0054098	-327.6853
	36	62	24.93351	0.0343332	-0.0022968	1	0.03441	-3.827307	-1.913501E-005	3.572379	11	0.1589893	0.0054707	-327.6853
	37	63	19.86229	0.034721	-0.0022774	1	0.0347956	-3.75276	-4.715624E-005	3.572368	11	0.1589807	0.0055318	-327.6853
	38	65	15.625	0.0351158	-0.0021965	1	0.0351844	-3.579155	-3.494066E-005	3.57237	11	0.158997	0.0055942	-327.6853
	39	66	12.40079	0.0354836	-0.0021077	1	0.0355462	-3.39925	-5.166873E-005	3.572357	11	0.1589959	0.0056517	-327.6853
	40	68	9.93114	0.0358211	-0.0019935	1	0.0358765	-3.185269	-4.589144E-005	3.572351	11	0.1590157	0.0057049	-327.6853
	41	69	7.944915	0.0361091	-0.001873	1	0.0361577	-2.969277	-1.978804E-005	3.572336	11	0.1589778	0.0057483	-327.6853
	42	71	6.317385	0.0363882	-0.0017389	1	0.0364297	-2.735886	-9.279605E-005	3.572344	11	0.1590087	0.0057926	-327.6853
	43	73	5.008013	0.0366154	-0.0016048	1	0.0366505	-2.509548	-7.326284E-005	3.572358	11	0.1589953	0.0058273	-327.6853
	44	75	3.945707	0.03682	-0.0014667	1	0.0368492	-2.28117	-2.339177E-005	3.572348	11	0.1590174	0.0058597	-327.6853
	45	78	3.158693	0.0369889	-0.0013705	1	0.0370143	-2.121959	-0.0001057	3.572355	11	0.1589749	0.0058843	-327.6853
	46	80	2.504006	0.0371513	-0.0012882	1	0.0371736	-1.985896	-5.77477E-005	3.572362	11	0.1554315	0.0057539	-327.6853
	47	83	1.998082	0.0372903	-0.0012188	1	0.0373102	-1.87199	-1.631949E-005	3.572356	11	0.1613358	0.0060013	-327.6853
	48	88	1.584686	0.0374095	-0.0011857	1	0.0374283	-1.815467	0.0001647	3.572351	11	0.1599804	0.0059756	-327.6853
	49	92	1.266892	0.0375409	-0.0011715	1	0.0375592	-1.78738	-0.0001206	3.572281	11	0.1592487	0.0059732	-327.6853
	50	96	0.999041	0.037677	-0.0011771	1	0.0376954	-1.789455	-6.816899E-005	3.572258	11	0.1590583	0.0059906	-327.6853
	51	102	0.7923428	0.0378237	-0.0011796	1	0.0378421	-1.786263	-3.798612E-005	3.572315	11	0.1593179	0.0060256	-327.6853
	52	110	0.6334459	0.0379539	-0.0012224	1	0.0379736	-1.84464	-3.916561E-005	3.572284	11	0.1589832	0.006035	-327.6853
	53	118	0.5040323	0.0380972	-0.0012779	1	0.0381186	-1.921224	-4.077936E-005	3.572251	11	0.1589831	0.0060589	-327.6853
	54	129	0.400641	0.0382526	-0.0013463	1	0.0382763	-2.015733	-4.190768E-005	3.572229	11	0.1589849	0.0060845	-327.6853
	55	141	0.316723	0.0384044	-0.0014364	1	0.0384312	-2.141903	-3.826142E-005	3.572189	11	0.1589899	0.0061096	-327.6853
	56	158	0.2520161	0.0385707	-0.0015491	1	0.0386018	-2.299896	-4.146881E-005	3.572135	11	0.158995	0.0061371	-327.6853
	57	179	0.2003205	0.0387461	-0.0016797	1	0.0387825	-2.482276	-4.08382E-005	3.572091	11	0.1589944	0.006166	-327.6853
	58	201	0.1588983	0.0389353	-0.001842	1	0.0389788	-2.708653	-4.015433E-005	3.572044	11	0.1589983	0.0061974	-327.6853
	59	226	0.1260081	0.0391599	-0.0020443	1	0.0392132	-2.988319	-4.153183E-005	3.572056	11	0.158998	0.0062347	-327.6853
	60	264	0.1001603	0.0394256	-0.0022739	1	0.0394911	-3.300987	-4.039545E-005	3.572171	11	0.158999	0.006279	-327.6853
	61	300	0.0794492	0.0397097	-0.0025524	1	0.0397917	-3.677709	-4.130215E-005	3.572288	11	0.1589985	0.0063268	-327.6853
	62	340	0.0631739	0.0399256	-0.0028872	1	0.0400299	-4.136075	-4.209127E-005	3.572062	11	0.1589995	0.0063647	-327.6853
	63	389	0.0501337	0.0401923	-0.0032874	1	0.0403265	-4.675975	-4.006061E-005	3.571873	11	0.1590015	0.006412	-327.6853
	64	470	0.0398258	0.0405181	-0.0037598	1	0.0406922	-5.301468	-4.230874E-005	3.571675	11	0.1589996	0.00647	-327.6853
	65	572	0.0316296	0.0408979	-0.0043233	1	0.0411257	-6.034349	-4.142605E-005	3.571522	11	0.1590002	0.006539	-327.6853
	66	669	0.0251206	0.0413297	-0.0049979	1	0.0416308	-6.895172	-4.030569E-005	3.571345	11	0.1589999	0.0066193	-327.6853
	67	829	0.0199553	0.0418222	-0.0058116	1	0.0422241	-7.911166	-4.044387E-005	3.571159	11	0.1590006	0.0067137	-327.6853
	68	981	0.0158522	0.0424089	-0.0067619	1	0.0429446	-9.059322	-4.108332E-005	3.570985	11	0.1589991	0.0068281	-327.6853
	69	1172	0.0125907	0.0431145	-0.0079004	1	0.0438323	-10.38379	-4.101254E-005	3.570803	11	0.1590001	0.0069693	-327.6853
	70	1412	0.0100011	0.0439663	-0.009236	1	0.044926	-11.86366	-4.185946E-005	3.570601	11	0.1590001	0.0071432	-327.6853
