EXPLAIN
TAG	GALVEIS
TITLE	LABEL	Galvanostatic EIS	Test Identifier
DATE	LABEL	24.5.2024	Date
TIME	LABEL	9:32:06	Time
NOTES	NOTES	1	Notes...
	
PSTAT	PSTAT	REF600-12055	Potentiostat
FREQINIT	QUANT	1.00000E+005	Initial Freq. (Hz)
FREQFINAL	QUANT	1.00000E-002	Final Freq. (Hz)
PTSPERDEC	QUANT	1.00000E+001	Points/decade
IACREQ	QUANT	1.59000E-001	AC Current (A rms)
IDCREQ	QUANT	0.00000E+000	DC Current (A)
AREA	QUANT	1.00000E+000	Sample Area (cm^2)
SPEED	SELECTOR	1	Optimize for:
DRIFTCOR	SELECTOR	0	Drift Correction
THD	SELECTOR	0	THD
ZGUESS	QUANT	1.00000E-001	Estimated Z (ohms)
EOC	QUANT	3.184803	Open Circuit (V)
SEQUENCER	TOGGLE	TRUE	Run as Sequence
PSTATMODEL	IQUANT	4	Pstat Model
PSTATSECTION	LABEL	REF600-12055	Pstat Section
PSTATSERIALNO	LABEL	12055	Pstat Serial Number
CTRLMODE	IQUANT	0	Control Mode
ELECTROMETER	IQUANT	0	RE=0 or CS=1
IESTAB	IQUANT	0	I/E Stability
CASPEED	IQUANT	4	Control Amp Speed
CONVENTION	IQUANT	1	Current Convention
ICHRANGE	IQUANT	2	Ich Range
ICHRANGEMODE	TOGGLE	F	Ich Auto Range
ICHOFFSETENABLE	TOGGLE	T	Ich Offset Enable
ICHOFFSET	QUANT	0	Ich Offset (V)
ICHFILTER	IQUANT	3	Ich Filter
VCHRANGE	IQUANT	2	Vch Range
VCHRANGEMODE	TOGGLE	F	Vch Auto Range
VCHOFFSETENABLE	TOGGLE	T	Vch Offset Enable
VCHOFFSET	QUANT	0	Vch Offset (V)
VCHFILTER	IQUANT	3	Vch Filter
ACHRANGE	IQUANT	2	Ach Range
ACHOFFSETENABLE	TOGGLE	F	Ach Offset Enable
ACHOFFSET	QUANT	0	Ach Offset (V)
ACHFILTER	IQUANT	1	Ach Filter
IERANGELOWERLIMIT	IQUANT	1	I/E Range Lower Limit
IERANGEMODE	TOGGLE	F	I/E AutoRange
IERANGE	IQUANT	7	I/E Range
POSFEEDENABLE	TOGGLE	F	Positive Feedback IR Comp
POSFEEDRESISTANCE	QUANT	0	Positive Feedback Resistance (ohm)
ACHSELECT	IQUANT	4	Ach Select
SENSECABLEID	IQUANT	14	Sense Cable ID
PWRCABLEID	IQUANT	14	Power Cable ID
DCCALDATE	LABEL	2/12/2024	DC Calibration Date
ACCALDATE	LABEL	2/12/2024	AC Calibration Date
THERMOSELECT	IQUANT	1	Thermo Select
FRAMEWORKVERSION	LABEL	7.10.3	Framework Version
INSTRUMENTVERSION	LABEL	4.91	Instrument Version
COMMVERSION	LABEL	2.24	Communications Version
CPUPLDVERSION	LABEL	0.00	CPU PLD Version
CTRLPLDVERSION	LABEL	0.00	CTRL PLD Version
PSTATPLDVERSION	LABEL	0.00	PSTAT PLD Version
ZCURVE	TABLE
	Pt	Time	Freq	Zreal	Zimag	Zsig	Zmod	Zphz	Idc	Vdc	IERange	Imod	Vmod	Temp
	#	s	Hz	ohm	ohm	V	ohm	°	A	V	#	A	V	°C
	0	5	100078.1	0.1000251	0.2381652	1	0.258317	67.21848	2.863375E-005	3.184771	11	0.1596673	0.0409445	-327.6853
	1	7	79453.13	0.0842186	0.1975288	1	0.2147333	66.90848	1.676567E-005	3.184779	11	0.1642484	0.0351066	-327.6853
	2	9	63140.62	0.0717994	0.1634168	1	0.1784943	66.28107	3.765221E-006	3.184779	11	0.1619521	0.0288223	-327.6853
	3	11	50203.12	0.0621503	0.1348155	1	0.1484516	65.25016	-1.472828E-005	3.184765	11	0.1609346	0.0238461	-327.6853
	4	12	39890.62	0.0547114	0.110918	1	0.1236776	63.74473	-1.279102E-005	3.184772	11	0.1602733	0.0197985	-327.6853
	5	14	31640.63	0.0489774	0.0909994	1	0.1033426	61.71012	-1.552503E-005	3.184769	11	0.1598447	0.0165063	-327.6853
	6	16	25171.88	0.0445733	0.0748688	1	0.0871328	59.23244	-2.281507E-005	3.184774	11	0.1595441	0.0138949	-327.6853
	7	17	20015.62	0.0410513	0.0616403	1	0.074059	56.33716	-2.813397E-005	3.184766	11	0.1593529	0.0117979	-327.6853
	8	19	15890.62	0.0381096	0.0507	1	0.0634259	53.06896	-2.77831E-005	3.184773	11	0.1592258	0.0100971	-327.6853
	9	21	12609.38	0.0356291	0.0416297	1	0.0547948	49.44121	-1.743686E-005	3.184775	11	0.1591406	0.008719	-327.6853
	10	22	10078.13	0.0336193	0.0342528	1	0.0479949	45.5348	-2.734526E-005	3.184772	11	0.1590915	0.007635	-327.6853
	11	24	8015.625	0.0319731	0.0278808	1	0.0424219	41.08867	-2.17522E-005	3.184776	11	0.1590552	0.0067471	-327.6853
	12	25	6328.125	0.0306815	0.0223195	1	0.037941	36.03433	-2.176699E-005	3.18477	11	0.1590282	0.0060335	-327.6853
	13	27	5015.625	0.0298076	0.0177637	1	0.0346993	30.79269	-1.985289E-005	3.18479	11	0.159018	0.0055177	-327.6853
	14	29	3984.375	0.0292253	0.0140188	1	0.0324136	25.6261	-2.097746E-005	3.184786	11	0.1590081	0.005154	-327.6853
	15	30	3170.956	0.0288992	0.0109317	1	0.0308976	20.72013	-1.986034E-005	3.184793	11	0.1590061	0.0049129	-327.6853
	16	32	2527.573	0.0287403	0.0083544	1	0.02993	16.20845	-2.224441E-005	3.184781	11	0.159003	0.0047589	-327.6853
	17	34	1976.103	0.0287293	0.0061937	1	0.0293894	12.16608	-1.798541E-005	3.184789	11	0.1590005	0.0046729	-327.6853
	18	35	1577.524	0.0288215	0.0045143	1	0.0291729	8.901953	-2.355648E-005	3.184797	11	0.1589973	0.0046384	-327.6853
	19	37	1265.625	0.0289712	0.00322	1	0.0291496	6.342085	-2.186885E-005	3.184788	11	0.1590097	0.0046351	-327.6853
	20	39	998.264	0.0291932	0.0020686	1	0.0292664	4.053133	-1.800316E-005	3.184808	11	0.1590003	0.0046534	-327.6853
	21	40	796.875	0.029456	0.0010946	1	0.0294763	2.128166	-2.204836E-005	3.184795	11	0.1589911	0.0046865	-327.6853
	22	42	627.7902	0.0297694	0.0003539	1	0.0297715	0.6811775	-1.94445E-005	3.184808	11	0.1589988	0.0047336	-327.6853
	23	43	505.5147	0.0300379	-0.0002252	1	0.0300388	-0.4294652	-2.156419E-005	3.184811	11	0.1576044	0.0047079	-327.6853
	24	45	397.9953	0.0303944	-0.0007242	1	0.030403	-1.364831	-2.091681E-005	3.184811	11	0.1605974	0.0048626	-327.6853
	25	46	315.5048	0.0307389	-0.0011404	1	0.0307601	-2.124695	-2.065935E-005	3.184809	11	0.1593432	0.0048876	-327.6853
	26	48	252.4038	0.0310774	-0.0014783	1	0.0311126	-2.723435	-2.748729E-005	3.184815	11	0.1589684	0.0049366	-327.6853
	27	49	198.6229	0.0314631	-0.0017919	1	0.031514	-3.259627	-1.942378E-005	3.184824	11	0.1588792	0.0050009	-327.6853
	28	51	158.3615	0.0318332	-0.00204	1	0.0318985	-3.666754	-2.102985E-005	3.184818	11	0.1588844	0.0050642	-327.6853
	29	52	125.558	0.032226	-0.0022799	1	0.0323066	-4.046776	-2.95206E-005	3.184826	11	0.1589147	0.0051314	-327.6853
	30	54	100.4464	0.0326181	-0.0024776	1	0.0327121	-4.343803	-2.310553E-005	3.184815	11	0.15894	0.0051976	-327.6853
	31	55	79.00281	0.0330546	-0.0026642	1	0.0331618	-4.608062	-2.215116E-005	3.184818	11	0.1589551	0.0052702	-327.6853
	32	57	63.3446	0.0334671	-0.0028315	1	0.0335867	-4.835988	-1.948606E-005	3.184828	11	0.1589776	0.0053388	-327.6853
	33	58	50.22321	0.0339142	-0.0030011	1	0.0340467	-5.056921	-1.548114E-005	3.184821	11	0.1589847	0.0054125	-327.6853
	34	60	38.42213	0.0344284	-0.0031836	1	0.0345753	-5.283114	-2.129423E-005	3.18485	11	0.1589853	0.0054967	-327.6853
	35	61	31.25	0.03483	-0.0033584	1	0.0349915	-5.507504	-3.942172E-006	3.184809	11	0.1589861	0.005563	-327.6853
	36	63	24.93351	0.0352724	-0.0035302	1	0.0354486	-5.715379	-1.98175E-005	3.18485	11	0.1590071	0.0056365	-327.6853
	37	65	19.86229	0.0357551	-0.0037639	1	0.0359526	-6.00927	9.178068E-006	3.184824	11	0.1589769	0.0057156	-327.6853
	38	66	15.625	0.0362387	-0.0040246	1	0.0364615	-6.337247	-4.116562E-006	3.184817	11	0.1589954	0.0057972	-327.6853
	39	67	12.40079	0.0367693	-0.0043065	1	0.0370206	-6.680254	5.116453E-007	3.184859	11	0.1590029	0.0058864	-327.6853
	40	69	9.93114	0.0373296	-0.0046303	1	0.0376157	-7.070748	1.1025E-005	3.184893	11	0.1589871	0.0059804	-327.6853
	41	71	7.944915	0.0379002	-0.0050585	1	0.0382363	-7.602292	-2.588314E-005	3.184808	11	0.1589996	0.0060795	-327.6853
	42	73	6.317385	0.038648	-0.0054973	1	0.039037	-8.09547	-3.565762E-005	3.184887	11	0.1589778	0.006206	-327.6853
	43	75	5.008013	0.0394981	-0.0060063	1	0.0399521	-8.646452	-5.744939E-005	3.184927	11	0.159045	0.0063542	-327.6853
	44	77	3.945707	0.0405304	-0.0064791	1	0.041045	-9.08239	-1.925527E-005	3.1849	11	0.1590014	0.0065262	-327.6853
	45	80	3.158693	0.0415973	-0.0069015	1	0.0421659	-9.4202	-9.397918E-005	3.184937	11	0.159001	0.0067044	-327.6853
	46	84	2.504006	0.0428625	-0.0072687	1	0.0434745	-9.62474	-6.715534E-005	3.184986	11	0.1553994	0.0067278	-327.6853
	47	87	1.998082	0.0441514	-0.0074859	1	0.0447816	-9.62296	8.62999E-005	3.185034	11	0.1613663	0.0072045	-327.6853
	48	91	1.584686	0.0455005	-0.0075629	1	0.0461247	-9.437174	0.0002574	3.185041	11	0.160035	0.0073666	-327.6853
	49	96	1.266892	0.0468148	-0.0075157	1	0.0474142	-9.120554	-0.0002146	3.18494	11	0.1592387	0.00754	-327.6853
	50	101	0.999041	0.048142	-0.0073367	1	0.0486978	-8.664993	-0.0001628	3.184891	11	0.1590425	0.0077384	-327.6853
	51	106	0.7923428	0.0493319	-0.0070244	1	0.0498295	-8.103861	-4.226904E-005	3.185079	11	0.1592477	0.0079309	-327.6853
	52	114	0.6334459	0.0503347	-0.0067345	1	0.0507832	-7.620557	-4.222168E-005	3.185087	11	0.1589836	0.0080708	-327.6853
	53	123	0.5040323	0.0512616	-0.0064317	1	0.0516635	-7.151396	-4.177197E-005	3.185115	11	0.1589828	0.0082118	-327.6853
	54	133	0.400641	0.0520832	-0.0061835	1	0.052449	-6.770706	-4.73593E-005	3.185143	11	0.1589849	0.0083374	-327.6853
	55	144	0.316723	0.0528346	-0.005997	1	0.0531738	-6.475616	-4.438129E-005	3.185177	11	0.1589899	0.0084533	-327.6853
	56	162	0.2520161	0.0535042	-0.0059054	1	0.0538291	-6.298415	-3.797456E-005	3.185235	11	0.1589933	0.008558	-327.6853
	57	179	0.2003205	0.0541265	-0.0059125	1	0.0544485	-6.233973	-4.543678E-005	3.185301	11	0.1589951	0.0086567	-327.6853
	58	205	0.1588983	0.0547516	-0.0060363	1	0.0550833	-6.29139	-4.065972E-005	3.185392	11	0.1589978	0.0087579	-327.6853
	59	237	0.1260081	0.0553753	-0.0062789	1	0.0557301	-6.469042	-4.408223E-005	3.185792	11	0.1589969	0.0088608	-327.6853
	60	267	0.1001603	0.0560408	-0.0066362	1	0.0564324	-6.753347	-4.034831E-005	3.186557	11	0.1590009	0.0089727	-327.6853
	61	303	0.0794492	0.056716	-0.007146	1	0.0571644	-7.181253	-4.166031E-005	3.187495	11	0.1589979	0.009089	-327.6853
	62	343	0.0631739	0.0572449	-0.0078504	1	0.0577807	-7.808689	-4.023637E-005	3.187444	11	0.1590014	0.0091872	-327.6853
	63	408	0.0501337	0.0579038	-0.0087421	1	0.05856	-8.585494	-4.065088E-005	3.187633	11	0.1589995	0.009311	-327.6853
	64	469	0.0398258	0.0585761	-0.0098662	1	0.0594012	-9.56082	-4.177291E-005	3.187907	11	0.1590006	0.0094448	-327.6853
	65	571	0.0316296	0.0592971	-0.0112882	1	0.060362	-10.77824	-4.200962E-005	3.188312	11	0.1589986	0.0095975	-327.6853
	66	699	0.0251206	0.0600761	-0.0130993	1	0.0614876	-12.30058	-3.889868E-005	3.188834	11	0.1590005	0.0097766	-327.6853
	67	860	0.0199553	0.0609668	-0.0153591	1	0.0628717	-14.14004	-3.600687E-005	3.189487	11	0.1589989	0.0099965	-327.6853
	68	1062	0.0158522	0.0620239	-0.0181757	1	0.0646322	-16.33288	-3.837587E-005	3.190314	11	0.1590007	0.0102766	-327.6853
	69	1316	0.0125907	0.0633042	-0.0216355	1	0.0668993	-18.86891	-4.13592E-005	3.191323	11	0.1590004	0.010637	-327.6853
	70	1635	0.0100011	0.0648611	-0.0257563	1	0.0697879	-21.65804	-4.251253E-005	3.192493	11	0.1589992	0.0110962	-327.6853
