EXPLAIN
TAG	GALVEIS
TITLE	LABEL	Galvanostatic EIS	Test Identifier
DATE	LABEL	24.5.2024	Date
TIME	LABEL	11:46:22	Time
NOTES	NOTES	1	Notes...
	
PSTAT	PSTAT	REF600-12055	Potentiostat
FREQINIT	QUANT	1.00000E+005	Initial Freq. (Hz)
FREQFINAL	QUANT	1.00000E-002	Final Freq. (Hz)
PTSPERDEC	QUANT	1.00000E+001	Points/decade
IACREQ	QUANT	1.59000E-001	AC Current (A rms)
IDCREQ	QUANT	0.00000E+000	DC Current (A)
AREA	QUANT	1.00000E+000	Sample Area (cm^2)
SPEED	SELECTOR	1	Optimize for:
DRIFTCOR	SELECTOR	0	Drift Correction
THD	SELECTOR	0	THD
ZGUESS	QUANT	1.00000E-001	Estimated Z (ohms)
EOC	QUANT	3.501253	Open Circuit (V)
SEQUENCER	TOGGLE	TRUE	Run as Sequence
PSTATMODEL	IQUANT	4	Pstat Model
PSTATSECTION	LABEL	REF600-12055	Pstat Section
PSTATSERIALNO	LABEL	12055	Pstat Serial Number
CTRLMODE	IQUANT	0	Control Mode
ELECTROMETER	IQUANT	0	RE=0 or CS=1
IESTAB	IQUANT	0	I/E Stability
CASPEED	IQUANT	4	Control Amp Speed
CONVENTION	IQUANT	1	Current Convention
ICHRANGE	IQUANT	2	Ich Range
ICHRANGEMODE	TOGGLE	F	Ich Auto Range
ICHOFFSETENABLE	TOGGLE	T	Ich Offset Enable
ICHOFFSET	QUANT	0	Ich Offset (V)
ICHFILTER	IQUANT	3	Ich Filter
VCHRANGE	IQUANT	2	Vch Range
VCHRANGEMODE	TOGGLE	F	Vch Auto Range
VCHOFFSETENABLE	TOGGLE	T	Vch Offset Enable
VCHOFFSET	QUANT	0	Vch Offset (V)
VCHFILTER	IQUANT	3	Vch Filter
ACHRANGE	IQUANT	2	Ach Range
ACHOFFSETENABLE	TOGGLE	F	Ach Offset Enable
ACHOFFSET	QUANT	0	Ach Offset (V)
ACHFILTER	IQUANT	1	Ach Filter
IERANGELOWERLIMIT	IQUANT	1	I/E Range Lower Limit
IERANGEMODE	TOGGLE	F	I/E AutoRange
IERANGE	IQUANT	7	I/E Range
POSFEEDENABLE	TOGGLE	F	Positive Feedback IR Comp
POSFEEDRESISTANCE	QUANT	0	Positive Feedback Resistance (ohm)
ACHSELECT	IQUANT	4	Ach Select
SENSECABLEID	IQUANT	14	Sense Cable ID
PWRCABLEID	IQUANT	14	Power Cable ID
DCCALDATE	LABEL	2/12/2024	DC Calibration Date
ACCALDATE	LABEL	2/12/2024	AC Calibration Date
THERMOSELECT	IQUANT	1	Thermo Select
FRAMEWORKVERSION	LABEL	7.10.3	Framework Version
INSTRUMENTVERSION	LABEL	4.91	Instrument Version
COMMVERSION	LABEL	2.24	Communications Version
CPUPLDVERSION	LABEL	0.00	CPU PLD Version
CTRLPLDVERSION	LABEL	0.00	CTRL PLD Version
PSTATPLDVERSION	LABEL	0.00	PSTAT PLD Version
ZCURVE	TABLE
	Pt	Time	Freq	Zreal	Zimag	Zsig	Zmod	Zphz	Idc	Vdc	IERange	Imod	Vmod	Temp
	#	s	Hz	ohm	ohm	V	ohm	°	A	V	#	A	V	°C
	0	5	100078.1	0.0999051	0.2370438	1	0.2572369	67.14641	3.034458E-005	3.501248	11	0.1596681	0.0407735	-327.6853
	1	7	79453.13	0.0840426	0.1966788	1	0.2138825	66.86256	1.541339E-005	3.50124	11	0.164279	0.034974	-327.6853
	2	9	63140.62	0.0715668	0.1627576	1	0.1777972	66.26424	-1.422828E-006	3.501222	11	0.1619927	0.028717	-327.6853
	3	10	50203.12	0.0618767	0.1343216	1	0.1478885	65.26634	-1.531362E-005	3.501227	11	0.1609444	0.0237571	-327.6853
	4	12	39890.62	0.0544092	0.1105235	1	0.1231901	63.78963	-2.416538E-005	3.501209	11	0.1602759	0.0197208	-327.6853
	5	14	31640.63	0.048652	0.0906921	1	0.1029178	61.78856	-2.820557E-005	3.5012	11	0.1598568	0.0164397	-327.6853
	6	16	25171.88	0.0442518	0.0746286	1	0.0867621	59.33376	-2.850255E-005	3.501195	11	0.1595477	0.013836	-327.6853
	7	17	20015.62	0.0407085	0.0614405	1	0.0737029	56.47287	-1.982914E-005	3.501182	11	0.1593587	0.0117416	-327.6853
	8	19	15890.62	0.0377671	0.0505435	1	0.0630952	53.23222	-1.889991E-005	3.501179	11	0.159229	0.0100447	-327.6853
	9	21	12609.38	0.0352792	0.0415074	1	0.0544747	49.63713	-2.278225E-005	3.501182	11	0.1591454	0.0086684	-327.6853
	10	22	10078.13	0.0332748	0.0341675	1	0.0476931	45.75836	-2.19075E-005	3.50117	11	0.1590845	0.0075867	-327.6853
	11	24	8015.625	0.031621	0.0278105	1	0.0421107	41.33149	-1.953298E-005	3.501154	11	0.1590548	0.0066976	-327.6853
	12	26	6328.125	0.0303409	0.0222849	1	0.0376455	36.29673	-2.253245E-005	3.501146	11	0.1590298	0.0059866	-327.6853
	13	27	5015.625	0.0294603	0.0177324	1	0.0343853	31.04408	-2.356479E-005	3.50115	11	0.1590172	0.0054677	-327.6853
	14	29	3984.375	0.0288762	0.0139795	1	0.0320821	25.83247	-2.617377E-005	3.501144	11	0.1590073	0.0051012	-327.6853
	15	30	3170.956	0.0285334	0.0108879	1	0.0305401	20.88604	-2.095522E-005	3.501139	11	0.1590081	0.0048561	-327.6853
	16	32	2527.573	0.0283868	0.0083851	1	0.0295993	16.45656	-3.20804E-005	3.501128	11	0.1590049	0.0047064	-327.6853
	17	33	1976.103	0.0283905	0.0061486	1	0.0290487	12.21988	-3.247079E-005	3.501122	11	0.159001	0.0046188	-327.6853
	18	35	1577.524	0.028472	0.0045152	1	0.0288278	9.011095	-1.729035E-005	3.501109	11	0.1590004	0.0045836	-327.6853
	19	37	1265.625	0.0286341	0.0032559	1	0.0288186	6.487051	-1.804845E-005	3.501115	11	0.1590071	0.0045824	-327.6853
	20	38	998.264	0.0288566	0.0020381	1	0.0289284	4.039917	-3.182224E-005	3.501102	11	0.158992	0.0045994	-327.6853
	21	40	796.875	0.029095	0.0012058	1	0.02912	2.373252	-1.929875E-005	3.5011	11	0.1589989	0.00463	-327.6853
	22	41	627.7902	0.0293791	0.0004684	1	0.0293829	0.9133978	-2.527796E-005	3.501095	11	0.159006	0.0046721	-327.6853
	23	43	505.5147	0.0296806	-0.0001184	1	0.0296809	-0.2286017	-1.837627E-005	3.501091	11	0.157595	0.0046516	-327.6853
	24	44	397.9953	0.0300207	-0.0005881	1	0.0300264	-1.122306	-2.371299E-005	3.501086	11	0.1606019	0.0048025	-327.6853
	25	46	315.5048	0.0303548	-0.0009667	1	0.0303702	-1.824085	-2.408074E-005	3.501079	11	0.1593413	0.0048256	-327.6853
	26	47	252.4038	0.0306794	-0.0012716	1	0.0307058	-2.373452	-2.176635E-005	3.501078	11	0.1589657	0.0048719	-327.6853
	27	49	198.6229	0.0310297	-0.0015392	1	0.0310678	-2.839782	-2.30947E-005	3.501074	11	0.1588829	0.0049302	-327.6853
	28	50	158.3615	0.0313735	-0.001752	1	0.0314224	-3.196236	-2.183311E-005	3.501072	11	0.158889	0.0049888	-327.6853
	29	52	125.558	0.0317336	-0.001938	1	0.0317927	-3.494748	-1.383526E-005	3.501065	11	0.1589106	0.0050497	-327.6853
	30	53	100.4464	0.032091	-0.0020825	1	0.0321585	-3.712916	-1.545111E-005	3.501063	11	0.1589447	0.0051098	-327.6853
	31	55	79.00281	0.0324785	-0.0022192	1	0.0325542	-3.908772	-1.598522E-005	3.501054	11	0.1589523	0.0051735	-327.6853
	32	57	63.3446	0.0328474	-0.0023241	1	0.0329296	-4.047139	-1.971924E-005	3.501046	11	0.1589784	0.0052344	-327.6853
	33	58	50.22321	0.0332354	-0.0024243	1	0.0333237	-4.171912	-1.66531E-005	3.501043	11	0.1589803	0.0052974	-327.6853
	34	60	38.42213	0.0337082	-0.002513	1	0.0338018	-4.263593	-2.587843E-005	3.501045	11	0.1589889	0.0053739	-327.6853
	35	61	31.25	0.0340726	-0.0025724	1	0.0341695	-4.317567	-5.777692E-006	3.501028	11	0.1589919	0.0054325	-327.6853
	36	63	24.93351	0.034494	-0.0026286	1	0.034594	-4.357852	-2.02615E-005	3.50103	11	0.1589967	0.0055002	-327.6853
	37	65	19.86229	0.0349237	-0.002661	1	0.0350249	-4.357222	-8.486328E-006	3.501013	11	0.1589899	0.0055685	-327.6853
	38	66	15.625	0.0353915	-0.0026902	1	0.0354936	-4.346807	-3.739656E-005	3.501024	11	0.1589882	0.005643	-327.6853
	39	68	12.40079	0.0358502	-0.0026661	1	0.0359492	-4.253155	-4.375365E-005	3.501002	11	0.158996	0.0057157	-327.6853
	40	69	9.93114	0.0362946	-0.0026206	1	0.0363891	-4.129754	-4.977069E-005	3.500993	11	0.1589967	0.0057857	-327.6853
	41	71	7.944915	0.036725	-0.0025362	1	0.0368125	-3.950587	3.251364E-006	3.500995	11	0.1590098	0.0058535	-327.6853
	42	72	6.317385	0.0371416	-0.0024142	1	0.03722	-3.71894	-7.765216E-005	3.500967	11	0.1589846	0.0059174	-327.6853
	43	75	5.008013	0.0375168	-0.0022625	1	0.037585	-3.451057	3.936235E-006	3.500953	11	0.1590256	0.005977	-327.6853
	44	77	3.945707	0.0378642	-0.002093	1	0.037922	-3.163844	-3.323134E-005	3.500953	11	0.158996	0.0060294	-327.6853
	45	80	3.158693	0.0381339	-0.0019376	1	0.0381831	-2.908719	2.498034E-005	3.500933	11	0.1590159	0.0060717	-327.6853
	46	83	2.504006	0.0383854	-0.0017894	1	0.0384271	-2.668991	3.0622E-005	3.500902	11	0.1553796	0.005946	-327.6853
	47	86	1.998082	0.0385969	-0.0016718	1	0.0386331	-2.48011	-0.000144	3.500864	11	0.1613919	0.0062163	-327.6853
	48	90	1.584686	0.0387778	-0.0015703	1	0.0388096	-2.318854	-0.0003222	3.500851	11	0.1600419	0.0061985	-327.6853
	49	94	1.266892	0.0389489	-0.0015091	1	0.0389781	-2.218794	0.0001826	3.500896	11	0.1592321	0.0061982	-327.6853
	50	99	0.999041	0.0391217	-0.0014675	1	0.0391492	-2.148242	0.0001304	3.500901	11	0.1590332	0.0062207	-327.6853
	51	104	0.7923428	0.0392925	-0.0014325	1	0.0393186	-2.087959	-4.787918E-005	3.5009	11	0.1592503	0.0062581	-327.6853
	52	111	0.6334459	0.0394451	-0.0014432	1	0.0394715	-2.095443	-3.738355E-005	3.50087	11	0.1589837	0.0062731	-327.6853
	53	120	0.5040323	0.0396109	-0.0014622	1	0.0396379	-2.114015	-4.097345E-005	3.500849	11	0.1589809	0.0063003	-327.6853
	54	130	0.400641	0.0397785	-0.0015103	1	0.0398071	-2.174322	-4.423707E-005	3.500823	11	0.1589858	0.0063279	-327.6853
	55	141	0.316723	0.0399397	-0.0015861	1	0.0399712	-2.274183	-4.071351E-005	3.500782	11	0.1589915	0.0063545	-327.6853
	56	159	0.2520161	0.0401222	-0.0016818	1	0.0401575	-2.400255	-4.080786E-005	3.500739	11	0.1589935	0.0063844	-327.6853
	57	176	0.2003205	0.0402985	-0.0018087	1	0.040339	-2.56981	-4.177562E-005	3.500694	11	0.1589952	0.0064135	-327.6853
	58	197	0.1588983	0.0404896	-0.0019715	1	0.0405376	-2.787621	-3.950723E-005	3.500636	11	0.1589979	0.0064452	-327.6853
	59	223	0.1260081	0.0407203	-0.0021758	1	0.0407784	-3.058601	-3.956557E-005	3.500671	11	0.1589993	0.0064836	-327.6853
	60	253	0.1001603	0.0409906	-0.0024178	1	0.0410618	-3.375684	-4.195912E-005	3.500805	11	0.1589995	0.0065288	-327.6853
	61	289	0.0794492	0.0412508	-0.0027299	1	0.041341	-3.786231	-3.984814E-005	3.50089	11	0.1589994	0.0065732	-327.6853
	62	341	0.0631739	0.0414836	-0.0031038	1	0.0415996	-4.278916	-3.889939E-005	3.50064	11	0.1589989	0.0066143	-327.6853
	63	390	0.0501337	0.0417723	-0.0035568	1	0.0419235	-4.866899	-4.13709E-005	3.500452	11	0.1590009	0.0066659	-327.6853
	64	471	0.0398258	0.0421096	-0.0040876	1	0.0423076	-5.544292	-4.038594E-005	3.500278	11	0.158999	0.0067268	-327.6853
	65	548	0.0316296	0.0425081	-0.0047409	1	0.0427717	-6.36383	-4.054777E-005	3.500134	11	0.1589993	0.0068007	-327.6853
	66	645	0.0251206	0.0429558	-0.0055126	1	0.0433081	-7.31288	-3.997401E-005	3.499959	11	0.1590005	0.006886	-327.6853
	67	766	0.0199553	0.0434772	-0.006447	1	0.0439526	-8.434593	-3.88512E-005	3.499738	11	0.1589996	0.0069884	-327.6853
	68	968	0.0158522	0.0441108	-0.0075575	1	0.0447535	-9.72208	-4.114198E-005	3.499539	11	0.1589994	0.0071158	-327.6853
	69	1158	0.0125907	0.044891	-0.0088999	1	0.0457648	-11.21378	-3.98416E-005	3.499329	11	0.1590002	0.0072766	-327.6853
	70	1478	0.0100011	0.0458755	-0.0104318	1	0.0470466	-12.81084	-4.171721E-005	3.499082	11	0.1590007	0.0074804	-327.6853
