EXPLAIN
TAG	GALVEIS
TITLE	LABEL	Galvanostatic EIS	Test Identifier
DATE	LABEL	24.5.2024	Date
TIME	LABEL	17:07:25	Time
NOTES	NOTES	1	Notes...
	
PSTAT	PSTAT	REF600-12055	Potentiostat
FREQINIT	QUANT	1.00000E+005	Initial Freq. (Hz)
FREQFINAL	QUANT	1.00000E-002	Final Freq. (Hz)
PTSPERDEC	QUANT	1.00000E+001	Points/decade
IACREQ	QUANT	1.59000E-001	AC Current (A rms)
IDCREQ	QUANT	0.00000E+000	DC Current (A)
AREA	QUANT	1.00000E+000	Sample Area (cm^2)
SPEED	SELECTOR	1	Optimize for:
DRIFTCOR	SELECTOR	0	Drift Correction
THD	SELECTOR	0	THD
ZGUESS	QUANT	1.00000E-001	Estimated Z (ohms)
EOC	QUANT	3.820982	Open Circuit (V)
SEQUENCER	TOGGLE	TRUE	Run as Sequence
PSTATMODEL	IQUANT	4	Pstat Model
PSTATSECTION	LABEL	REF600-12055	Pstat Section
PSTATSERIALNO	LABEL	12055	Pstat Serial Number
CTRLMODE	IQUANT	0	Control Mode
ELECTROMETER	IQUANT	0	RE=0 or CS=1
IESTAB	IQUANT	0	I/E Stability
CASPEED	IQUANT	4	Control Amp Speed
CONVENTION	IQUANT	1	Current Convention
ICHRANGE	IQUANT	2	Ich Range
ICHRANGEMODE	TOGGLE	F	Ich Auto Range
ICHOFFSETENABLE	TOGGLE	T	Ich Offset Enable
ICHOFFSET	QUANT	0	Ich Offset (V)
ICHFILTER	IQUANT	3	Ich Filter
VCHRANGE	IQUANT	2	Vch Range
VCHRANGEMODE	TOGGLE	F	Vch Auto Range
VCHOFFSETENABLE	TOGGLE	T	Vch Offset Enable
VCHOFFSET	QUANT	0	Vch Offset (V)
VCHFILTER	IQUANT	3	Vch Filter
ACHRANGE	IQUANT	2	Ach Range
ACHOFFSETENABLE	TOGGLE	F	Ach Offset Enable
ACHOFFSET	QUANT	0	Ach Offset (V)
ACHFILTER	IQUANT	1	Ach Filter
IERANGELOWERLIMIT	IQUANT	1	I/E Range Lower Limit
IERANGEMODE	TOGGLE	F	I/E AutoRange
IERANGE	IQUANT	7	I/E Range
POSFEEDENABLE	TOGGLE	F	Positive Feedback IR Comp
POSFEEDRESISTANCE	QUANT	0	Positive Feedback Resistance (ohm)
ACHSELECT	IQUANT	4	Ach Select
SENSECABLEID	IQUANT	14	Sense Cable ID
PWRCABLEID	IQUANT	14	Power Cable ID
DCCALDATE	LABEL	2/12/2024	DC Calibration Date
ACCALDATE	LABEL	2/12/2024	AC Calibration Date
THERMOSELECT	IQUANT	1	Thermo Select
FRAMEWORKVERSION	LABEL	7.10.3	Framework Version
INSTRUMENTVERSION	LABEL	4.91	Instrument Version
COMMVERSION	LABEL	2.24	Communications Version
CPUPLDVERSION	LABEL	0.00	CPU PLD Version
CTRLPLDVERSION	LABEL	0.00	CTRL PLD Version
PSTATPLDVERSION	LABEL	0.00	PSTAT PLD Version
ZCURVE	TABLE
	Pt	Time	Freq	Zreal	Zimag	Zsig	Zmod	Zphz	Idc	Vdc	IERange	Imod	Vmod	Temp
	#	s	Hz	ohm	ohm	V	ohm	°	A	V	#	A	V	°C
	0	5	100078.1	0.0998686	0.2363071	1	0.256544	67.09001	2.834387E-005	3.821004	11	0.1596757	0.0406656	-327.6853
	1	7	79453.13	0.0839438	0.196126	1	0.2133354	66.82862	1.67422E-005	3.820998	11	0.1642836	0.0348855	-327.6853
	2	8	63140.62	0.0714327	0.1623404	1	0.1773613	66.24966	-1.179986E-006	3.820983	11	0.1620005	0.028648	-327.6853
	3	10	50203.12	0.0617038	0.1340078	1	0.1475312	65.27634	-1.172099E-006	3.820982	11	0.1609503	0.0237006	-327.6853
	4	12	39890.62	0.0542224	0.1102828	1	0.1228916	63.8182	-1.396961E-005	3.820976	11	0.1603014	0.0196762	-327.6853
	5	13	31640.63	0.0484466	0.0905046	1	0.1026556	61.84013	-1.457171E-005	3.820954	11	0.1598494	0.016397	-327.6853
	6	15	25171.88	0.0440266	0.0744801	1	0.0865195	59.41188	-1.782956E-005	3.820941	11	0.1595629	0.0137987	-327.6853
	7	17	20015.62	0.0404801	0.0613301	1	0.0734848	56.57374	-2.168915E-005	3.820929	11	0.1593572	0.0117068	-327.6853
	8	19	15890.62	0.0375437	0.0504694	1	0.0629023	53.35479	-1.7407E-005	3.820937	11	0.1592349	0.0100143	-327.6853
	9	20	12609.38	0.0350546	0.0414427	1	0.05428	49.77356	-1.449347E-005	3.820925	11	0.1591415	0.0086372	-327.6853
	10	22	10078.13	0.0330455	0.0341204	1	0.0474996	45.91691	-1.882925E-005	3.820909	11	0.159087	0.007556	-327.6853
	11	23	8015.625	0.0313996	0.0277845	1	0.0419275	41.50452	-2.18451E-005	3.820908	11	0.1590561	0.0066685	-327.6853
	12	25	6328.125	0.0301122	0.0222656	1	0.03745	36.48004	-2.273195E-005	3.820896	11	0.1590316	0.0059555	-327.6853
	13	27	5015.625	0.0292219	0.0177318	1	0.034181	31.24928	-1.80098E-005	3.820884	11	0.1590166	0.0054352	-327.6853
	14	28	3984.375	0.0286412	0.0139963	1	0.0318781	26.04363	-3.097072E-005	3.820878	11	0.1590132	0.005069	-327.6853
	15	30	3170.956	0.0282992	0.0109252	1	0.0303349	21.1096	-2.931419E-005	3.820868	11	0.1590056	0.0048234	-327.6853
	16	31	2527.573	0.0281497	0.0084641	1	0.0293946	16.73514	-2.829102E-005	3.820862	11	0.1590033	0.0046738	-327.6853
	17	33	1976.103	0.0281391	0.0061948	1	0.0288129	12.4156	-3.30566E-005	3.820845	11	0.1589977	0.0045812	-327.6853
	18	35	1577.524	0.0282226	0.0045701	1	0.0285902	9.198128	-1.767359E-005	3.820839	11	0.159004	0.004546	-327.6853
	19	36	1265.625	0.0283645	0.0032898	1	0.0285547	6.615848	-1.829234E-005	3.820837	11	0.1589972	0.0045401	-327.6853
	20	38	998.264	0.0285672	0.0021684	1	0.0286493	4.340667	-1.656252E-005	3.820828	11	0.1590036	0.0045553	-327.6853
	21	40	796.875	0.0287954	0.0013151	1	0.0288254	2.61487	-1.950166E-005	3.820814	11	0.1589968	0.0045831	-327.6853
	22	41	627.7902	0.0290593	0.0006494	1	0.0290665	1.280266	-2.171902E-005	3.820814	11	0.1590039	0.0046217	-327.6853
	23	43	505.5147	0.0293305	9.479325E-005	1	0.0293307	0.1851736	-1.928239E-005	3.820811	11	0.1575987	0.0045968	-327.6853
	24	44	397.9953	0.0296359	-0.0003554	1	0.029638	-0.6869986	-1.760025E-005	3.820799	11	0.1606051	0.0047405	-327.6853
	25	46	315.5048	0.0299362	-0.0007095	1	0.0299446	-1.357735	-2.079923E-005	3.820795	11	0.1593376	0.0047579	-327.6853
	26	47	252.4038	0.0302265	-0.0009847	1	0.0302425	-1.865799	-2.04766E-005	3.82079	11	0.1589717	0.0047986	-327.6853
	27	49	198.6229	0.030534	-0.0012202	1	0.0305584	-2.288497	-2.127921E-005	3.820779	11	0.1588748	0.0048491	-327.6853
	28	50	158.3615	0.0308437	-0.0014038	1	0.0308756	-2.605885	-2.212235E-005	3.820774	11	0.1588873	0.0049019	-327.6853
	29	52	125.558	0.031161	-0.001552	1	0.0311996	-2.851297	-1.811935E-005	3.820764	11	0.1589164	0.0049557	-327.6853
	30	53	100.4464	0.0314703	-0.0016576	1	0.031514	-3.015174	-1.83427E-005	3.820757	11	0.1589393	0.0050072	-327.6853
	31	55	79.00281	0.0318108	-0.0017448	1	0.0318586	-3.13953	-2.043048E-005	3.820745	11	0.1589568	0.0050631	-327.6853
	32	56	63.3446	0.0321275	-0.001794	1	0.0321775	-3.196136	-1.992029E-005	3.820739	11	0.1589759	0.0051148	-327.6853
	33	58	50.22321	0.0324565	-0.0018186	1	0.0325074	-3.207021	-1.585158E-005	3.820729	11	0.1589788	0.0051676	-327.6853
	34	60	38.42213	0.032832	-0.0018159	1	0.0328822	-3.165654	-2.306048E-005	3.820724	11	0.158992	0.0052278	-327.6853
	35	61	31.25	0.0331213	-0.0017885	1	0.0331696	-3.090916	-6.085262E-006	3.820711	11	0.1589887	0.0052734	-327.6853
	36	63	24.93351	0.0334226	-0.0017432	1	0.0334681	-2.985686	-1.971162E-005	3.820709	11	0.159002	0.0053214	-327.6853
	37	64	19.86229	0.0337087	-0.0016617	1	0.0337496	-2.822244	-3.381248E-005	3.820688	11	0.1589859	0.0053656	-327.6853
	38	66	15.625	0.0339744	-0.001575	1	0.0340109	-2.654227	-3.661204E-005	3.820698	11	0.1589919	0.0054074	-327.6853
	39	67	12.40079	0.0342142	-0.0014778	1	0.0342461	-2.473233	-3.239396E-005	3.820688	11	0.1590022	0.0054452	-327.6853
	40	68	9.93114	0.0344134	-0.0013824	1	0.0344412	-2.300415	-2.972559E-005	3.820682	11	0.1590042	0.0054763	-327.6853
	41	70	7.944915	0.0345764	-0.00129	1	0.0346004	-2.136603	-4.154863E-007	3.820659	11	0.1590006	0.0055015	-327.6853
	42	72	6.317385	0.0347339	-0.001213	1	0.0347551	-2.00015	-4.069126E-005	3.820634	11	0.158961	0.0055247	-327.6853
	43	74	5.008013	0.0348806	-0.0011525	1	0.0348996	-1.892428	3.387965E-005	3.820619	11	0.1590093	0.0055494	-327.6853
	44	76	3.945707	0.03501	-0.0011081	1	0.0350275	-1.812892	8.614501E-006	3.820605	11	0.1590117	0.0055698	-327.6853
	45	79	3.158693	0.0351247	-0.0010864	1	0.0351415	-1.771515	8.361437E-005	3.820578	11	0.1589666	0.0055863	-327.6853
	46	82	2.504006	0.0352454	-0.0010709	1	0.0352616	-1.740332	-2.20411E-005	3.820552	11	0.1554789	0.0054596	-327.6853
	47	86	1.998082	0.035361	-0.0010897	1	0.0353778	-1.765077	0.0001751	3.820557	11	0.1614188	0.0056934	-327.6853
	48	89	1.584686	0.0354866	-0.0011278	1	0.0355046	-1.820323	3.945408E-005	3.820537	11	0.159804	0.0056622	-327.6853
	49	93	1.266892	0.0356181	-0.0011721	1	0.0356373	-1.884754	-0.0001484	3.820579	11	0.159335	0.0056706	-327.6853
	50	98	0.999041	0.0357505	-0.0012466	1	0.0357723	-1.997078	-0.000196	3.820537	11	0.1591175	0.0056871	-327.6853
	51	104	0.7923428	0.0359213	-0.0013456	1	0.0359465	-2.145345	-4.301299E-005	3.820532	11	0.1592507	0.0057214	-327.6853
	52	110	0.6334459	0.0360842	-0.0014547	1	0.0361135	-2.308554	-4.028628E-005	3.820497	11	0.1589833	0.0057394	-327.6853
	53	118	0.5040323	0.0362585	-0.0015789	1	0.0362928	-2.493352	-3.929069E-005	3.820451	11	0.1589823	0.0057686	-327.6853
	54	129	0.400641	0.0364439	-0.0017303	1	0.036485	-2.718285	-3.9441E-005	3.820401	11	0.1589861	0.0057998	-327.6853
	55	144	0.316723	0.0366693	-0.0019071	1	0.0367189	-2.977131	-4.42389E-005	3.820352	11	0.158989	0.0058374	-327.6853
	56	158	0.2520161	0.0368987	-0.0021036	1	0.0369587	-3.262874	-4.559134E-005	3.820277	11	0.158995	0.0058759	-327.6853
	57	179	0.2003205	0.0371598	-0.0023315	1	0.0372329	-3.590249	-3.983607E-005	3.82018	11	0.1589961	0.0059197	-327.6853
	58	205	0.1588983	0.0374609	-0.0025919	1	0.0375504	-3.957924	-4.183348E-005	3.820078	11	0.1589949	0.0059702	-327.6853
	59	231	0.1260081	0.0378036	-0.0028822	1	0.0379133	-4.35991	-3.793465E-005	3.820087	11	0.1590003	0.0060281	-327.6853
	60	261	0.1001603	0.0382149	-0.0032063	1	0.0383492	-4.795921	-4.158173E-005	3.820198	11	0.158998	0.0060974	-327.6853
	61	297	0.0794492	0.038629	-0.0035932	1	0.0387957	-5.314276	-4.087149E-005	3.820217	11	0.1590006	0.0061685	-327.6853
	62	349	0.0631739	0.0389686	-0.0040293	1	0.0391764	-5.903283	-4.195246E-005	3.81985	11	0.1589988	0.006229	-327.6853
	63	414	0.0501337	0.0394259	-0.0045349	1	0.0396859	-6.561485	-3.744391E-005	3.819602	11	0.1590005	0.0063101	-327.6853
	64	475	0.0398258	0.0399373	-0.0051175	1	0.0402639	-7.302004	-3.870232E-005	3.819396	11	0.1589996	0.0064019	-327.6853
	65	552	0.0316296	0.0404945	-0.0058055	1	0.0409085	-8.158673	-4.051592E-005	3.819142	11	0.1590003	0.0065045	-327.6853
	66	649	0.0251206	0.0411052	-0.006634	1	0.041637	-9.167918	-3.957165E-005	3.818815	11	0.1589998	0.0066203	-327.6853
	67	809	0.0199553	0.0418078	-0.0076158	1	0.0424957	-10.32394	-4.09375E-005	3.818487	11	0.159001	0.0067569	-327.6853
	68	961	0.0158522	0.0425888	-0.0087958	1	0.0434876	-11.66909	-4.092513E-005	3.818101	11	0.1590002	0.0069145	-327.6853
	69	1215	0.0125907	0.0435283	-0.0102058	1	0.0447087	-13.19542	-4.100896E-005	3.817676	11	0.159	0.0071087	-327.6853
	70	1534	0.0100011	0.0446637	-0.0118412	1	0.0462067	-14.84854	-4.031605E-005	3.817328	11	0.1589998	0.0073469	-327.6853
