EXPLAIN
TAG	GALVEIS
TITLE	LABEL	Galvanostatic EIS	Test Identifier
DATE	LABEL	24.5.2024	Date
TIME	LABEL	18:29:04	Time
NOTES	NOTES	1	Notes...
	
PSTAT	PSTAT	REF600-12055	Potentiostat
FREQINIT	QUANT	1.00000E+005	Initial Freq. (Hz)
FREQFINAL	QUANT	1.00000E-002	Final Freq. (Hz)
PTSPERDEC	QUANT	1.00000E+001	Points/decade
IACREQ	QUANT	1.59000E-001	AC Current (A rms)
IDCREQ	QUANT	0.00000E+000	DC Current (A)
AREA	QUANT	1.00000E+000	Sample Area (cm^2)
SPEED	SELECTOR	1	Optimize for:
DRIFTCOR	SELECTOR	0	Drift Correction
THD	SELECTOR	0	THD
ZGUESS	QUANT	1.00000E-001	Estimated Z (ohms)
EOC	QUANT	3.907463	Open Circuit (V)
SEQUENCER	TOGGLE	TRUE	Run as Sequence
PSTATMODEL	IQUANT	4	Pstat Model
PSTATSECTION	LABEL	REF600-12055	Pstat Section
PSTATSERIALNO	LABEL	12055	Pstat Serial Number
CTRLMODE	IQUANT	0	Control Mode
ELECTROMETER	IQUANT	0	RE=0 or CS=1
IESTAB	IQUANT	0	I/E Stability
CASPEED	IQUANT	4	Control Amp Speed
CONVENTION	IQUANT	1	Current Convention
ICHRANGE	IQUANT	2	Ich Range
ICHRANGEMODE	TOGGLE	F	Ich Auto Range
ICHOFFSETENABLE	TOGGLE	T	Ich Offset Enable
ICHOFFSET	QUANT	0	Ich Offset (V)
ICHFILTER	IQUANT	3	Ich Filter
VCHRANGE	IQUANT	2	Vch Range
VCHRANGEMODE	TOGGLE	F	Vch Auto Range
VCHOFFSETENABLE	TOGGLE	T	Vch Offset Enable
VCHOFFSET	QUANT	0	Vch Offset (V)
VCHFILTER	IQUANT	3	Vch Filter
ACHRANGE	IQUANT	2	Ach Range
ACHOFFSETENABLE	TOGGLE	F	Ach Offset Enable
ACHOFFSET	QUANT	0	Ach Offset (V)
ACHFILTER	IQUANT	1	Ach Filter
IERANGELOWERLIMIT	IQUANT	1	I/E Range Lower Limit
IERANGEMODE	TOGGLE	F	I/E AutoRange
IERANGE	IQUANT	7	I/E Range
POSFEEDENABLE	TOGGLE	F	Positive Feedback IR Comp
POSFEEDRESISTANCE	QUANT	0	Positive Feedback Resistance (ohm)
ACHSELECT	IQUANT	4	Ach Select
SENSECABLEID	IQUANT	14	Sense Cable ID
PWRCABLEID	IQUANT	14	Power Cable ID
DCCALDATE	LABEL	2/12/2024	DC Calibration Date
ACCALDATE	LABEL	2/12/2024	AC Calibration Date
THERMOSELECT	IQUANT	1	Thermo Select
FRAMEWORKVERSION	LABEL	7.10.3	Framework Version
INSTRUMENTVERSION	LABEL	4.91	Instrument Version
COMMVERSION	LABEL	2.24	Communications Version
CPUPLDVERSION	LABEL	0.00	CPU PLD Version
CTRLPLDVERSION	LABEL	0.00	CTRL PLD Version
PSTATPLDVERSION	LABEL	0.00	PSTAT PLD Version
ZCURVE	TABLE
	Pt	Time	Freq	Zreal	Zimag	Zsig	Zmod	Zphz	Idc	Vdc	IERange	Imod	Vmod	Temp
	#	s	Hz	ohm	ohm	V	ohm	°	A	V	#	A	V	°C
	0	5	100078.1	0.0997964	0.2362073	1	0.2564238	67.09619	2.212496E-005	3.907458	11	0.159685	0.040649	-327.6853
	1	6	79453.13	0.0838767	0.1960463	1	0.2132357	66.83677	1.615845E-006	3.907444	11	0.1642984	0.0348723	-327.6853
	2	8	63140.62	0.0713758	0.1622865	1	0.1772891	66.25948	-1.140754E-005	3.907439	11	0.1619823	0.0286331	-327.6853
	3	10	50203.12	0.0616475	0.1339496	1	0.1474548	65.28672	-1.094537E-006	3.907447	11	0.1609677	0.0236909	-327.6853
	4	12	39890.62	0.0541657	0.1102284	1	0.1228178	63.83072	-5.602604E-006	3.907443	11	0.1602735	0.0196609	-327.6853
	5	13	31640.63	0.0484041	0.0904521	1	0.1025892	61.8472	-9.461335E-006	3.90743	11	0.1598576	0.0163873	-327.6853
	6	15	25171.88	0.0439852	0.0744414	1	0.0864651	59.42242	-1.079091E-005	3.907423	11	0.159557	0.0137895	-327.6853
	7	17	20015.62	0.0404536	0.061297	1	0.0734426	56.57679	-1.33448E-005	3.907418	11	0.1593579	0.0117001	-327.6853
	8	18	15890.62	0.0375133	0.0504301	1	0.0628525	53.35565	-2.746284E-005	3.907413	11	0.1592296	0.0100061	-327.6853
	9	20	12609.38	0.035036	0.041421	1	0.0542514	49.77376	-1.381431E-005	3.907415	11	0.1591478	0.008633	-327.6853
	10	22	10078.13	0.0330288	0.0340874	1	0.0474642	45.90364	-1.645472E-005	3.90741	11	0.1590869	0.0075503	-327.6853
	11	23	8015.625	0.0313839	0.0277556	1	0.0418966	41.4892	-1.475911E-005	3.907406	11	0.1590506	0.0066634	-327.6853
	12	25	6328.125	0.0300959	0.0222522	1	0.0374289	36.47828	-1.532387E-005	3.907401	11	0.1590369	0.0059524	-327.6853
	13	27	5015.625	0.0292049	0.0177298	1	0.0341654	31.26124	-2.05799E-005	3.907387	11	0.1590156	0.0054327	-327.6853
	14	28	3984.375	0.0286311	0.0139772	1	0.0318607	26.02075	-1.648577E-005	3.907389	11	0.1590042	0.0050659	-327.6853
	15	30	3170.956	0.0282877	0.0109384	1	0.0303289	21.14069	-1.523568E-005	3.907392	11	0.1590093	0.0048225	-327.6853
	16	31	2527.573	0.0281469	0.0084569	1	0.0293899	16.72326	-2.140645E-005	3.907379	11	0.159003	0.0046731	-327.6853
	17	33	1976.103	0.0281387	0.0061948	1	0.0288126	12.41574	-3.059593E-005	3.907367	11	0.1590024	0.0045813	-327.6853
	18	35	1577.524	0.0282197	0.0045701	1	0.0285873	9.198965	-1.980667E-005	3.907367	11	0.1590042	0.0045455	-327.6853
	19	36	1265.625	0.0283588	0.0033782	1	0.0285593	6.793173	-1.970452E-005	3.907369	11	0.1589992	0.0045409	-327.6853
	20	38	998.264	0.0285692	0.0021853	1	0.0286527	4.374098	-1.817674E-005	3.907369	11	0.1589965	0.0045557	-327.6853
	21	39	796.875	0.0288197	0.001372	1	0.0288523	2.725562	-1.893961E-005	3.907364	11	0.159009	0.0045878	-327.6853
	22	41	627.7902	0.0290763	0.0007004	1	0.0290847	1.379833	-1.684122E-005	3.907363	11	0.1590007	0.0046245	-327.6853
	23	42	505.5147	0.0293119	0.0001273	1	0.0293122	0.2487916	-1.798652E-005	3.907358	11	0.1575919	0.0045937	-327.6853
	24	44	397.9953	0.0296135	-0.0003168	1	0.0296152	-0.6129462	-2.032606E-005	3.907351	11	0.1606048	0.0047368	-327.6853
	25	45	315.5048	0.0299098	-0.0006694	1	0.0299173	-1.282159	-2.06586E-005	3.907346	11	0.1593359	0.0047535	-327.6853
	26	47	252.4038	0.0301895	-0.0009365	1	0.030204	-1.776749	-2.196478E-005	3.907346	11	0.158969	0.0047924	-327.6853
	27	48	198.6229	0.0304965	-0.0011783	1	0.0305193	-2.212626	-2.012099E-005	3.907339	11	0.1588783	0.004843	-327.6853
	28	50	158.3615	0.0307913	-0.0013568	1	0.0308212	-2.523007	-2.061948E-005	3.907336	11	0.1588909	0.0048934	-327.6853
	29	52	125.558	0.0310983	-0.0015007	1	0.0311345	-2.762836	-2.26369E-005	3.907334	11	0.1589083	0.0049451	-327.6853
	30	53	100.4464	0.0314039	-0.0016105	1	0.0314452	-2.935791	-2.210203E-005	3.907326	11	0.1589467	0.0049965	-327.6853
	31	55	79.00281	0.0317303	-0.0016982	1	0.0317757	-3.063483	-3.275968E-005	3.90732	11	0.1589561	0.0050499	-327.6853
	32	56	63.3446	0.0320383	-0.0017476	1	0.032086	-3.122205	-2.114114E-005	3.907318	11	0.1589759	0.0051002	-327.6853
	33	58	50.22321	0.0323586	-0.0017766	1	0.0324074	-3.14251	-2.606201E-005	3.907314	11	0.1589776	0.0051516	-327.6853
	34	60	38.42213	0.0327275	-0.0017776	1	0.0327757	-3.108939	-1.409708E-005	3.907305	11	0.1589916	0.0052108	-327.6853
	35	61	31.25	0.0330123	-0.0017541	1	0.0330589	-3.041457	-3.464974E-005	3.907306	11	0.1589864	0.0052557	-327.6853
	36	63	24.93351	0.0333085	-0.0017069	1	0.0333522	-2.933614	-2.180773E-005	3.907292	11	0.1589983	0.0053028	-327.6853
	37	64	19.86229	0.0335817	-0.0016589	1	0.0336226	-2.828066	-4.005479E-005	3.9073	11	0.1589883	0.0053455	-327.6853
	38	66	15.625	0.0338674	-0.0015628	1	0.0339034	-2.642073	-1.107261E-005	3.907285	11	0.1589993	0.0053906	-327.6853
	39	67	12.40079	0.0340991	-0.0014584	1	0.0341303	-2.449027	-2.058136E-005	3.907273	11	0.1590006	0.0054267	-327.6853
	40	69	9.93114	0.0342971	-0.0013625	1	0.0343242	-2.274939	-1.018555E-005	3.907283	11	0.1590002	0.0054575	-327.6853
	41	71	7.944915	0.034463	-0.0012703	1	0.0344865	-2.110953	-5.078467E-005	3.907279	11	0.1589999	0.0054833	-327.6853
	42	72	6.317385	0.0346292	-0.001183	1	0.0346494	-1.956597	-4.763019E-005	3.907288	11	0.1589639	0.005508	-327.6853
	43	74	5.008013	0.0347659	-0.0011225	1	0.034784	-1.849362	-8.62031E-005	3.907294	11	0.1590121	0.0055311	-327.6853
	44	77	3.945707	0.0348952	-0.0010667	1	0.0349115	-1.750954	1.239486E-005	3.907274	11	0.1590062	0.0055511	-327.6853
	45	79	3.158693	0.0350198	-0.0010278	1	0.0350349	-1.68107	1.334416E-005	3.907262	11	0.1590322	0.0055717	-327.6853
	46	82	2.504006	0.0351327	-0.0010166	1	0.0351474	-1.657455	-7.536449E-005	3.907258	11	0.15539	0.0054388	-327.6853
	47	85	1.998082	0.0352427	-0.0010217	1	0.0352575	-1.660588	0.0002526	3.907284	11	0.1615274	0.0056779	-327.6853
	48	89	1.584686	0.0353504	-0.0010265	1	0.0353653	-1.663294	0.0002739	3.907263	11	0.1599022	0.0056435	-327.6853
	49	93	1.266892	0.0354639	-0.0010504	1	0.0354794	-1.696574	-0.0002933	3.907247	11	0.1593091	0.0056446	-327.6853
	50	98	0.999041	0.0356066	-0.0011085	1	0.0356239	-1.783216	-0.0002881	3.907202	11	0.1590788	0.0056621	-327.6853
	51	102	0.7923428	0.0357538	-0.0011645	1	0.0357728	-1.865437	-3.934596E-005	3.907231	11	0.1591335	0.0056895	-327.6853
	52	110	0.6334459	0.0358993	-0.0012369	1	0.0359206	-1.973345	-4.074926E-005	3.907205	11	0.1589831	0.0057088	-327.6853
	53	119	0.5040323	0.0360448	-0.0013313	1	0.0360694	-2.115262	-4.014117E-005	3.907177	11	0.1589824	0.0057331	-327.6853
	54	131	0.400641	0.0362209	-0.0014346	1	0.0362493	-2.268116	-3.683602E-005	3.907145	11	0.1589864	0.0057623	-327.6853
	55	145	0.316723	0.0364002	-0.0015636	1	0.0364337	-2.459686	-4.046322E-005	3.907106	11	0.1589897	0.0057921	-327.6853
	56	162	0.2520161	0.0365948	-0.0016993	1	0.0366342	-2.658715	-4.046202E-005	3.907062	11	0.1589936	0.0058243	-327.6853
	57	184	0.2003205	0.0368087	-0.0018623	1	0.0368557	-2.896309	-4.103637E-005	3.907018	11	0.1589957	0.0058597	-327.6853
	58	210	0.1588983	0.037042	-0.0020429	1	0.0370983	-3.156749	-4.321741E-005	3.906956	11	0.1589981	0.0058984	-327.6853
	59	242	0.1260081	0.0373307	-0.0022559	1	0.0373988	-3.458248	-4.403149E-005	3.906996	11	0.1589979	0.0059462	-327.6853
	60	272	0.1001603	0.0376574	-0.0024922	1	0.0377398	-3.786403	-4.088615E-005	3.907092	11	0.1589978	0.0060005	-327.6853
	61	308	0.0794492	0.0379827	-0.0027678	1	0.0380834	-4.167808	-4.124479E-005	3.907112	11	0.1590029	0.0060553	-327.6853
	62	360	0.0631739	0.0382463	-0.0030791	1	0.03837	-4.602824	-4.180955E-005	3.90686	11	0.1589968	0.0061007	-327.6853
	63	425	0.0501337	0.0386092	-0.0034422	1	0.0387624	-5.094762	-3.811227E-005	3.906698	11	0.1589997	0.0061632	-327.6853
	64	506	0.0398258	0.0390003	-0.0038629	1	0.0391911	-5.656651	-4.166193E-005	3.90656	11	0.1590006	0.0062314	-327.6853
	65	583	0.0316296	0.0394487	-0.0043665	1	0.0396896	-6.316282	-4.098496E-005	3.906429	11	0.1590003	0.0063107	-327.6853
	66	679	0.0251206	0.0399407	-0.0049456	1	0.0402457	-7.058684	-4.154003E-005	3.90628	11	0.1590008	0.0063991	-327.6853
	67	800	0.0199553	0.0404818	-0.005636	1	0.0408722	-7.925906	-4.061124E-005	3.906066	11	0.1589994	0.0064987	-327.6853
	68	1002	0.0158522	0.0411406	-0.0064435	1	0.0416421	-8.901456	-4.122395E-005	3.905855	11	0.1590012	0.0066211	-327.6853
	69	1193	0.0125907	0.0419061	-0.0073947	1	0.0425535	-10.00735	-3.89967E-005	3.905618	11	0.1589978	0.0067659	-327.6853
	70	1512	0.0100011	0.0428322	-0.008482	1	0.043664	-11.20133	-4.071062E-005	3.905314	11	0.1590004	0.0069426	-327.6853
