EXPLAIN
TAG	GALVEIS
TITLE	LABEL	Galvanostatic EIS	Test Identifier
DATE	LABEL	24.5.2024	Date
TIME	LABEL	19:53:49	Time
NOTES	NOTES	1	Notes...
	
PSTAT	PSTAT	REF600-12055	Potentiostat
FREQINIT	QUANT	1.00000E+005	Initial Freq. (Hz)
FREQFINAL	QUANT	1.00000E-002	Final Freq. (Hz)
PTSPERDEC	QUANT	1.00000E+001	Points/decade
IACREQ	QUANT	1.59000E-001	AC Current (A rms)
IDCREQ	QUANT	0.00000E+000	DC Current (A)
AREA	QUANT	1.00000E+000	Sample Area (cm^2)
SPEED	SELECTOR	1	Optimize for:
DRIFTCOR	SELECTOR	0	Drift Correction
THD	SELECTOR	0	THD
ZGUESS	QUANT	1.00000E-001	Estimated Z (ohms)
EOC	QUANT	4.005208	Open Circuit (V)
SEQUENCER	TOGGLE	TRUE	Run as Sequence
PSTATMODEL	IQUANT	4	Pstat Model
PSTATSECTION	LABEL	REF600-12055	Pstat Section
PSTATSERIALNO	LABEL	12055	Pstat Serial Number
CTRLMODE	IQUANT	0	Control Mode
ELECTROMETER	IQUANT	0	RE=0 or CS=1
IESTAB	IQUANT	0	I/E Stability
CASPEED	IQUANT	4	Control Amp Speed
CONVENTION	IQUANT	1	Current Convention
ICHRANGE	IQUANT	2	Ich Range
ICHRANGEMODE	TOGGLE	F	Ich Auto Range
ICHOFFSETENABLE	TOGGLE	T	Ich Offset Enable
ICHOFFSET	QUANT	0	Ich Offset (V)
ICHFILTER	IQUANT	3	Ich Filter
VCHRANGE	IQUANT	2	Vch Range
VCHRANGEMODE	TOGGLE	F	Vch Auto Range
VCHOFFSETENABLE	TOGGLE	T	Vch Offset Enable
VCHOFFSET	QUANT	0	Vch Offset (V)
VCHFILTER	IQUANT	3	Vch Filter
ACHRANGE	IQUANT	2	Ach Range
ACHOFFSETENABLE	TOGGLE	F	Ach Offset Enable
ACHOFFSET	QUANT	0	Ach Offset (V)
ACHFILTER	IQUANT	1	Ach Filter
IERANGELOWERLIMIT	IQUANT	1	I/E Range Lower Limit
IERANGEMODE	TOGGLE	F	I/E AutoRange
IERANGE	IQUANT	7	I/E Range
POSFEEDENABLE	TOGGLE	F	Positive Feedback IR Comp
POSFEEDRESISTANCE	QUANT	0	Positive Feedback Resistance (ohm)
ACHSELECT	IQUANT	4	Ach Select
SENSECABLEID	IQUANT	14	Sense Cable ID
PWRCABLEID	IQUANT	14	Power Cable ID
DCCALDATE	LABEL	2/12/2024	DC Calibration Date
ACCALDATE	LABEL	2/12/2024	AC Calibration Date
THERMOSELECT	IQUANT	1	Thermo Select
FRAMEWORKVERSION	LABEL	7.10.3	Framework Version
INSTRUMENTVERSION	LABEL	4.91	Instrument Version
COMMVERSION	LABEL	2.24	Communications Version
CPUPLDVERSION	LABEL	0.00	CPU PLD Version
CTRLPLDVERSION	LABEL	0.00	CTRL PLD Version
PSTATPLDVERSION	LABEL	0.00	PSTAT PLD Version
ZCURVE	TABLE
	Pt	Time	Freq	Zreal	Zimag	Zsig	Zmod	Zphz	Idc	Vdc	IERange	Imod	Vmod	Temp
	#	s	Hz	ohm	ohm	V	ohm	°	A	V	#	A	V	°C
	0	5	100078.1	0.099694	0.236096	1	0.2562816	67.10759	1.840701E-005	4.005279	11	0.1596807	0.0406253	-327.6853
	1	6	79453.13	0.0837857	0.1959517	1	0.2131129	66.84924	2.553686E-006	4.00527	11	0.1642826	0.0348489	-327.6853
	2	8	63140.62	0.0712864	0.1621903	1	0.177165	66.27339	1.009321E-007	4.005264	11	0.162008	0.0286176	-327.6853
	3	10	50203.12	0.0615848	0.1338705	1	0.1473567	65.29604	-4.848698E-007	4.005268	11	0.1609499	0.0236725	-327.6853
	4	12	39890.62	0.0541114	0.1101616	1	0.1227339	63.83974	-1.112663E-005	4.005246	11	0.1602948	0.0196501	-327.6853
	5	13	31640.63	0.0483579	0.0904039	1	0.1025248	61.85726	-1.382869E-005	4.005242	11	0.1598567	0.0163769	-327.6853
	6	15	25171.88	0.0439509	0.0743877	1	0.0864015	59.42388	-1.463457E-005	4.005231	11	0.1595559	0.0137793	-327.6853
	7	17	20015.62	0.0404199	0.0612538	1	0.073388	56.58019	-1.312606E-005	4.005232	11	0.1593638	0.0116919	-327.6853
	8	18	15890.62	0.0374861	0.0503864	1	0.0628012	53.35179	-2.64385E-005	4.005216	11	0.1592288	0.0099979	-327.6853
	9	20	12609.38	0.035003	0.0413831	1	0.0542012	49.77448	-3.031464E-005	4.005206	11	0.1591474	0.0086249	-327.6853
	10	22	10078.13	0.0330068	0.0340635	1	0.0474317	45.90262	-1.931482E-005	4.005198	11	0.1590874	0.0075452	-327.6853
	11	23	8015.625	0.0313531	0.0277394	1	0.0418628	41.5006	-1.718837E-005	4.005192	11	0.1590521	0.006658	-327.6853
	12	25	6328.125	0.0300778	0.0222269	1	0.0373993	36.46369	-1.926813E-005	4.005193	11	0.159033	0.0059475	-327.6853
	13	27	5015.625	0.0291958	0.0176943	1	0.0341392	31.21822	-1.950981E-005	4.00518	11	0.159017	0.0054286	-327.6853
	14	28	3984.375	0.0286117	0.0139642	1	0.0318376	26.01513	-1.775229E-005	4.005186	11	0.1590123	0.0050625	-327.6853
	15	30	3170.956	0.028297	0.0109281	1	0.0303338	21.11618	-1.78456E-005	4.005177	11	0.1590049	0.0048232	-327.6853
	16	31	2527.573	0.0281366	0.0083776	1	0.0293573	16.58086	-1.48773E-005	4.005171	11	0.1590021	0.0046679	-327.6853
	17	33	1976.103	0.0281386	0.0062167	1	0.0288172	12.45837	-2.582928E-005	4.005152	11	0.1590082	0.0045822	-327.6853
	18	35	1577.524	0.0282089	0.0046486	1	0.0285894	9.357753	-3.014097E-005	4.005159	11	0.1589962	0.0045456	-327.6853
	19	36	1265.625	0.0283528	0.0033065	1	0.0285449	6.651704	-1.440744E-005	4.005152	11	0.158998	0.0045386	-327.6853
	20	38	998.264	0.0285692	0.0021677	1	0.0286513	4.339014	-2.00863E-005	4.00513	11	0.1589974	0.0045555	-327.6853
	21	39	796.875	0.0288088	0.001368	1	0.0288413	2.718707	-2.00317E-005	4.005134	11	0.1590124	0.0045861	-327.6853
	22	41	627.7902	0.0290715	0.000606	1	0.0290778	1.194173	-2.111075E-005	4.005122	11	0.1589919	0.0046231	-327.6853
	23	42	505.5147	0.0293219	0.0000999	1	0.0293221	0.1951101	-1.970568E-005	4.005128	11	0.1575997	0.0045955	-327.6853
	24	44	397.9953	0.0296238	-0.000346	1	0.0296259	-0.669185	-1.833017E-005	4.00512	11	0.1606051	0.0047385	-327.6853
	25	45	315.5048	0.029918	-0.000695	1	0.0299261	-1.330792	-1.817232E-005	4.005117	11	0.1593368	0.0047549	-327.6853
	26	47	252.4038	0.0301989	-0.0009692	1	0.0302145	-1.838272	-1.981365E-005	4.005112	11	0.1589693	0.0047941	-327.6853
	27	48	198.6229	0.0305102	-0.0012075	1	0.0305341	-2.266403	-1.627929E-005	4.005103	11	0.1588737	0.0048452	-327.6853
	28	50	158.3615	0.0308069	-0.0013904	1	0.0308383	-2.584207	-1.938064E-005	4.005101	11	0.1588926	0.0048962	-327.6853
	29	51	125.558	0.031117	-0.0015416	1	0.0311552	-2.83626	-1.664186E-005	4.005098	11	0.1589099	0.0049484	-327.6853
	30	53	100.4464	0.0314182	-0.0016644	1	0.0314622	-3.032398	-1.394475E-005	4.00509	11	0.1589394	0.004999	-327.6853
	31	54	79.00281	0.0317495	-0.0017573	1	0.0317981	-3.168041	-1.848859E-005	4.005085	11	0.1589629	0.0050537	-327.6853
	32	56	63.3446	0.0320642	-0.0018321	1	0.0321165	-3.270322	-1.817469E-005	4.005075	11	0.1589695	0.0051049	-327.6853
	33	57	50.22321	0.0323894	-0.0018783	1	0.0324439	-3.318921	-1.61418E-005	4.00507	11	0.1589838	0.0051576	-327.6853
	34	59	38.42213	0.0327823	-0.0019097	1	0.0328379	-3.333906	-2.023368E-005	4.00507	11	0.1589917	0.0052207	-327.6853
	35	61	31.25	0.0330758	-0.0019082	1	0.0331308	-3.301861	-3.259163E-006	4.005053	11	0.1589879	0.0052672	-327.6853
	36	62	24.93351	0.0333977	-0.0018882	1	0.0334511	-3.235905	-2.39698E-005	4.005052	11	0.1589998	0.0053186	-327.6853
	37	64	19.86229	0.0337157	-0.0018407	1	0.0337659	-3.124982	9.663636E-007	4.005044	11	0.1589745	0.0053678	-327.6853
	38	65	15.625	0.0340357	-0.0017628	1	0.0340813	-2.964892	-9.585521E-006	4.005038	11	0.1590092	0.0054192	-327.6853
	39	67	12.40079	0.0343071	-0.0016779	1	0.0343481	-2.799963	-1.809746E-005	4.005044	11	0.1590014	0.0054614	-327.6853
	40	68	9.93114	0.0345573	-0.0015872	1	0.0345937	-2.629769	-2.695317E-005	4.005025	11	0.159002	0.0055005	-327.6853
	41	70	7.944915	0.0347832	-0.0014929	1	0.0348152	-2.457713	1.294492E-005	4.005014	11	0.1590029	0.0055357	-327.6853
	42	72	6.317385	0.0349758	-0.0013979	1	0.0350037	-2.288741	-1.020046E-005	4.004998	11	0.1589522	0.0055639	-327.6853
	43	74	5.008013	0.0351582	-0.0013066	1	0.0351825	-2.128347	-3.632117E-005	4.004985	11	0.1590504	0.0055958	-327.6853
	44	77	3.945707	0.0353223	-0.0012345	1	0.0353438	-2.001607	-6.435963E-005	4.004989	11	0.1589742	0.0056188	-327.6853
	45	80	3.158693	0.0354639	-0.001193	1	0.035484	-1.926689	-0.0001172	4.005002	11	0.1589855	0.0056414	-327.6853
	46	82	2.504006	0.0356069	-0.0011334	1	0.0356249	-1.823154	-3.847381E-006	4.005003	11	0.1554577	0.0055151	-327.6853
	47	85	1.998082	0.0357226	-0.0011144	1	0.03574	-1.786835	-0.0002541	4.004963	11	0.1614617	0.0057533	-327.6853
	48	90	1.584686	0.0358554	-0.001111	1	0.0358726	-1.774737	-0.0001532	4.004953	11	0.1597949	0.0057206	-327.6853
	49	94	1.266892	0.0359779	-0.0011255	1	0.0359955	-1.791749	0.0001637	4.004902	11	0.1593497	0.0057281	-327.6853
	50	99	0.999041	0.0361047	-0.0011607	1	0.0361234	-1.841255	0.0001983	4.004905	11	0.1591203	0.005743	-327.6853
	51	103	0.7923428	0.0362707	-0.0012096	1	0.0362909	-1.910014	-3.750614E-005	4.004949	11	0.1592058	0.0057745	-327.6853
	52	111	0.6334459	0.036408	-0.0012669	1	0.03643	-1.992999	-4.44722E-005	4.004908	11	0.1589836	0.0057897	-327.6853
	53	119	0.5040323	0.0365617	-0.0013554	1	0.0365868	-2.123113	-3.852983E-005	4.004877	11	0.1589815	0.0058153	-327.6853
	54	128	0.400641	0.0367273	-0.0014516	1	0.0367559	-2.263364	-3.889581E-005	4.004843	11	0.1589864	0.0058429	-327.6853
	55	140	0.316723	0.0369034	-0.0015723	1	0.0369368	-2.439637	-3.850952E-005	4.004803	11	0.1589902	0.0058721	-327.6853
	56	154	0.2520161	0.037088	-0.0017175	1	0.0371278	-2.65147	-3.790364E-005	4.004756	11	0.1589937	0.0059027	-327.6853
	57	172	0.2003205	0.0372957	-0.001885	1	0.0373433	-2.893424	-3.970131E-005	4.004687	11	0.1589965	0.0059372	-327.6853
	58	198	0.1588983	0.037524	-0.002073	1	0.0375812	-3.162053	-4.085317E-005	4.004604	11	0.158996	0.0059751	-327.6853
	59	229	0.1260081	0.0378039	-0.0022964	1	0.0378736	-3.476172	-4.280671E-005	4.004592	11	0.1589984	0.0060218	-327.6853
	60	268	0.1001603	0.0381306	-0.0025493	1	0.0382157	-3.825005	-4.014499E-005	4.004671	11	0.1590001	0.0060762	-327.6853
	61	304	0.0794492	0.0384727	-0.0028507	1	0.0385782	-4.237748	-3.88148E-005	4.004757	11	0.1590006	0.0061339	-327.6853
	62	343	0.0631739	0.0387301	-0.0031957	1	0.0388618	-4.716951	-3.593347E-005	4.004469	11	0.1589979	0.0061789	-327.6853
	63	408	0.0501337	0.0390847	-0.0035884	1	0.0392491	-5.245726	-3.879346E-005	4.004282	11	0.1590007	0.0062406	-327.6853
	64	469	0.0398258	0.0394902	-0.0040586	1	0.0396983	-5.867952	-3.804798E-005	4.004124	11	0.1590002	0.006312	-327.6853
	65	546	0.0316296	0.0399468	-0.0046026	1	0.0402111	-6.57251	-3.950749E-005	4.003911	11	0.1589993	0.0063935	-327.6853
	66	674	0.0251206	0.0404629	-0.0052306	1	0.0407996	-7.365664	-3.93507E-005	4.003651	11	0.1590003	0.0064871	-327.6853
	67	835	0.0199553	0.041051	-0.0059651	1	0.0414822	-8.267739	-4.114763E-005	4.003418	11	0.1590001	0.0065957	-327.6853
	68	987	0.0158522	0.0417177	-0.0068347	1	0.0422738	-9.304273	-3.899159E-005	4.003155	11	0.1590003	0.0067216	-327.6853
	69	1241	0.0125907	0.0424912	-0.0078361	1	0.0432077	-10.44892	-3.994226E-005	4.002834	11	0.1589988	0.00687	-327.6853
	70	1560	0.0100011	0.0434399	-0.0089976	1	0.044362	-11.70203	-3.851254E-005	4.002574	11	0.1589999	0.0070535	-327.6853
