EXPLAIN
TAG	GALVEIS
TITLE	LABEL	Galvanostatic EIS	Test Identifier
DATE	LABEL	24.5.2024	Date
TIME	LABEL	10:31:12	Time
NOTES	NOTES	1	Notes...
	
PSTAT	PSTAT	REF600-12055	Potentiostat
FREQINIT	QUANT	1.00000E+005	Initial Freq. (Hz)
FREQFINAL	QUANT	1.00000E-002	Final Freq. (Hz)
PTSPERDEC	QUANT	1.00000E+001	Points/decade
IACREQ	QUANT	1.59000E-001	AC Current (A rms)
IDCREQ	QUANT	0.00000E+000	DC Current (A)
AREA	QUANT	1.00000E+000	Sample Area (cm^2)
SPEED	SELECTOR	1	Optimize for:
DRIFTCOR	SELECTOR	0	Drift Correction
THD	SELECTOR	0	THD
ZGUESS	QUANT	1.00000E-001	Estimated Z (ohms)
EOC	QUANT	3.396752	Open Circuit (V)
SEQUENCER	TOGGLE	TRUE	Run as Sequence
PSTATMODEL	IQUANT	4	Pstat Model
PSTATSECTION	LABEL	REF600-12055	Pstat Section
PSTATSERIALNO	LABEL	12055	Pstat Serial Number
CTRLMODE	IQUANT	0	Control Mode
ELECTROMETER	IQUANT	0	RE=0 or CS=1
IESTAB	IQUANT	0	I/E Stability
CASPEED	IQUANT	4	Control Amp Speed
CONVENTION	IQUANT	1	Current Convention
ICHRANGE	IQUANT	2	Ich Range
ICHRANGEMODE	TOGGLE	F	Ich Auto Range
ICHOFFSETENABLE	TOGGLE	T	Ich Offset Enable
ICHOFFSET	QUANT	0	Ich Offset (V)
ICHFILTER	IQUANT	3	Ich Filter
VCHRANGE	IQUANT	2	Vch Range
VCHRANGEMODE	TOGGLE	F	Vch Auto Range
VCHOFFSETENABLE	TOGGLE	T	Vch Offset Enable
VCHOFFSET	QUANT	0	Vch Offset (V)
VCHFILTER	IQUANT	3	Vch Filter
ACHRANGE	IQUANT	2	Ach Range
ACHOFFSETENABLE	TOGGLE	F	Ach Offset Enable
ACHOFFSET	QUANT	0	Ach Offset (V)
ACHFILTER	IQUANT	1	Ach Filter
IERANGELOWERLIMIT	IQUANT	1	I/E Range Lower Limit
IERANGEMODE	TOGGLE	F	I/E AutoRange
IERANGE	IQUANT	7	I/E Range
POSFEEDENABLE	TOGGLE	F	Positive Feedback IR Comp
POSFEEDRESISTANCE	QUANT	0	Positive Feedback Resistance (ohm)
ACHSELECT	IQUANT	4	Ach Select
SENSECABLEID	IQUANT	14	Sense Cable ID
PWRCABLEID	IQUANT	14	Power Cable ID
DCCALDATE	LABEL	2/12/2024	DC Calibration Date
ACCALDATE	LABEL	2/12/2024	AC Calibration Date
THERMOSELECT	IQUANT	1	Thermo Select
FRAMEWORKVERSION	LABEL	7.10.3	Framework Version
INSTRUMENTVERSION	LABEL	4.91	Instrument Version
COMMVERSION	LABEL	2.24	Communications Version
CPUPLDVERSION	LABEL	0.00	CPU PLD Version
CTRLPLDVERSION	LABEL	0.00	CTRL PLD Version
PSTATPLDVERSION	LABEL	0.00	PSTAT PLD Version
ZCURVE	TABLE
	Pt	Time	Freq	Zreal	Zimag	Zsig	Zmod	Zphz	Idc	Vdc	IERange	Imod	Vmod	Temp
	#	s	Hz	ohm	ohm	V	ohm	°	A	V	#	A	V	°C
	0	5	100078.1	0.1000006	0.2375251	1	0.2577174	67.16838	1.473445E-005	3.39684	11	0.1596775	0.0408521	-327.6853
	1	7	79453.13	0.0841441	0.1970412	1	0.2142555	66.87568	2.108049E-006	3.39683	11	0.1642495	0.0350287	-327.6853
	2	9	63140.62	0.0717016	0.1630343	1	0.1781048	66.26036	3.937399E-006	3.396816	11	0.1619754	0.0287636	-327.6853
	3	10	50203.12	0.0620246	0.1345304	1	0.1481401	65.24815	-1.639943E-005	3.396817	11	0.1609487	0.0237982	-327.6853
	4	12	39890.62	0.0545695	0.1106879	1	0.1234084	63.75653	-8.860487E-006	3.396809	11	0.1602714	0.0197552	-327.6853
	5	14	31640.63	0.0488306	0.090827	1	0.1031212	61.73656	-1.471234E-005	3.396791	11	0.1598552	0.016472	-327.6853
	6	15	25171.88	0.0444215	0.074733	1	0.0869384	59.27263	-1.438438E-005	3.396778	11	0.1595457	0.013864	-327.6853
	7	17	20015.62	0.0408904	0.0615225	1	0.0738718	56.39031	-1.726707E-005	3.396759	11	0.1593582	0.0117685	-327.6853
	8	19	15890.62	0.0379463	0.0506121	1	0.0632575	53.13934	-2.329837E-005	3.396764	11	0.1592319	0.0100707	-327.6853
	9	21	12609.38	0.0354664	0.0415632	1	0.0546385	49.52546	-1.771963E-005	3.396744	11	0.1591411	0.0086942	-327.6853
	10	22	10078.13	0.033461	0.0342077	1	0.0478519	45.63226	-1.945405E-005	3.396735	11	0.1590855	0.007612	-327.6853
	11	24	8015.625	0.0318077	0.0278395	1	0.0422702	41.19391	-2.148631E-005	3.396731	11	0.1590554	0.006723	-327.6853
	12	25	6328.125	0.0305193	0.022307	1	0.0378025	36.1637	-2.956414E-005	3.396725	11	0.1590307	0.0060116	-327.6853
	13	27	5015.625	0.0296327	0.0177382	1	0.0345361	30.90476	-2.109705E-005	3.396719	11	0.1590144	0.0054916	-327.6853
	14	28	3984.375	0.0290471	0.0139947	1	0.0322426	25.72441	-3.010337E-005	3.396709	11	0.1590088	0.0051268	-327.6853
	15	30	3170.956	0.0287221	0.0109063	1	0.030723	20.7926	-3.455696E-005	3.396693	11	0.1590092	0.0048852	-327.6853
	16	32	2527.573	0.0285681	0.0084027	1	0.0297782	16.39006	-2.273603E-005	3.396689	11	0.1589986	0.0047347	-327.6853
	17	33	1976.103	0.0285549	0.0061542	1	0.0292105	12.16243	-2.189225E-005	3.396672	11	0.1590076	0.0046447	-327.6853
	18	35	1577.524	0.0286518	0.0045583	1	0.0290121	9.039504	-3.106298E-005	3.39667	11	0.1590046	0.0046131	-327.6853
	19	36	1265.625	0.0288052	0.0031557	1	0.0289776	6.252072	-3.07369E-005	3.396666	11	0.1589934	0.0046072	-327.6853
	20	38	998.264	0.0290333	0.0019936	1	0.0291017	3.928136	-2.869783E-005	3.396647	11	0.1590004	0.0046272	-327.6853
	21	39	796.875	0.0292881	0.001165	1	0.0293112	2.277851	-3.385941E-005	3.396644	11	0.1590023	0.0046606	-327.6853
	22	41	627.7902	0.0295769	0.0003699	1	0.0295793	0.7165905	-1.942657E-005	3.396641	11	0.1589923	0.0047029	-327.6853
	23	42	505.5147	0.0298628	-0.0001625	1	0.0298632	-0.3118479	-1.81729E-005	3.396637	11	0.1576074	0.0046805	-327.6853
	24	44	397.9953	0.0302065	-0.0006518	1	0.0302136	-1.236141	-2.817577E-005	3.396626	11	0.1606012	0.0048324	-327.6853
	25	45	315.5048	0.0305408	-0.001043	1	0.0305586	-1.955895	-3.011327E-005	3.396618	11	0.1593411	0.0048555	-327.6853
	26	47	252.4038	0.0308755	-0.0013642	1	0.0309057	-2.52986	-2.704107E-005	3.396608	11	0.1589645	0.0049036	-327.6853
	27	48	198.6229	0.0312397	-0.0016583	1	0.0312837	-3.038559	-1.822924E-005	3.396603	11	0.1588763	0.0049642	-327.6853
	28	50	158.3615	0.0315885	-0.0018871	1	0.0316448	-3.418809	-3.018358E-005	3.396591	11	0.1588954	0.0050243	-327.6853
	29	51	125.558	0.0319621	-0.0021007	1	0.032031	-3.760414	-2.796523E-005	3.396586	11	0.158912	0.0050876	-327.6853
	30	53	100.4464	0.0323247	-0.0022728	1	0.0324045	-4.021906	-2.079917E-005	3.396569	11	0.1589364	0.0051486	-327.6853
	31	55	79.00281	0.0327302	-0.002446	1	0.0328214	-4.27397	-2.008411E-005	3.396559	11	0.1589596	0.0052163	-327.6853
	32	56	63.3446	0.033109	-0.0025934	1	0.0332104	-4.478831	-2.094739E-005	3.396554	11	0.1589706	0.0052788	-327.6853
	33	58	50.22321	0.0335136	-0.0027439	1	0.0336257	-4.680572	-2.985238E-005	3.39655	11	0.1589895	0.0053457	-327.6853
	34	60	38.42213	0.0339866	-0.0029115	1	0.0341111	-4.896407	-1.697824E-005	3.396528	11	0.1589807	0.0054227	-327.6853
	35	61	31.25	0.0343794	-0.0030482	1	0.0345143	-5.066842	-3.104028E-005	3.396531	11	0.1589946	0.0054874	-327.6853
	36	63	24.93351	0.0348035	-0.0032129	1	0.0349515	-5.27437	-2.091972E-005	3.396518	11	0.1589973	0.0055571	-327.6853
	37	64	19.86229	0.0352478	-0.0033912	1	0.0354105	-5.495519	-5.785492E-005	3.396503	11	0.1589847	0.0056297	-327.6853
	38	66	15.625	0.0357685	-0.0036052	1	0.0359498	-5.755602	-2.426608E-005	3.39648	11	0.1590008	0.005716	-327.6853
	39	67	12.40079	0.0362844	-0.0038207	1	0.036485	-6.011038	-4.645542E-005	3.396454	11	0.1589912	0.0058008	-327.6853
	40	69	9.93114	0.0368308	-0.004067	1	0.0370547	-6.301242	-4.697766E-005	3.396446	11	0.1589963	0.0058915	-327.6853
	41	70	7.944915	0.0374621	-0.0043166	1	0.03771	-6.572962	7.482246E-006	3.396436	11	0.159012	0.0059963	-327.6853
	42	72	6.317385	0.0381905	-0.0045613	1	0.0384619	-6.810949	-0.0001078	3.396431	11	0.159024	0.0061164	-327.6853
	43	74	5.008013	0.0389931	-0.0047543	1	0.0392819	-6.951581	-3.108845E-005	3.396453	11	0.1589856	0.0062452	-327.6853
	44	77	3.945707	0.0398889	-0.0048737	1	0.0401856	-6.965945	1.424714E-005	3.396416	11	0.1589766	0.0063886	-327.6853
	45	79	3.158693	0.0407558	-0.0048922	1	0.0410484	-6.844829	7.277634E-005	3.396382	11	0.1589872	0.0065262	-327.6853
	46	82	2.504006	0.0416407	-0.0047858	1	0.0419148	-6.556229	-3.903289E-005	3.39636	11	0.1554534	0.0064887	-327.6853
	47	85	1.998082	0.0424491	-0.0046168	1	0.0426994	-6.207082	0.0002264	3.396377	11	0.1614777	0.0068742	-327.6853
	48	90	1.584686	0.0432157	-0.0043857	1	0.0434376	-5.794704	0.0001497	3.396348	11	0.1598021	0.0069273	-327.6853
	49	94	1.266892	0.0438722	-0.0041051	1	0.0440638	-5.345618	-0.0002215	3.396364	11	0.1593489	0.007012	-327.6853
	50	99	0.999041	0.0444575	-0.0038278	1	0.0446219	-4.921031	-0.0002542	3.396311	11	0.1591187	0.0070941	-327.6853
	51	105	0.7923428	0.0449854	-0.0035732	1	0.0451271	-4.541535	-4.336008E-005	3.39632	11	0.1591672	0.0071788	-327.6853
	52	111	0.6334459	0.0454133	-0.0033671	1	0.045538	-4.240327	-4.148507E-005	3.396291	11	0.1589832	0.0072372	-327.6853
	53	119	0.5040323	0.0457961	-0.0032021	1	0.0459079	-3.999695	-4.187142E-005	3.396247	11	0.1589825	0.0072969	-327.6853
	54	131	0.400641	0.0461518	-0.0030891	1	0.0462551	-3.829261	-4.128001E-005	3.396192	11	0.1589873	0.0073529	-327.6853
	55	145	0.316723	0.046479	-0.0030209	1	0.046577	-3.718654	-4.015012E-005	3.396126	11	0.15899	0.0074046	-327.6853
	56	162	0.2520161	0.0467964	-0.0030177	1	0.0468936	-3.6896	-3.912755E-005	3.396061	11	0.1589937	0.0074554	-327.6853
	57	180	0.2003205	0.047094	-0.0030838	1	0.0471948	-3.746459	-3.934698E-005	3.395996	11	0.1589955	0.0075035	-327.6853
	58	201	0.1588983	0.0474114	-0.0032236	1	0.0475209	-3.889688	-4.517259E-005	3.3959	11	0.1589976	0.0075555	-327.6853
	59	233	0.1260081	0.0477589	-0.0034392	1	0.0478825	-4.118921	-4.139478E-005	3.395923	11	0.1589975	0.0076131	-327.6853
	60	271	0.1001603	0.0481436	-0.0037176	1	0.0482869	-4.415605	-4.128965E-005	3.396128	11	0.1590007	0.0076776	-327.6853
	61	307	0.0794492	0.0485629	-0.0041036	1	0.048736	-4.83004	-4.299676E-005	3.396375	11	0.1589978	0.0077489	-327.6853
	62	346	0.0631739	0.0488696	-0.0045883	1	0.0490845	-5.363667	-4.042871E-005	3.396015	11	0.1590005	0.0078044	-327.6853
	63	411	0.0501337	0.0493051	-0.0051916	1	0.0495776	-6.010788	-3.955827E-005	3.395788	11	0.1590011	0.0078829	-327.6853
	64	473	0.0398258	0.0497731	-0.0059201	1	0.050124	-6.783046	-4.122965E-005	3.39557	11	0.1589982	0.0079696	-327.6853
	65	575	0.0316296	0.0503255	-0.0068013	1	0.050783	-7.696698	-4.23665E-005	3.395366	11	0.1589992	0.0080745	-327.6853
	66	671	0.0251206	0.0509465	-0.0078973	1	0.0515549	-8.811357	-4.271583E-005	3.395186	11	0.1590006	0.0081973	-327.6853
	67	792	0.0199553	0.0516235	-0.00922	1	0.0524403	-10.12628	-4.036069E-005	3.394997	11	0.1589992	0.008338	-327.6853
	68	944	0.0158522	0.0524386	-0.0108562	1	0.0535506	-11.6965	-3.744045E-005	3.394746	11	0.1589999	0.0085145	-327.6853
	69	1198	0.0125907	0.0534557	-0.0128217	1	0.0549719	-13.48792	-4.039215E-005	3.394479	11	0.1590001	0.0087405	-327.6853
	70	1517	0.0100011	0.0547488	-0.0151402	1	0.0568036	-15.45822	-4.055651E-005	3.394305	11	0.1590009	0.0090318	-327.6853
