EXPLAIN
TAG	GALVEIS
TITLE	LABEL	Galvanostatic EIS	Test Identifier
DATE	LABEL	22.6.2024	Date
TIME	LABEL	5:43:47	Time
NOTES	NOTES	1	Notes...
	
PSTAT	PSTAT	REF600-12055	Potentiostat
FREQINIT	QUANT	1.00000E+005	Initial Freq. (Hz)
FREQFINAL	QUANT	1.00000E-002	Final Freq. (Hz)
PTSPERDEC	QUANT	1.00000E+001	Points/decade
IACREQ	QUANT	1.59000E-001	AC Current (A rms)
IDCREQ	QUANT	0.00000E+000	DC Current (A)
AREA	QUANT	1.00000E+000	Sample Area (cm^2)
SPEED	SELECTOR	1	Optimize for:
DRIFTCOR	SELECTOR	0	Drift Correction
THD	SELECTOR	0	THD
ZGUESS	QUANT	1.00000E-001	Estimated Z (ohms)
EOC	QUANT	3.755345	Open Circuit (V)
SEQUENCER	TOGGLE	TRUE	Run as Sequence
PSTATMODEL	IQUANT	4	Pstat Model
PSTATSECTION	LABEL	REF600-12055	Pstat Section
PSTATSERIALNO	LABEL	12055	Pstat Serial Number
CTRLMODE	IQUANT	0	Control Mode
ELECTROMETER	IQUANT	0	RE=0 or CS=1
IESTAB	IQUANT	0	I/E Stability
CASPEED	IQUANT	4	Control Amp Speed
CONVENTION	IQUANT	1	Current Convention
ICHRANGE	IQUANT	2	Ich Range
ICHRANGEMODE	TOGGLE	F	Ich Auto Range
ICHOFFSETENABLE	TOGGLE	T	Ich Offset Enable
ICHOFFSET	QUANT	0	Ich Offset (V)
ICHFILTER	IQUANT	3	Ich Filter
VCHRANGE	IQUANT	2	Vch Range
VCHRANGEMODE	TOGGLE	F	Vch Auto Range
VCHOFFSETENABLE	TOGGLE	T	Vch Offset Enable
VCHOFFSET	QUANT	0	Vch Offset (V)
VCHFILTER	IQUANT	3	Vch Filter
ACHRANGE	IQUANT	2	Ach Range
ACHOFFSETENABLE	TOGGLE	F	Ach Offset Enable
ACHOFFSET	QUANT	0	Ach Offset (V)
ACHFILTER	IQUANT	1	Ach Filter
IERANGELOWERLIMIT	IQUANT	1	I/E Range Lower Limit
IERANGEMODE	TOGGLE	F	I/E AutoRange
IERANGE	IQUANT	7	I/E Range
POSFEEDENABLE	TOGGLE	F	Positive Feedback IR Comp
POSFEEDRESISTANCE	QUANT	0	Positive Feedback Resistance (ohm)
ACHSELECT	IQUANT	4	Ach Select
SENSECABLEID	IQUANT	14	Sense Cable ID
PWRCABLEID	IQUANT	14	Power Cable ID
DCCALDATE	LABEL	2/12/2024	DC Calibration Date
ACCALDATE	LABEL	2/12/2024	AC Calibration Date
THERMOSELECT	IQUANT	1	Thermo Select
FRAMEWORKVERSION	LABEL	7.10.3	Framework Version
INSTRUMENTVERSION	LABEL	4.91	Instrument Version
COMMVERSION	LABEL	2.24	Communications Version
CPUPLDVERSION	LABEL	0.00	CPU PLD Version
CTRLPLDVERSION	LABEL	0.00	CTRL PLD Version
PSTATPLDVERSION	LABEL	0.00	PSTAT PLD Version
ZCURVE	TABLE
	Pt	Time	Freq	Zreal	Zimag	Zsig	Zmod	Zphz	Idc	Vdc	IERange	Imod	Vmod	Temp
	#	s	Hz	ohm	ohm	V	ohm	°	A	V	#	A	V	°C
	0	5	100078.1	0.0976735	0.2348837	1	0.2543826	67.42062	2.293801E-005	3.755862	11	0.1596889	0.0403264	-327.6853
	1	7	79453.13	0.0827624	0.1946152	1	0.2114821	66.96179	4.554284E-006	3.755872	11	0.1644145	0.03461	-327.6853
	2	8	63140.62	0.0709655	0.1608929	1	0.1758483	66.19902	-7.688301E-006	3.755902	11	0.1620818	0.0284178	-327.6853
	3	10	50203.12	0.0617428	0.1326984	1	0.1463593	65.04807	-8.688658E-006	3.755908	11	0.1609849	0.0235174	-327.6853
	4	12	39890.62	0.0546116	0.1091502	1	0.12205	63.41962	-1.173478E-005	3.755926	11	0.1603209	0.0195438	-327.6853
	5	13	31640.63	0.0490797	0.089552	1	0.1021194	61.27473	-2.536143E-005	3.755936	11	0.1598672	0.0163132	-327.6853
	6	15	25171.88	0.044822	0.0736877	1	0.086249	58.68912	-2.968148E-005	3.755931	11	0.1595716	0.0137563	-327.6853
	7	17	20015.62	0.0413825	0.0606581	1	0.0734297	55.69722	-3.032231E-005	3.755949	11	0.1593633	0.0116985	-327.6853
	8	19	15890.62	0.0385034	0.0499018	1	0.0630294	52.34686	-2.129085E-005	3.755969	11	0.1592311	0.0100343	-327.6853
	9	20	12609.38	0.0360843	0.0409642	1	0.0545906	48.624	-2.158858E-005	3.755978	11	0.159152	0.0086872	-327.6853
	10	22	10078.13	0.0341174	0.033706	1	0.0479592	44.65248	-1.754076E-005	3.756001	11	0.1590862	0.0076291	-327.6853
	11	24	8015.625	0.0325037	0.0274284	1	0.0425301	40.15947	-2.143939E-005	3.755999	11	0.1590579	0.0067644	-327.6853
	12	25	6328.125	0.0312581	0.021951	1	0.0381958	35.0785	-2.326496E-005	3.756016	11	0.159035	0.0060743	-327.6853
	13	27	5015.625	0.0303965	0.0174547	1	0.0350516	29.86593	-2.090674E-005	3.756034	11	0.1590102	0.0055735	-327.6853
	14	28	3984.375	0.0298334	0.013769	1	0.0328575	24.77482	-2.096978E-005	3.75605	11	0.1590141	0.0052247	-327.6853
	15	30	3170.956	0.0295266	0.0107221	1	0.0314131	19.95772	-3.34247E-005	3.756049	11	0.1590069	0.0049949	-327.6853
	16	32	2527.573	0.0293788	0.0082212	1	0.0305075	15.63351	-3.295531E-005	3.756073	11	0.159003	0.0048508	-327.6853
	17	33	1976.103	0.0293921	0.0061032	1	0.0300191	11.73055	-2.036785E-005	3.75609	11	0.1590026	0.0047731	-327.6853
	18	35	1577.524	0.0294909	0.0044278	1	0.0298214	8.538707	-2.181414E-005	3.756104	11	0.1589999	0.0047416	-327.6853
	19	37	1265.625	0.0296422	0.0032313	1	0.0298178	6.221271	-1.99232E-005	3.756116	11	0.1590039	0.0047411	-327.6853
	20	38	998.264	0.0298674	0.0020929	1	0.0299406	4.008255	-2.618122E-005	3.756128	11	0.1589934	0.0047604	-327.6853
	21	40	796.875	0.0301085	0.0012378	1	0.030134	2.354117	-2.197037E-005	3.756129	11	0.1590024	0.0047914	-327.6853
	22	41	627.7902	0.0303798	0.0005183	1	0.0303842	0.977416	-2.583303E-005	3.756138	11	0.158999	0.0048311	-327.6853
	23	43	505.5147	0.0306531	-1.348472E-005	1	0.0306531	-0.0252052	-2.212671E-005	3.756161	11	0.1576016	0.0048041	-327.6853
	24	44	397.9953	0.0309745	-0.0004595	1	0.0309779	-0.8499789	-2.319028E-005	3.756173	11	0.1606015	0.0049547	-327.6853
	25	46	315.5048	0.0312843	-0.0008117	1	0.0312948	-1.486312	-2.261321E-005	3.756185	11	0.15934	0.0049725	-327.6853
	26	47	252.4038	0.0315795	-0.0010966	1	0.0315985	-1.988738	-2.42095E-005	3.756196	11	0.1589656	0.0050136	-327.6853
	27	49	198.6229	0.031905	-0.0013452	1	0.0319334	-2.414291	-3.352674E-005	3.756206	11	0.1588827	0.0050675	-327.6853
	28	50	158.3615	0.0322254	-0.0015317	1	0.0322618	-2.721325	-3.364566E-005	3.756225	11	0.1588889	0.0051221	-327.6853
	29	52	125.558	0.0325573	-0.0016908	1	0.0326012	-2.972854	-2.761919E-005	3.756237	11	0.1589101	0.0051781	-327.6853
	30	54	100.4464	0.032889	-0.001812	1	0.0329389	-3.153411	-2.657005E-005	3.756249	11	0.1589457	0.0052338	-327.6853
	31	55	79.00281	0.0332488	-0.0019112	1	0.0333037	-3.289809	-2.351275E-005	3.756264	11	0.1589528	0.0052927	-327.6853
	32	57	63.3446	0.0335852	-0.0019822	1	0.0336437	-3.377594	-2.154987E-005	3.75628	11	0.1589713	0.0053477	-327.6853
	33	59	50.22321	0.0339433	-0.0020292	1	0.0340039	-3.421241	-2.821162E-005	3.756295	11	0.1589881	0.0054058	-327.6853
	34	60	38.42213	0.0343669	-0.0020446	1	0.0344277	-3.404671	-1.999486E-005	3.756302	11	0.1589859	0.0054733	-327.6853
	35	62	31.25	0.0346852	-0.0020385	1	0.0347451	-3.363557	-2.215357E-005	3.756318	11	0.1590013	0.0055243	-327.6853
	36	64	24.93351	0.035028	-0.0019933	1	0.0350847	-3.25701	-2.301123E-005	3.756325	11	0.1589893	0.005578	-327.6853
	37	65	19.86229	0.035358	-0.0019502	1	0.0354117	-3.15702	-2.240133E-005	3.756351	11	0.1589858	0.0056299	-327.6853
	38	67	15.625	0.0356841	-0.0018498	1	0.035732	-2.967375	-1.786859E-005	3.756345	11	0.1589848	0.0056808	-327.6853
	39	68	12.40079	0.0359686	-0.0017563	1	0.0360115	-2.795394	-4.322617E-006	3.756359	11	0.1590066	0.005726	-327.6853
	40	69	9.93114	0.0362223	-0.0016418	1	0.0362595	-2.595237	-1.519502E-005	3.756375	11	0.1590114	0.0057656	-327.6853
	41	71	7.944915	0.0364369	-0.001534	1	0.0364691	-2.410814	-3.304862E-005	3.7564	11	0.158979	0.0057978	-327.6853
	42	73	6.317385	0.0366408	-0.0014384	1	0.036669	-2.248112	4.524412E-005	3.756396	11	0.1590068	0.0058306	-327.6853
	43	75	5.008013	0.0368138	-0.0013542	1	0.0368387	-2.106614	1.619745E-005	3.756392	11	0.1589997	0.0058573	-327.6853
	44	78	3.945707	0.036978	-0.0012813	1	0.0370001	-1.984449	-4.370254E-005	3.756426	11	0.1590023	0.0058831	-327.6853
	45	80	3.158693	0.0371248	-0.0012263	1	0.0371451	-1.891965	-1.109352E-005	3.756437	11	0.159036	0.0059074	-327.6853
	46	83	2.504006	0.0372648	-0.0012069	1	0.0372844	-1.854967	3.126008E-005	3.756438	11	0.1553636	0.0057685	-327.6853
	47	86	1.998082	0.0374017	-0.001198	1	0.0374208	-1.834568	-0.0002334	3.756422	11	0.1614765	0.0060244	-327.6853
	48	89	1.584686	0.0375221	-0.0012007	1	0.0375413	-1.832891	-0.0003468	3.756466	11	0.1600041	0.0059945	-327.6853
	49	94	1.266892	0.0376517	-0.0012179	1	0.0376714	-1.852693	0.0002454	3.756544	11	0.1592569	0.0059913	-327.6853
	50	99	0.999041	0.0377955	-0.0012678	1	0.0378167	-1.921224	0.0002115	3.756602	11	0.1590507	0.0060096	-327.6853
	51	103	0.7923428	0.0379478	-0.001334	1	0.0379713	-2.013344	-4.09538E-005	3.756666	11	0.1591674	0.0060405	-327.6853
	52	111	0.6334459	0.0381001	-0.0014274	1	0.0381268	-2.145532	-4.142598E-005	3.756719	11	0.1589834	0.0060594	-327.6853
	53	119	0.5040323	0.0382521	-0.0015369	1	0.038283	-2.300769	-4.112202E-005	3.756775	11	0.1589826	0.006085	-327.6853
	54	128	0.400641	0.0384169	-0.0016736	1	0.0384533	-2.49444	-3.997805E-005	3.756855	11	0.1589859	0.0061127	-327.6853
	55	143	0.316723	0.0386142	-0.0018362	1	0.0386578	-2.722472	-4.346785E-005	3.756955	11	0.1589902	0.0061457	-327.6853
	56	157	0.2520161	0.038815	-0.0020411	1	0.0388687	-3.010092	-4.379955E-005	3.757072	11	0.1589932	0.0061795	-327.6853
	57	178	0.2003205	0.0390433	-0.0022586	1	0.0391085	-3.310739	-4.229019E-005	3.757236	11	0.158996	0.0062179	-327.6853
	58	204	0.1588983	0.0393097	-0.0025252	1	0.0393908	-3.675487	-4.223554E-005	3.757432	11	0.1589968	0.0062629	-327.6853
	59	236	0.1260081	0.0396139	-0.0028308	1	0.0397149	-4.08737	-4.005752E-005	3.75774	11	0.1589992	0.0063146	-327.6853
	60	266	0.1001603	0.0399937	-0.003161	1	0.0401184	-4.519114	-4.441448E-005	3.758153	11	0.1589969	0.0063786	-327.6853
	61	302	0.0794492	0.0403864	-0.0035624	1	0.0405433	-5.040935	-4.161482E-005	3.758613	11	0.1590016	0.0064464	-327.6853
	62	342	0.0631739	0.0406938	-0.0040363	1	0.0408935	-5.664436	-4.155646E-005	3.758758	11	0.1589984	0.006502	-327.6853
	63	407	0.0501337	0.0411087	-0.0045613	1	0.041361	-6.331444	-4.212544E-005	3.75907	11	0.1590015	0.0065764	-327.6853
	64	468	0.0398258	0.0415831	-0.0051901	1	0.0419058	-7.114418	-4.164836E-005	3.759475	11	0.1589988	0.006663	-327.6853
	65	570	0.0316296	0.0421143	-0.005923	1	0.0425288	-8.005665	-4.186765E-005	3.759983	11	0.1589997	0.0067621	-327.6853
	66	666	0.0251206	0.0427001	-0.0068083	1	0.0432394	-9.05925	-4.191665E-005	3.760574	11	0.1590003	0.0068751	-327.6853
	67	827	0.0199553	0.0433821	-0.0078903	1	0.0440938	-10.30821	-4.429329E-005	3.761353	11	0.1589994	0.0070109	-327.6853
	68	1029	0.0158522	0.0441851	-0.0091882	1	0.0451304	-11.74712	-4.285508E-005	3.76224	11	0.1590001	0.0071757	-327.6853
	69	1283	0.0125907	0.0451563	-0.0107259	1	0.0464127	-13.36182	-4.058221E-005	3.763124	11	0.1589999	0.0073796	-327.6853
	70	1523	0.0100011	0.046328	-0.012558	1	0.0479999	-15.16649	-4.306903E-005	3.763941	11	0.1589998	0.007632	-327.6853
