EXPLAIN
TAG	GALVEIS
TITLE	LABEL	Galvanostatic EIS	Test Identifier
DATE	LABEL	22.6.2024	Date
TIME	LABEL	11:02:44	Time
NOTES	NOTES	1	Notes...
	
PSTAT	PSTAT	REF600-12055	Potentiostat
FREQINIT	QUANT	1.00000E+005	Initial Freq. (Hz)
FREQFINAL	QUANT	1.00000E-002	Final Freq. (Hz)
PTSPERDEC	QUANT	1.00000E+001	Points/decade
IACREQ	QUANT	1.59000E-001	AC Current (A rms)
IDCREQ	QUANT	0.00000E+000	DC Current (A)
AREA	QUANT	1.00000E+000	Sample Area (cm^2)
SPEED	SELECTOR	1	Optimize for:
DRIFTCOR	SELECTOR	0	Drift Correction
THD	SELECTOR	0	THD
ZGUESS	QUANT	1.00000E-001	Estimated Z (ohms)
EOC	QUANT	3.435765	Open Circuit (V)
SEQUENCER	TOGGLE	TRUE	Run as Sequence
PSTATMODEL	IQUANT	4	Pstat Model
PSTATSECTION	LABEL	REF600-12055	Pstat Section
PSTATSERIALNO	LABEL	12055	Pstat Serial Number
CTRLMODE	IQUANT	0	Control Mode
ELECTROMETER	IQUANT	0	RE=0 or CS=1
IESTAB	IQUANT	0	I/E Stability
CASPEED	IQUANT	4	Control Amp Speed
CONVENTION	IQUANT	1	Current Convention
ICHRANGE	IQUANT	2	Ich Range
ICHRANGEMODE	TOGGLE	F	Ich Auto Range
ICHOFFSETENABLE	TOGGLE	T	Ich Offset Enable
ICHOFFSET	QUANT	0	Ich Offset (V)
ICHFILTER	IQUANT	3	Ich Filter
VCHRANGE	IQUANT	2	Vch Range
VCHRANGEMODE	TOGGLE	F	Vch Auto Range
VCHOFFSETENABLE	TOGGLE	T	Vch Offset Enable
VCHOFFSET	QUANT	0	Vch Offset (V)
VCHFILTER	IQUANT	3	Vch Filter
ACHRANGE	IQUANT	2	Ach Range
ACHOFFSETENABLE	TOGGLE	F	Ach Offset Enable
ACHOFFSET	QUANT	0	Ach Offset (V)
ACHFILTER	IQUANT	1	Ach Filter
IERANGELOWERLIMIT	IQUANT	1	I/E Range Lower Limit
IERANGEMODE	TOGGLE	F	I/E AutoRange
IERANGE	IQUANT	7	I/E Range
POSFEEDENABLE	TOGGLE	F	Positive Feedback IR Comp
POSFEEDRESISTANCE	QUANT	0	Positive Feedback Resistance (ohm)
ACHSELECT	IQUANT	4	Ach Select
SENSECABLEID	IQUANT	14	Sense Cable ID
PWRCABLEID	IQUANT	14	Power Cable ID
DCCALDATE	LABEL	2/12/2024	DC Calibration Date
ACCALDATE	LABEL	2/12/2024	AC Calibration Date
THERMOSELECT	IQUANT	1	Thermo Select
FRAMEWORKVERSION	LABEL	7.10.3	Framework Version
INSTRUMENTVERSION	LABEL	4.91	Instrument Version
COMMVERSION	LABEL	2.24	Communications Version
CPUPLDVERSION	LABEL	0.00	CPU PLD Version
CTRLPLDVERSION	LABEL	0.00	CTRL PLD Version
PSTATPLDVERSION	LABEL	0.00	PSTAT PLD Version
ZCURVE	TABLE
	Pt	Time	Freq	Zreal	Zimag	Zsig	Zmod	Zphz	Idc	Vdc	IERange	Imod	Vmod	Temp
	#	s	Hz	ohm	ohm	V	ohm	°	A	V	#	A	V	°C
	0	5	100078.1	0.0978203	0.23564	1	0.2551373	67.4554	2.414058E-005	3.436164	11	0.1596731	0.040442	-327.6853
	1	7	79453.13	0.0829393	0.1951781	1	0.2120694	66.97733	1.472037E-005	3.43617	11	0.1644244	0.0347082	-327.6853
	2	9	63140.62	0.0711781	0.1613192	1	0.1763242	66.19173	1.670822E-006	3.436173	11	0.1620767	0.0284938	-327.6853
	3	10	50203.12	0.0619871	0.1330373	1	0.1467696	65.0174	-3.000721E-006	3.43619	11	0.160984	0.0235832	-327.6853
	4	12	39890.62	0.0548647	0.1094064	1	0.1223924	63.36733	-9.430689E-006	3.436183	11	0.16032	0.0195985	-327.6853
	5	14	31640.63	0.0493491	0.0897427	1	0.1024162	61.19382	-1.676693E-005	3.436198	11	0.1598694	0.0163609	-327.6853
	6	15	25171.88	0.0450934	0.0738217	1	0.0865047	58.58164	-1.522846E-005	3.436208	11	0.1595659	0.0137966	-327.6853
	7	17	20015.62	0.0416655	0.0607708	1	0.0736825	55.56479	-1.569698E-005	3.436229	11	0.1593668	0.011739	-327.6853
	8	19	15890.62	0.0388045	0.049966	1	0.0632644	52.16644	-1.893059E-005	3.436226	11	0.159235	0.010072	-327.6853
	9	21	12609.38	0.0363812	0.041018	1	0.0548276	48.4283	-2.142281E-005	3.436233	11	0.1591475	0.0087246	-327.6853
	10	22	10078.13	0.0344245	0.0337384	1	0.0482009	44.42329	-1.88147E-005	3.436255	11	0.1590886	0.0076676	-327.6853
	11	24	8015.625	0.0328133	0.0274542	1	0.0427837	39.91856	-2.251717E-005	3.436256	11	0.1590547	0.0068046	-327.6853
	12	25	6328.125	0.0315641	0.0219602	1	0.0384518	34.82761	-2.182624E-005	3.436258	11	0.1590301	0.0061148	-327.6853
	13	27	5015.625	0.030703	0.0174737	1	0.0353271	29.64507	-2.297002E-005	3.436274	11	0.1590203	0.0056176	-327.6853
	14	28	3984.375	0.0301512	0.0137474	1	0.0331374	24.51047	-2.302531E-005	3.436281	11	0.1590089	0.0052691	-327.6853
	15	30	3170.956	0.0298387	0.0107142	1	0.031704	19.75172	-2.593896E-005	3.436295	11	0.1590025	0.005041	-327.6853
	16	32	2527.573	0.0297096	0.0081873	1	0.0308171	15.40696	-3.163493E-005	3.436303	11	0.1590045	0.0049	-327.6853
	17	34	1976.103	0.0297125	0.0059824	1	0.0303088	11.38392	-2.739183E-005	3.436319	11	0.1589994	0.0048191	-327.6853
	18	35	1577.524	0.0298134	0.0044533	1	0.0301441	8.495573	-1.997792E-005	3.436324	11	0.1590058	0.0047931	-327.6853
	19	37	1265.625	0.029982	0.0030628	1	0.030138	5.832866	-2.128282E-005	3.436321	11	0.1589941	0.0047918	-327.6853
	20	38	998.264	0.0302128	0.0019522	1	0.0302758	3.69695	-2.083334E-005	3.43633	11	0.1589994	0.0048138	-327.6853
	21	40	796.875	0.0304539	0.0011663	1	0.0304762	2.193174	-1.734626E-005	3.436344	11	0.1590061	0.0048459	-327.6853
	22	41	627.7902	0.0307792	0.0003995	1	0.0307818	0.7436548	-2.428936E-005	3.436343	11	0.1590032	0.0048944	-327.6853
	23	43	505.5147	0.0310482	-0.0001557	1	0.0310486	-0.2872779	-1.851874E-005	3.436367	11	0.1575954	0.0048659	-327.6853
	24	44	397.9953	0.0313926	-0.0006236	1	0.0313988	-1.138054	-2.181949E-005	3.436375	11	0.160601	0.005022	-327.6853
	25	46	315.5048	0.0317203	-0.0009941	1	0.0317358	-1.795121	-1.873961E-005	3.436381	11	0.1593394	0.0050425	-327.6853
	26	47	252.4038	0.0320401	-0.0012991	1	0.0320664	-2.321856	-2.268446E-005	3.436392	11	0.1589726	0.005088	-327.6853
	27	49	198.6229	0.0323984	-0.0015678	1	0.0324363	-2.770436	-2.128026E-005	3.436393	11	0.1588794	0.0051472	-327.6853
	28	50	158.3615	0.032738	-0.0017823	1	0.0327865	-3.116199	-1.999235E-005	3.436405	11	0.158883	0.0052052	-327.6853
	29	52	125.558	0.033103	-0.0019701	1	0.0331616	-3.405919	-2.435641E-005	3.436414	11	0.158911	0.0052671	-327.6853
	30	54	100.4464	0.033459	-0.0021213	1	0.0335262	-3.627753	-1.594005E-005	3.43642	11	0.1589438	0.0053271	-327.6853
	31	55	79.00281	0.0338499	-0.002263	1	0.0339254	-3.824811	-2.004954E-005	3.436431	11	0.1589583	0.0053917	-327.6853
	32	57	63.3446	0.0342214	-0.0023747	1	0.0343037	-3.969589	-2.231635E-005	3.436437	11	0.1589737	0.0054527	-327.6853
	33	58	50.22321	0.0346193	-0.0024869	1	0.0347085	-4.108847	-1.993345E-005	3.436448	11	0.1589796	0.0055175	-327.6853
	34	60	38.42213	0.0351012	-0.0025945	1	0.0351969	-4.227358	-2.192556E-005	3.436455	11	0.1589924	0.0055958	-327.6853
	35	61	31.25	0.0354854	-0.002658	1	0.0355848	-4.28369	-1.164665E-005	3.436457	11	0.1589962	0.0056577	-327.6853
	36	63	24.93351	0.0359129	-0.0027181	1	0.0360156	-4.328289	-2.097024E-005	3.436473	11	0.1589912	0.005726	-327.6853
	37	65	19.86229	0.0363526	-0.0027701	1	0.036458	-4.357631	-3.074948E-005	3.436468	11	0.1589962	0.0057966	-327.6853
	38	66	15.625	0.0368312	-0.0027956	1	0.0369371	-4.340629	-4.743598E-005	3.43649	11	0.1589811	0.0058723	-327.6853
	39	68	12.40079	0.0373078	-0.0027898	1	0.037412	-4.27652	-3.739295E-005	3.436476	11	0.1589994	0.0059485	-327.6853
	40	69	9.93114	0.0377545	-0.0027591	1	0.0378552	-4.17978	-5.213125E-005	3.436481	11	0.1589913	0.0060186	-327.6853
	41	71	7.944915	0.0381986	-0.002683	1	0.0382927	-4.0177	1.15307E-005	3.436492	11	0.1590241	0.0060894	-327.6853
	42	73	6.317385	0.038639	-0.0025904	1	0.0387257	-3.835378	-1.91753E-005	3.43649	11	0.1589542	0.0061556	-327.6853
	43	75	5.008013	0.0390499	-0.0024639	1	0.0391275	-3.610429	5.822512E-007	3.436495	11	0.1590465	0.0062231	-327.6853
	44	77	3.945707	0.0394308	-0.0023049	1	0.0394981	-3.345423	-3.814005E-005	3.436519	11	0.158994	0.00628	-327.6853
	45	79	3.158693	0.0397423	-0.0021728	1	0.0398016	-3.129364	5.738839E-006	3.436522	11	0.1590264	0.0063295	-327.6853
	46	82	2.504006	0.0400384	-0.0020365	1	0.0400902	-2.911717	3.393588E-005	3.436517	11	0.1553693	0.0062029	-327.6853
	47	85	1.998082	0.040285	-0.0019224	1	0.0403308	-2.732049	-0.0002049	3.436512	11	0.1614295	0.006491	-327.6853
	48	90	1.584686	0.0405056	-0.0018305	1	0.0405469	-2.58755	-0.000339	3.436544	11	0.1600239	0.0064753	-327.6853
	49	96	1.266892	0.0407064	-0.0017636	1	0.0407446	-2.480822	0.0002298	3.436626	11	0.1592608	0.0064802	-327.6853
	50	101	0.999041	0.0409047	-0.0017274	1	0.0409411	-2.41816	0.0001881	3.436682	11	0.1590382	0.0065056	-327.6853
	51	106	0.7923428	0.0411089	-0.0017174	1	0.0411448	-2.39229	-4.188012E-005	3.436737	11	0.1591988	0.0065466	-327.6853
	52	113	0.6334459	0.0412985	-0.0017356	1	0.041335	-2.406501	-4.204112E-005	3.436772	11	0.1589832	0.0065692	-327.6853
	53	121	0.5040323	0.0414735	-0.0017794	1	0.0415117	-2.456804	-4.437004E-005	3.436816	11	0.158983	0.0065982	-327.6853
	54	132	0.400641	0.0416599	-0.001852	1	0.0417011	-2.545418	-4.162698E-005	3.436885	11	0.1589855	0.0066289	-327.6853
	55	146	0.316723	0.0418597	-0.0019546	1	0.0419053	-2.67346	-3.737576E-005	3.43697	11	0.1589891	0.0066619	-327.6853
	56	161	0.2520161	0.0420627	-0.002092	1	0.0421147	-2.847229	-4.452495E-005	3.43706	11	0.1589927	0.0066956	-327.6853
	57	182	0.2003205	0.0422651	-0.0022731	1	0.0423262	-3.078453	-4.315174E-005	3.437172	11	0.1589974	0.0067295	-327.6853
	58	203	0.1588983	0.042492	-0.0025	1	0.0425655	-3.367141	-4.196866E-005	3.437311	11	0.158997	0.0067676	-327.6853
	59	235	0.1260081	0.0427609	-0.0027724	1	0.0428506	-3.709601	-4.358454E-005	3.437591	11	0.1589996	0.0068131	-327.6853
	60	265	0.1001603	0.043054	-0.0031069	1	0.0431659	-4.127531	-4.933943E-005	3.438002	11	0.1589973	0.0068632	-327.6853
	61	311	0.0794492	0.0433749	-0.0035079	1	0.0435165	-4.623643	-4.342039E-005	3.438479	11	0.1590016	0.0069191	-327.6853
	62	363	0.0631739	0.0436417	-0.0039928	1	0.043824	-5.227494	-4.419804E-005	3.438564	11	0.1589985	0.0069679	-327.6853
	63	412	0.0501337	0.0440001	-0.0045558	1	0.0442353	-5.911417	-4.300947E-005	3.438763	11	0.1589997	0.0070334	-327.6853
	64	474	0.0398258	0.0444009	-0.0052262	1	0.0447075	-6.713072	-4.297873E-005	3.439034	11	0.1589995	0.0071085	-327.6853
	65	551	0.0316296	0.0448493	-0.0060086	1	0.04525	-7.630699	-4.270667E-005	3.439387	11	0.1590009	0.0071948	-327.6853
	66	647	0.0251206	0.0453541	-0.0069568	1	0.0458845	-8.720554	-4.232655E-005	3.439823	11	0.1589992	0.0072956	-327.6853
	67	768	0.0199553	0.0459273	-0.0080871	1	0.0466339	-9.98652	-4.343177E-005	3.440415	11	0.1589996	0.0074148	-327.6853
	68	970	0.0158522	0.0466209	-0.0094345	1	0.047566	-11.44024	-4.114186E-005	3.441186	11	0.1589997	0.007563	-327.6853
	69	1224	0.0125907	0.0474895	-0.0110364	1	0.0487551	-13.08315	-4.48916E-005	3.441984	11	0.1590003	0.0077521	-327.6853
	70	1464	0.0100011	0.0485621	-0.0128918	1	0.0502442	-14.8674	-4.392206E-005	3.442904	11	0.1589995	0.0079888	-327.6853
