EXPLAIN
TAG	GALVEIS
TITLE	LABEL	Galvanostatic EIS	Test Identifier
DATE	LABEL	22.6.2024	Date
TIME	LABEL	7:02:37	Time
NOTES	NOTES	1	Notes...
	
PSTAT	PSTAT	REF600-12055	Potentiostat
FREQINIT	QUANT	1.00000E+005	Initial Freq. (Hz)
FREQFINAL	QUANT	1.00000E-002	Final Freq. (Hz)
PTSPERDEC	QUANT	1.00000E+001	Points/decade
IACREQ	QUANT	1.59000E-001	AC Current (A rms)
IDCREQ	QUANT	0.00000E+000	DC Current (A)
AREA	QUANT	1.00000E+000	Sample Area (cm^2)
SPEED	SELECTOR	1	Optimize for:
DRIFTCOR	SELECTOR	0	Drift Correction
THD	SELECTOR	0	THD
ZGUESS	QUANT	1.00000E-001	Estimated Z (ohms)
EOC	QUANT	3.666315	Open Circuit (V)
SEQUENCER	TOGGLE	TRUE	Run as Sequence
PSTATMODEL	IQUANT	4	Pstat Model
PSTATSECTION	LABEL	REF600-12055	Pstat Section
PSTATSERIALNO	LABEL	12055	Pstat Serial Number
CTRLMODE	IQUANT	0	Control Mode
ELECTROMETER	IQUANT	0	RE=0 or CS=1
IESTAB	IQUANT	0	I/E Stability
CASPEED	IQUANT	4	Control Amp Speed
CONVENTION	IQUANT	1	Current Convention
ICHRANGE	IQUANT	2	Ich Range
ICHRANGEMODE	TOGGLE	F	Ich Auto Range
ICHOFFSETENABLE	TOGGLE	T	Ich Offset Enable
ICHOFFSET	QUANT	0	Ich Offset (V)
ICHFILTER	IQUANT	3	Ich Filter
VCHRANGE	IQUANT	2	Vch Range
VCHRANGEMODE	TOGGLE	F	Vch Auto Range
VCHOFFSETENABLE	TOGGLE	T	Vch Offset Enable
VCHOFFSET	QUANT	0	Vch Offset (V)
VCHFILTER	IQUANT	3	Vch Filter
ACHRANGE	IQUANT	2	Ach Range
ACHOFFSETENABLE	TOGGLE	F	Ach Offset Enable
ACHOFFSET	QUANT	0	Ach Offset (V)
ACHFILTER	IQUANT	1	Ach Filter
IERANGELOWERLIMIT	IQUANT	1	I/E Range Lower Limit
IERANGEMODE	TOGGLE	F	I/E AutoRange
IERANGE	IQUANT	7	I/E Range
POSFEEDENABLE	TOGGLE	F	Positive Feedback IR Comp
POSFEEDRESISTANCE	QUANT	0	Positive Feedback Resistance (ohm)
ACHSELECT	IQUANT	4	Ach Select
SENSECABLEID	IQUANT	14	Sense Cable ID
PWRCABLEID	IQUANT	14	Power Cable ID
DCCALDATE	LABEL	2/12/2024	DC Calibration Date
ACCALDATE	LABEL	2/12/2024	AC Calibration Date
THERMOSELECT	IQUANT	1	Thermo Select
FRAMEWORKVERSION	LABEL	7.10.3	Framework Version
INSTRUMENTVERSION	LABEL	4.91	Instrument Version
COMMVERSION	LABEL	2.24	Communications Version
CPUPLDVERSION	LABEL	0.00	CPU PLD Version
CTRLPLDVERSION	LABEL	0.00	CTRL PLD Version
PSTATPLDVERSION	LABEL	0.00	PSTAT PLD Version
ZCURVE	TABLE
	Pt	Time	Freq	Zreal	Zimag	Zsig	Zmod	Zphz	Idc	Vdc	IERange	Imod	Vmod	Temp
	#	s	Hz	ohm	ohm	V	ohm	°	A	V	#	A	V	°C
	0	5	100078.1	0.0976685	0.2349359	1	0.2544288	67.42616	1.439021E-005	3.666714	11	0.1596972	0.0403358	-327.6853
	1	7	79453.13	0.0827454	0.1946514	1	0.2115087	66.96989	-1.336448E-006	3.666741	11	0.1644135	0.0346141	-327.6853
	2	8	63140.62	0.0709654	0.1609248	1	0.1758774	66.20325	-1.112628E-005	3.666737	11	0.1620759	0.0284215	-327.6853
	3	10	50203.12	0.0617646	0.1327212	1	0.1463891	65.04411	-9.766896E-006	3.666747	11	0.1609848	0.0235221	-327.6853
	4	12	39890.62	0.0546369	0.1091647	1	0.1220743	63.41204	-1.294666E-005	3.66676	11	0.1603194	0.0195475	-327.6853
	5	14	31640.63	0.0491157	0.0895568	1	0.1021409	61.25829	-1.650112E-005	3.666755	11	0.1598717	0.0163171	-327.6853
	6	15	25171.88	0.0448585	0.0736865	1	0.0862669	58.66801	-1.746928E-005	3.666766	11	0.1595698	0.013759	-327.6853
	7	17	20015.62	0.0414242	0.0606662	1	0.0734599	55.67386	-3.065798E-005	3.666768	11	0.1593634	0.0117033	-327.6853
	8	19	15890.62	0.038553	0.0498983	1	0.0630569	52.30914	-2.218899E-005	3.666782	11	0.1592394	0.0100392	-327.6853
	9	20	12609.38	0.0361208	0.040964	1	0.0546146	48.59518	-1.752365E-005	3.666791	11	0.1591463	0.0086907	-327.6853
	10	22	10078.13	0.0341619	0.0337051	1	0.0479903	44.61435	-2.100208E-005	3.666786	11	0.1590864	0.007634	-327.6853
	11	24	8015.625	0.0325457	0.0274167	1	0.0425546	40.11096	-2.218853E-005	3.66681	11	0.1590565	0.0067683	-327.6853
	12	25	6328.125	0.0313016	0.0219503	1	0.0382309	35.04011	-2.036552E-005	3.666798	11	0.1590342	0.0060798	-327.6853
	13	27	5015.625	0.0304402	0.0174565	1	0.0350904	29.83282	-2.111075E-005	3.66682	11	0.159018	0.0055799	-327.6853
	14	28	3984.375	0.0298828	0.0137551	1	0.0328966	24.71671	-2.026686E-005	3.66683	11	0.1590058	0.0052307	-327.6853
	15	30	3170.956	0.0295647	0.0107287	1	0.0314512	19.94534	-2.893934E-005	3.666833	11	0.1590066	0.0050009	-327.6853
	16	31	2527.573	0.0294389	0.0082552	1	0.0305744	15.66437	-3.583857E-005	3.666827	11	0.1590059	0.0048615	-327.6853
	17	33	1976.103	0.0294376	0.0060779	1	0.0300585	11.66571	-2.954854E-005	3.666844	11	0.1589994	0.0047793	-327.6853
	18	35	1577.524	0.0295455	0.0044175	1	0.0298739	8.503607	-1.928327E-005	3.666858	11	0.1590002	0.0047499	-327.6853
	19	36	1265.625	0.0297173	0.0032037	1	0.0298895	6.153021	-2.347759E-005	3.666853	11	0.1590069	0.0047526	-327.6853
	20	38	998.264	0.0299303	0.0020399	1	0.0299997	3.898942	-2.222207E-005	3.666868	11	0.1589939	0.0047698	-327.6853
	21	39	796.875	0.030177	0.0012005	1	0.0302009	2.278171	-2.273649E-005	3.666869	11	0.1589994	0.0048019	-327.6853
	22	41	627.7902	0.0304555	0.0004601	1	0.030459	0.8655428	-2.81767E-005	3.66687	11	0.1589971	0.0048429	-327.6853
	23	42	505.5147	0.0307224	-3.180272E-005	1	0.0307224	-0.0593105	-2.12678E-005	3.66689	11	0.1576066	0.0048152	-327.6853
	24	44	397.9953	0.0310491	-0.0004811	1	0.0310528	-0.8877116	-2.192199E-005	3.666896	11	0.1606002	0.0049666	-327.6853
	25	45	315.5048	0.0313592	-0.000831	1	0.0313702	-1.517949	-2.039084E-005	3.666901	11	0.1593392	0.0049844	-327.6853
	26	47	252.4038	0.0316613	-0.0011111	1	0.0316808	-2.009854	-2.305474E-005	3.66691	11	0.1589654	0.0050266	-327.6853
	27	48	198.6229	0.0319944	-0.0013576	1	0.0320232	-2.429683	-3.260968E-005	3.666917	11	0.1588824	0.0050818	-327.6853
	28	50	158.3615	0.0323167	-0.0015394	1	0.0323534	-2.727287	-3.824034E-005	3.666921	11	0.1588887	0.0051366	-327.6853
	29	51	125.558	0.0326554	-0.0016894	1	0.0326991	-2.96148	-2.534362E-005	3.666931	11	0.1589095	0.0051936	-327.6853
	30	53	100.4464	0.0329873	-0.0018049	1	0.0330366	-3.131879	-3.626337E-005	3.666937	11	0.1589443	0.0052493	-327.6853
	31	55	79.00281	0.0333457	-0.0018926	1	0.0333993	-3.248504	-2.236379E-005	3.666944	11	0.158959	0.0053081	-327.6853
	32	56	63.3446	0.0336837	-0.0019503	1	0.0337401	-3.31379	-1.961831E-005	3.666955	11	0.1589714	0.005363	-327.6853
	33	58	50.22321	0.0340422	-0.0019876	1	0.0341001	-3.341521	-2.001243E-005	3.666958	11	0.1589763	0.0054207	-327.6853
	34	60	38.42213	0.0344565	-0.0019848	1	0.0345136	-3.296706	-2.07402E-005	3.666966	11	0.1589925	0.0054872	-327.6853
	35	61	31.25	0.0347661	-0.0019589	1	0.0348213	-3.224969	-2.718449E-005	3.666978	11	0.1589961	0.0055363	-327.6853
	36	63	24.93351	0.0350961	-0.0019139	1	0.0351482	-3.121441	-2.21224E-005	3.666982	11	0.1589957	0.0055883	-327.6853
	37	65	19.86229	0.03541	-0.001842	1	0.0354579	-2.977741	-9.495649E-006	3.666998	11	0.1589889	0.0056373	-327.6853
	38	66	15.625	0.0357166	-0.0017363	1	0.0357588	-2.783136	-2.067955E-005	3.666988	11	0.1589843	0.005685	-327.6853
	39	67	12.40079	0.0359872	-0.0016246	1	0.0360239	-2.584785	-6.35453E-006	3.667001	11	0.1590078	0.005728	-327.6853
	40	69	9.93114	0.0362135	-0.0015194	1	0.0362453	-2.402556	-1.876031E-005	3.667006	11	0.1590045	0.0057632	-327.6853
	41	71	7.944915	0.0364071	-0.0014102	1	0.0364344	-2.218241	-5.186873E-005	3.667025	11	0.1590033	0.0057932	-327.6853
	42	72	6.317385	0.0365846	-0.0013149	1	0.0366082	-2.058353	-1.818486E-005	3.667045	11	0.1589527	0.005819	-327.6853
	43	75	5.008013	0.0367429	-0.0012184	1	0.0367631	-1.899192	-5.22171E-005	3.667064	11	0.1590517	0.0058472	-327.6853
	44	77	3.945707	0.036892	-0.0011467	1	0.0369098	-1.780347	-1.836906E-005	3.667064	11	0.1589934	0.0058684	-327.6853
	45	79	3.158693	0.0370115	-0.0011062	1	0.0370281	-1.71188	-6.261602E-005	3.667081	11	0.1590183	0.0058881	-327.6853
	46	82	2.504006	0.037138	-0.0010713	1	0.0371534	-1.652368	-7.279473E-005	3.667107	11	0.1553751	0.0057487	-327.6853
	47	86	1.998082	0.0372587	-0.0010517	1	0.0372736	-1.616854	0.0001213	3.667153	11	0.1613924	0.0059975	-327.6853
	48	91	1.584686	0.0373705	-0.0010525	1	0.0373853	-1.61331	0.0002763	3.667171	11	0.1600366	0.0059708	-327.6853
	49	96	1.266892	0.0374831	-0.0010674	1	0.0374983	-1.631114	-0.0002413	3.667139	11	0.1592431	0.0059633	-327.6853
	50	102	0.999041	0.0376179	-0.0011121	1	0.0376344	-1.693324	-0.0001871	3.667136	11	0.1590357	0.0059801	-327.6853
	51	106	0.7923428	0.0377475	-0.001147	1	0.0377649	-1.740433	-4.122328E-005	3.66724	11	0.1592446	0.0060106	-327.6853
	52	113	0.6334459	0.0378684	-0.0012106	1	0.0378877	-1.831035	-4.346465E-005	3.667261	11	0.1589825	0.0060214	-327.6853
	53	122	0.5040323	0.0379945	-0.0012963	1	0.0380166	-1.954103	-4.23078E-005	3.667297	11	0.1589827	0.0060426	-327.6853
	54	134	0.400641	0.0381445	-0.0014065	1	0.0381704	-2.111763	-3.956314E-005	3.667348	11	0.1589861	0.0060677	-327.6853
	55	148	0.316723	0.0383019	-0.001542	1	0.038333	-2.305457	-4.363533E-005	3.667418	11	0.1589896	0.006094	-327.6853
	56	165	0.2520161	0.0384686	-0.0016905	1	0.0385057	-2.516194	-4.13205E-005	3.66749	11	0.1589936	0.0061218	-327.6853
	57	187	0.2003205	0.0386588	-0.0018687	1	0.0387039	-2.767498	-4.742185E-005	3.667578	11	0.1589969	0.0061536	-327.6853
	58	213	0.1588983	0.0388687	-0.0020907	1	0.0389248	-3.07896	-4.119353E-005	3.667689	11	0.1589968	0.0061888	-327.6853
	59	238	0.1260081	0.0391308	-0.0023189	1	0.0391995	-3.391404	-4.15961E-005	3.667889	11	0.1589982	0.0062326	-327.6853
	60	269	0.1001603	0.0394191	-0.0025943	1	0.0395044	-3.765456	-4.179247E-005	3.668187	11	0.158998	0.0062811	-327.6853
	61	315	0.0794492	0.0397227	-0.0029123	1	0.0398293	-4.19312	-4.333683E-005	3.668514	11	0.1589997	0.0063328	-327.6853
	62	367	0.0631739	0.0399579	-0.0032817	1	0.0400925	-4.695068	-4.183604E-005	3.668573	11	0.1590017	0.0063747	-327.6853
	63	432	0.0501337	0.0402907	-0.0037178	1	0.0404619	-5.272025	-4.259574E-005	3.668739	11	0.1589992	0.0064334	-327.6853
	64	493	0.0398258	0.040655	-0.0042163	1	0.040873	-5.921004	-4.422451E-005	3.668941	11	0.1589983	0.0064987	-327.6853
	65	570	0.0316296	0.0410769	-0.0048126	1	0.0413578	-6.6824	-4.364305E-005	3.66922	11	0.1590008	0.0065759	-327.6853
	66	698	0.0251206	0.041539	-0.0055214	1	0.0419044	-7.571395	-4.444882E-005	3.669609	11	0.1589993	0.0066628	-327.6853
	67	859	0.0199553	0.0420797	-0.0063506	1	0.0425562	-8.582228	-4.162085E-005	3.670055	11	0.1590006	0.0067665	-327.6853
	68	1061	0.0158522	0.0427015	-0.0073315	1	0.0433263	-9.7422	-4.247929E-005	3.670591	11	0.1590004	0.0068889	-327.6853
	69	1315	0.0125907	0.0434689	-0.0084999	1	0.0442921	-11.06399	-4.357643E-005	3.671194	11	0.1589985	0.0070424	-327.6853
	70	1634	0.0100011	0.0444065	-0.0098375	1	0.0454831	-12.4912	-3.901239E-005	3.671876	11	0.159001	0.0072319	-327.6853
