EXPLAIN
TAG	GALVEIS
TITLE	LABEL	Galvanostatic EIS	Test Identifier
DATE	LABEL	22.6.2024	Date
TIME	LABEL	4:27:01	Time
NOTES	NOTES	1	Notes...
	
PSTAT	PSTAT	REF600-12055	Potentiostat
FREQINIT	QUANT	1.00000E+005	Initial Freq. (Hz)
FREQFINAL	QUANT	1.00000E-002	Final Freq. (Hz)
PTSPERDEC	QUANT	1.00000E+001	Points/decade
IACREQ	QUANT	1.61000E-001	AC Current (A rms)
IDCREQ	QUANT	0.00000E+000	DC Current (A)
AREA	QUANT	1.00000E+000	Sample Area (cm^2)
SPEED	SELECTOR	1	Optimize for:
DRIFTCOR	SELECTOR	0	Drift Correction
THD	SELECTOR	0	THD
ZGUESS	QUANT	1.00000E-001	Estimated Z (ohms)
EOC	QUANT	3.858598	Open Circuit (V)
SEQUENCER	TOGGLE	TRUE	Run as Sequence
PSTATMODEL	IQUANT	4	Pstat Model
PSTATSECTION	LABEL	REF600-12055	Pstat Section
PSTATSERIALNO	LABEL	12055	Pstat Serial Number
CTRLMODE	IQUANT	0	Control Mode
ELECTROMETER	IQUANT	0	RE=0 or CS=1
IESTAB	IQUANT	0	I/E Stability
CASPEED	IQUANT	4	Control Amp Speed
CONVENTION	IQUANT	1	Current Convention
ICHRANGE	IQUANT	2	Ich Range
ICHRANGEMODE	TOGGLE	F	Ich Auto Range
ICHOFFSETENABLE	TOGGLE	T	Ich Offset Enable
ICHOFFSET	QUANT	0	Ich Offset (V)
ICHFILTER	IQUANT	3	Ich Filter
VCHRANGE	IQUANT	2	Vch Range
VCHRANGEMODE	TOGGLE	F	Vch Auto Range
VCHOFFSETENABLE	TOGGLE	T	Vch Offset Enable
VCHOFFSET	QUANT	0	Vch Offset (V)
VCHFILTER	IQUANT	3	Vch Filter
ACHRANGE	IQUANT	2	Ach Range
ACHOFFSETENABLE	TOGGLE	F	Ach Offset Enable
ACHOFFSET	QUANT	0	Ach Offset (V)
ACHFILTER	IQUANT	1	Ach Filter
IERANGELOWERLIMIT	IQUANT	1	I/E Range Lower Limit
IERANGEMODE	TOGGLE	F	I/E AutoRange
IERANGE	IQUANT	7	I/E Range
POSFEEDENABLE	TOGGLE	F	Positive Feedback IR Comp
POSFEEDRESISTANCE	QUANT	0	Positive Feedback Resistance (ohm)
ACHSELECT	IQUANT	4	Ach Select
SENSECABLEID	IQUANT	14	Sense Cable ID
PWRCABLEID	IQUANT	14	Power Cable ID
DCCALDATE	LABEL	2/12/2024	DC Calibration Date
ACCALDATE	LABEL	2/12/2024	AC Calibration Date
THERMOSELECT	IQUANT	1	Thermo Select
FRAMEWORKVERSION	LABEL	7.10.3	Framework Version
INSTRUMENTVERSION	LABEL	4.91	Instrument Version
COMMVERSION	LABEL	2.24	Communications Version
CPUPLDVERSION	LABEL	0.00	CPU PLD Version
CTRLPLDVERSION	LABEL	0.00	CTRL PLD Version
PSTATPLDVERSION	LABEL	0.00	PSTAT PLD Version
ZCURVE	TABLE
	Pt	Time	Freq	Zreal	Zimag	Zsig	Zmod	Zphz	Idc	Vdc	IERange	Imod	Vmod	Temp
	#	s	Hz	ohm	ohm	V	ohm	°	A	V	#	A	V	°C
	0	5	100078.1	0.097636	0.2348291	1	0.2543177	67.4237	2.997625E-005	3.859187	11	0.161645	0.0408099	-327.6853
	1	7	79453.13	0.082699	0.1945666	1	0.2114126	66.97246	1.781271E-005	3.859199	11	0.1664862	0.0350346	-327.6853
	2	9	63140.62	0.0708869	0.1608585	1	0.1757852	66.21794	1.523294E-006	3.859199	11	0.1640912	0.0287598	-327.6853
	3	10	50203.12	0.0616813	0.1326674	1	0.1463052	65.06479	-3.766341E-006	3.859202	11	0.1630102	0.0238044	-327.6853
	4	12	39890.62	0.0545471	0.1091201	1	0.1219942	63.44041	-2.032204E-005	3.85922	11	0.1623327	0.01978	-327.6853
	5	14	31640.63	0.0490156	0.0895298	1	0.1020691	61.30024	-9.298441E-006	3.859218	11	0.16188	0.0165105	-327.6853
	6	15	25171.88	0.0447577	0.0736612	1	0.0861929	58.71644	-1.03293E-005	3.859237	11	0.1615636	0.013919	-327.6853
	7	17	20015.62	0.0413283	0.0606455	1	0.0733887	55.7266	-2.756441E-005	3.85924	11	0.1613706	0.0118392	-327.6853
	8	19	15890.62	0.0384477	0.0498935	1	0.0629888	52.38227	-2.482231E-005	3.859248	11	0.16124	0.0101544	-327.6853
	9	21	12609.38	0.036021	0.0409616	1	0.0545469	48.67206	-2.662034E-005	3.85926	11	0.1611499	0.0087892	-327.6853
	10	22	10078.13	0.0340548	0.0337025	1	0.0479123	44.70209	-2.712721E-005	3.859267	11	0.1610833	0.0077173	-327.6853
	11	24	8015.625	0.0324363	0.027424	1	0.0424758	40.21354	-1.514179E-005	3.859275	11	0.1610638	0.006841	-327.6853
	12	25	6328.125	0.0311841	0.0219668	1	0.0381443	35.16172	-1.80325E-005	3.859284	11	0.1610317	0.0061423	-327.6853
	13	27	5015.625	0.0303229	0.0174794	1	0.0350001	29.96098	-2.33301E-005	3.859279	11	0.1610153	0.0056354	-327.6853
	14	28	3984.375	0.0297608	0.0137913	1	0.032801	24.86325	-2.804806E-005	3.859295	11	0.1610067	0.0052811	-327.6853
	15	30	3170.956	0.0294439	0.0107275	1	0.0313373	20.01855	-1.696253E-005	3.859299	11	0.1610064	0.0050455	-327.6853
	16	32	2527.573	0.0293046	0.0082756	1	0.0304507	15.7697	-1.864228E-005	3.859302	11	0.1610027	0.0049026	-327.6853
	17	33	1976.103	0.029306	0.006098	1	0.0299338	11.75438	-2.100121E-005	3.8593	11	0.1610055	0.0048195	-327.6853
	18	35	1577.524	0.0293979	0.0044999	1	0.0297403	8.702658	-1.993915E-005	3.859311	11	0.1609993	0.0047882	-327.6853
	19	36	1265.625	0.0295528	0.0031861	1	0.0297241	6.153301	-2.244627E-005	3.859313	11	0.1609991	0.0047855	-327.6853
	20	38	998.264	0.0297678	0.002064	1	0.0298393	3.966294	-1.473783E-005	3.859329	11	0.1609984	0.0048041	-327.6853
	21	40	796.875	0.0300097	0.0012724	1	0.0300366	2.427939	-1.954759E-005	3.859341	11	0.1610067	0.0048361	-327.6853
	22	41	627.7902	0.0303053	0.0005221	1	0.0303098	0.987083	-1.78825E-005	3.859332	11	0.1609992	0.0048799	-327.6853
	23	43	505.5147	0.0305375	2.617743E-005	1	0.0305375	0.0491152	-2.061157E-005	3.859354	11	0.159581	0.0048461	-327.6853
	24	44	397.9953	0.0308468	-0.0004194	1	0.0308497	-0.7790388	-3.173156E-005	3.85936	11	0.1626206	0.0049962	-327.6853
	25	46	315.5048	0.0311445	-0.0007756	1	0.0311541	-1.426493	-3.139069E-005	3.859367	11	0.1613467	0.0050125	-327.6853
	26	47	252.4038	0.0314437	-0.0010581	1	0.0314615	-1.927298	-3.288037E-005	3.859375	11	0.1609644	0.0050546	-327.6853
	27	49	198.6229	0.031761	-0.0013138	1	0.0317882	-2.368656	-1.936301E-005	3.859383	11	0.1608804	0.0051079	-327.6853
	28	50	158.3615	0.0320692	-0.0015061	1	0.0321045	-2.6889	-1.895369E-005	3.85939	11	0.1608833	0.0051611	-327.6853
	29	52	125.558	0.0324009	-0.0016735	1	0.0324441	-2.956658	-1.606101E-005	3.859396	11	0.1609134	0.0052181	-327.6853
	30	53	100.4464	0.032725	-0.0018005	1	0.0327745	-3.149181	-1.786993E-005	3.859393	11	0.1609408	0.0052731	-327.6853
	31	55	79.00281	0.033082	-0.0019114	1	0.0331371	-3.306768	-2.080435E-005	3.859403	11	0.1609579	0.0053326	-327.6853
	32	56	63.3446	0.033413	-0.0019831	1	0.0334718	-3.396612	-2.07423E-005	3.859411	11	0.1609704	0.0053873	-327.6853
	33	58	50.22321	0.033774	-0.0020375	1	0.0338354	-3.452407	-1.856129E-005	3.859407	11	0.1609835	0.0054465	-327.6853
	34	59	38.42213	0.0341909	-0.0020623	1	0.034253	-3.451742	-1.915309E-005	3.859426	11	0.1609858	0.005514	-327.6853
	35	61	31.25	0.0345155	-0.0020601	1	0.0345769	-3.415758	-1.255434E-005	3.859428	11	0.1610051	0.0055669	-327.6853
	36	63	24.93351	0.0348694	-0.0020296	1	0.0349284	-3.331195	-2.020126E-005	3.859439	11	0.1609908	0.005623	-327.6853
	37	64	19.86229	0.0352004	-0.0019789	1	0.035256	-3.217702	7.521478E-006	3.859449	11	0.1609752	0.0056753	-327.6853
	38	66	15.625	0.0355367	-0.0019027	1	0.0355876	-3.064811	-5.126232E-006	3.859441	11	0.1609975	0.0057295	-327.6853
	39	67	12.40079	0.0358389	-0.0018054	1	0.0358844	-2.883807	-1.752749E-005	3.859475	11	0.1610042	0.0057775	-327.6853
	40	69	9.93114	0.0360838	-0.0017139	1	0.0361245	-2.719439	-2.982911E-005	3.859471	11	0.1610124	0.0058165	-327.6853
	41	70	7.944915	0.0363092	-0.0016174	1	0.0363452	-2.550503	-3.251382E-005	3.859464	11	0.1609748	0.0058507	-327.6853
	42	72	6.317385	0.0365297	-0.0015288	1	0.0365617	-2.396535	-0.0001129	3.859456	11	0.1610413	0.0058879	-327.6853
	43	74	5.008013	0.0367175	-0.0014609	1	0.0367465	-2.278413	2.689171E-005	3.859448	11	0.1609505	0.0059144	-327.6853
	44	77	3.945707	0.0368852	-0.0013912	1	0.0369114	-2.159973	-6.492133E-006	3.859461	11	0.1610253	0.0059437	-327.6853
	45	79	3.158693	0.0370408	-0.0013596	1	0.0370658	-2.102144	8.077361E-005	3.859444	11	0.1609631	0.0059662	-327.6853
	46	81	2.504006	0.0372141	-0.0013407	1	0.0372382	-2.063265	1.032825E-005	3.859438	11	0.157413	0.0058374	-327.6853
	47	85	1.998082	0.0373623	-0.001332	1	0.037386	-2.041734	3.965216E-005	3.859453	11	0.1633617	0.006089	-327.6853
	48	88	1.584686	0.0375092	-0.0013731	1	0.0375343	-2.096437	-0.0001463	3.859468	11	0.1619335	0.0060657	-327.6853
	49	93	1.266892	0.0376595	-0.0014162	1	0.0376861	-2.153569	3.128502E-005	3.859575	11	0.1612799	0.0060698	-327.6853
	50	97	0.999041	0.0378128	-0.0014861	1	0.037842	-2.25068	-3.143606E-005	3.859597	11	0.1610774	0.0060902	-327.6853
	51	103	0.7923428	0.0379839	-0.0015705	1	0.0380163	-2.367636	-4.243679E-005	3.859628	11	0.1613242	0.0061296	-327.6853
	52	111	0.6334459	0.0381682	-0.0016866	1	0.0382054	-2.530241	-4.543917E-005	3.859662	11	0.1609839	0.0061483	-327.6853
	53	120	0.5040323	0.038354	-0.0018269	1	0.0383975	-2.727112	-4.399719E-005	3.859704	11	0.160983	0.00618	-327.6853
	54	132	0.400641	0.0385613	-0.0019839	1	0.0386123	-2.945082	-4.114151E-005	3.859756	11	0.1609855	0.0062151	-327.6853
	55	146	0.316723	0.0388039	-0.0021879	1	0.0388656	-3.227187	-4.629779E-005	3.859822	11	0.1609883	0.0062563	-327.6853
	56	160	0.2520161	0.039051	-0.0024067	1	0.0391251	-3.526642	-4.144303E-005	3.859884	11	0.1609955	0.0062986	-327.6853
	57	181	0.2003205	0.0393333	-0.002662	1	0.0394233	-3.871723	-4.132836E-005	3.859967	11	0.1609969	0.0063468	-327.6853
	58	203	0.1588983	0.0396328	-0.0029498	1	0.0397424	-4.256536	-4.087611E-005	3.860062	11	0.1609967	0.0063983	-327.6853
	59	228	0.1260081	0.0400074	-0.0032727	1	0.0401411	-4.67645	-4.035045E-005	3.860294	11	0.1609982	0.0064625	-327.6853
	60	258	0.1001603	0.0404333	-0.0036285	1	0.0405958	-5.128016	-4.168306E-005	3.860657	11	0.1609986	0.0065358	-327.6853
	61	294	0.0794492	0.040866	-0.0040362	1	0.0410648	-5.640612	-4.267104E-005	3.860995	11	0.1609991	0.0066114	-327.6853
	62	346	0.0631739	0.0412308	-0.0045191	1	0.0414777	-6.254978	-4.258089E-005	3.860956	11	0.1610008	0.0066779	-327.6853
	63	395	0.0501337	0.0416989	-0.0050732	1	0.0420064	-6.936613	-4.160251E-005	3.861057	11	0.1609993	0.006763	-327.6853
	64	477	0.0398258	0.0422142	-0.005697	1	0.0425969	-7.685887	-4.09869E-005	3.861232	11	0.1609994	0.0068581	-327.6853
	65	553	0.0316296	0.0427786	-0.0064203	1	0.0432577	-8.535422	-4.340095E-005	3.861416	11	0.1610003	0.0069645	-327.6853
	66	650	0.0251206	0.0433866	-0.0072706	1	0.0439916	-9.51311	-4.281256E-005	3.861659	11	0.1610002	0.0070827	-327.6853
	67	811	0.0199553	0.0440818	-0.0082625	1	0.0448495	-10.61603	-4.226576E-005	3.861978	11	0.1610011	0.0072208	-327.6853
	68	1013	0.0158522	0.044875	-0.0094541	1	0.0458601	-11.89686	-4.103285E-005	3.862329	11	0.1609999	0.0073835	-327.6853
	69	1267	0.0125907	0.0458357	-0.0108472	1	0.0471017	-13.31438	-4.217179E-005	3.862676	11	0.1610001	0.0075834	-327.6853
	70	1506	0.0100011	0.0469744	-0.0124715	1	0.0486018	-14.86881	-4.230304E-005	3.863051	11	0.1610006	0.0078249	-327.6853
