EXPLAIN
TAG	GALVEIS
TITLE	LABEL	Galvanostatic EIS	Test Identifier
DATE	LABEL	22.6.2024	Date
TIME	LABEL	12:09:43	Time
NOTES	NOTES	1	Notes...
	
PSTAT	PSTAT	REF600-12055	Potentiostat
FREQINIT	QUANT	1.00000E+005	Initial Freq. (Hz)
FREQFINAL	QUANT	1.00000E-002	Final Freq. (Hz)
PTSPERDEC	QUANT	1.00000E+001	Points/decade
IACREQ	QUANT	1.59000E-001	AC Current (A rms)
IDCREQ	QUANT	0.00000E+000	DC Current (A)
AREA	QUANT	1.00000E+000	Sample Area (cm^2)
SPEED	SELECTOR	1	Optimize for:
DRIFTCOR	SELECTOR	0	Drift Correction
THD	SELECTOR	0	THD
ZGUESS	QUANT	1.00000E-001	Estimated Z (ohms)
EOC	QUANT	3.241199	Open Circuit (V)
SEQUENCER	TOGGLE	TRUE	Run as Sequence
PSTATMODEL	IQUANT	4	Pstat Model
PSTATSECTION	LABEL	REF600-12055	Pstat Section
PSTATSERIALNO	LABEL	12055	Pstat Serial Number
CTRLMODE	IQUANT	0	Control Mode
ELECTROMETER	IQUANT	0	RE=0 or CS=1
IESTAB	IQUANT	0	I/E Stability
CASPEED	IQUANT	4	Control Amp Speed
CONVENTION	IQUANT	1	Current Convention
ICHRANGE	IQUANT	2	Ich Range
ICHRANGEMODE	TOGGLE	F	Ich Auto Range
ICHOFFSETENABLE	TOGGLE	T	Ich Offset Enable
ICHOFFSET	QUANT	0	Ich Offset (V)
ICHFILTER	IQUANT	3	Ich Filter
VCHRANGE	IQUANT	2	Vch Range
VCHRANGEMODE	TOGGLE	F	Vch Auto Range
VCHOFFSETENABLE	TOGGLE	T	Vch Offset Enable
VCHOFFSET	QUANT	0	Vch Offset (V)
VCHFILTER	IQUANT	3	Vch Filter
ACHRANGE	IQUANT	2	Ach Range
ACHOFFSETENABLE	TOGGLE	F	Ach Offset Enable
ACHOFFSET	QUANT	0	Ach Offset (V)
ACHFILTER	IQUANT	1	Ach Filter
IERANGELOWERLIMIT	IQUANT	1	I/E Range Lower Limit
IERANGEMODE	TOGGLE	F	I/E AutoRange
IERANGE	IQUANT	7	I/E Range
POSFEEDENABLE	TOGGLE	F	Positive Feedback IR Comp
POSFEEDRESISTANCE	QUANT	0	Positive Feedback Resistance (ohm)
ACHSELECT	IQUANT	4	Ach Select
SENSECABLEID	IQUANT	14	Sense Cable ID
PWRCABLEID	IQUANT	14	Power Cable ID
DCCALDATE	LABEL	2/12/2024	DC Calibration Date
ACCALDATE	LABEL	2/12/2024	AC Calibration Date
THERMOSELECT	IQUANT	1	Thermo Select
FRAMEWORKVERSION	LABEL	7.10.3	Framework Version
INSTRUMENTVERSION	LABEL	4.91	Instrument Version
COMMVERSION	LABEL	2.24	Communications Version
CPUPLDVERSION	LABEL	0.00	CPU PLD Version
CTRLPLDVERSION	LABEL	0.00	CTRL PLD Version
PSTATPLDVERSION	LABEL	0.00	PSTAT PLD Version
ZCURVE	TABLE
	Pt	Time	Freq	Zreal	Zimag	Zsig	Zmod	Zphz	Idc	Vdc	IERange	Imod	Vmod	Temp
	#	s	Hz	ohm	ohm	V	ohm	°	A	V	#	A	V	°C
	0	5	100078.1	0.0979637	0.2362409	1	0.2557473	67.47733	2.717995E-005	3.241606	11	0.1596775	0.0405398	-327.6853
	1	7	79453.13	0.0831066	0.1956368	1	0.212557	66.98419	7.897965E-006	3.241634	11	0.1643973	0.0347823	-327.6853
	2	8	63140.62	0.0713763	0.1616827	1	0.1767367	66.18051	-1.089161E-005	3.241685	11	0.1620614	0.0285578	-327.6853
	3	10	50203.12	0.0622127	0.1332983	1	0.1471015	64.98068	-1.093838E-005	3.241722	11	0.1609856	0.0236367	-327.6853
	4	12	39890.62	0.0551149	0.1096072	1	0.1226841	63.30494	-2.700259E-005	3.24176	11	0.1603143	0.0196445	-327.6853
	5	14	31640.63	0.0496084	0.0898968	1	0.1026763	61.10844	-1.908722E-005	3.241804	11	0.1598651	0.016402	-327.6853
	6	15	25171.88	0.0453604	0.0739497	1	0.0867533	58.47527	-2.106448E-005	3.241846	11	0.1595663	0.0138363	-327.6853
	7	17	20015.62	0.0419421	0.0608543	1	0.073908	55.42456	-2.324383E-005	3.2419	11	0.1593649	0.0117748	-327.6853
	8	19	15890.62	0.0390871	0.0500416	1	0.0634977	52.00689	-1.922017E-005	3.241939	11	0.1592301	0.0101088	-327.6853
	9	20	12609.38	0.0366611	0.0410686	1	0.0550515	48.24537	-2.213352E-005	3.24197	11	0.1591498	0.0087604	-327.6853
	10	22	10078.13	0.0347073	0.033777	1	0.0484301	44.22174	-2.235279E-005	3.242018	11	0.1590833	0.0077038	-327.6853
	11	24	8015.625	0.0330995	0.0274656	1	0.0430109	39.68553	-2.119737E-005	3.242062	11	0.159054	0.0068407	-327.6853
	12	25	6328.125	0.0318555	0.0219793	1	0.0387022	34.60445	-2.368318E-005	3.24209	11	0.1590367	0.0061549	-327.6853
	13	27	5015.625	0.0309917	0.0174561	1	0.0355696	29.39039	-2.232986E-005	3.242136	11	0.1590149	0.005656	-327.6853
	14	29	3984.375	0.0304488	0.0137359	1	0.0334036	24.28078	-2.203358E-005	3.242173	11	0.1590106	0.0053115	-327.6853
	15	30	3170.956	0.0301317	0.0106792	1	0.0319682	19.51517	-2.889184E-005	3.242201	11	0.1590094	0.0050832	-327.6853
	16	32	2527.573	0.0300036	0.0081497	1	0.0310907	15.19637	-2.443886E-005	3.242242	11	0.1589998	0.0049434	-327.6853
	17	34	1976.103	0.0300123	0.0060287	1	0.0306119	11.35809	-3.796315E-005	3.242289	11	0.1590054	0.0048674	-327.6853
	18	35	1577.524	0.0301143	0.0043992	1	0.0304339	8.311176	-3.06736E-005	3.242336	11	0.1589995	0.004839	-327.6853
	19	37	1265.625	0.030295	0.0030294	1	0.0304461	5.710438	-3.728305E-005	3.242358	11	0.1589943	0.0048408	-327.6853
	20	38	998.264	0.0305245	0.0019016	1	0.0305836	3.564842	-2.173481E-005	3.242399	11	0.1590018	0.0048628	-327.6853
	21	40	796.875	0.0307848	0.0010262	1	0.0308019	1.909312	-2.053322E-005	3.242437	11	0.1590014	0.0048975	-327.6853
	22	41	627.7902	0.0310839	0.0002809	1	0.0310852	0.5177021	-2.203038E-005	3.242476	11	0.1589985	0.0049425	-327.6853
	23	43	505.5147	0.0313798	-0.0002583	1	0.0313809	-0.4716078	-3.053294E-005	3.242512	11	0.1576017	0.0049182	-327.6853
	24	44	397.9953	0.0317301	-0.000747	1	0.0317389	-1.348696	-2.18529E-005	3.242551	11	0.1606024	0.0050764	-327.6853
	25	46	315.5048	0.0320762	-0.0011429	1	0.0320966	-2.040716	-3.095425E-005	3.242585	11	0.1593436	0.0051	-327.6853
	26	47	252.4038	0.0324145	-0.0014674	1	0.0324477	-2.59201	-2.534105E-005	3.242625	11	0.1589678	0.0051484	-327.6853
	27	49	198.6229	0.0327931	-0.0017688	1	0.0328408	-3.087509	-2.217898E-005	3.242661	11	0.1588782	0.0052114	-327.6853
	28	50	158.3615	0.0331629	-0.0020097	1	0.0332237	-3.467896	-2.341694E-005	3.242694	11	0.1588836	0.0052746	-327.6853
	29	52	125.558	0.0335502	-0.0022252	1	0.0336239	-3.794485	-3.518641E-005	3.242727	11	0.1589138	0.0053407	-327.6853
	30	53	100.4464	0.033937	-0.0024176	1	0.034023	-4.074714	-3.864372E-005	3.242763	11	0.1589441	0.005406	-327.6853
	31	55	79.00281	0.0343621	-0.0025949	1	0.0344599	-4.318536	-2.352125E-005	3.242803	11	0.158955	0.0054765	-327.6853
	32	57	63.3446	0.0347672	-0.0027493	1	0.0348757	-4.521344	-2.302072E-005	3.242847	11	0.1589733	0.0055436	-327.6853
	33	58	50.22321	0.0351997	-0.0029044	1	0.0353194	-4.716947	-2.360265E-005	3.242888	11	0.1589798	0.0056146	-327.6853
	34	60	38.42213	0.0357132	-0.0030835	1	0.0358461	-4.934742	-2.004101E-005	3.242916	11	0.1589954	0.0056991	-327.6853
	35	62	31.25	0.036128	-0.0032223	1	0.0362714	-5.096801	-3.579957E-005	3.242969	11	0.1589877	0.0057665	-327.6853
	36	63	24.93351	0.0365803	-0.0033771	1	0.0367358	-5.27467	-2.367655E-005	3.242992	11	0.1589967	0.0058408	-327.6853
	37	65	19.86229	0.037078	-0.0035612	1	0.0372486	-5.486196	-5.240203E-005	3.243046	11	0.1589786	0.0059217	-327.6853
	38	66	15.625	0.0376129	-0.0037443	1	0.0377988	-5.684934	-2.940319E-005	3.243046	11	0.1590094	0.0060103	-327.6853
	39	68	12.40079	0.0381675	-0.0039534	1	0.0383717	-5.91362	-2.100527E-005	3.243064	11	0.1589985	0.006101	-327.6853
	40	69	9.93114	0.0387137	-0.0041579	1	0.0389363	-6.130189	-9.527721E-006	3.243142	11	0.1590042	0.006191	-327.6853
	41	71	7.944915	0.0393385	-0.004369	1	0.0395803	-6.337402	-5.390542E-005	3.243186	11	0.1589995	0.0062932	-327.6853
	42	73	6.317385	0.0400186	-0.0045925	1	0.0402812	-6.546509	-5.496768E-005	3.243257	11	0.1589581	0.006403	-327.6853
	43	75	5.008013	0.0407801	-0.0047955	1	0.0410611	-6.706774	-3.520395E-005	3.243324	11	0.1590514	0.0065308	-327.6853
	44	78	3.945707	0.0416283	-0.004979	1	0.041925	-6.8205	6.139395E-006	3.243356	11	0.1589712	0.0066649	-327.6853
	45	81	3.158693	0.0424633	-0.0050789	1	0.042766	-6.820609	3.680424E-005	3.243399	11	0.1590211	0.0068007	-327.6853
	46	83	2.504006	0.0433336	-0.0050772	1	0.04363	-6.682615	-6.900949E-005	3.243472	11	0.1554079	0.0067522	-327.6853
	47	86	1.998082	0.0441565	-0.0050498	1	0.0444443	-6.524094	0.0002412	3.243628	11	0.1615269	0.0071573	-327.6853
	48	90	1.584686	0.0450053	-0.0049469	1	0.0452764	-6.272634	0.0002425	3.243703	11	0.1598603	0.0072232	-327.6853
	49	94	1.266892	0.0457342	-0.0048447	1	0.0459901	-6.046866	-0.0002774	3.243832	11	0.1593197	0.0073172	-327.6853
	50	99	0.999041	0.0464598	-0.0047065	1	0.0466976	-5.784492	-0.0002882	3.243888	11	0.1590981	0.0074231	-327.6853
	51	104	0.7923428	0.0471116	-0.0045188	1	0.0473278	-5.4789	-4.44295E-005	3.244105	11	0.1591233	0.0075268	-327.6853
	52	111	0.6334459	0.0476626	-0.004409	1	0.0478661	-5.285044	-4.562957E-005	3.244266	11	0.1589824	0.0076072	-327.6853
	53	119	0.5040323	0.0481722	-0.0043266	1	0.0483661	-5.132277	-4.237745E-005	3.244475	11	0.1589823	0.0076876	-327.6853
	54	128	0.400641	0.0486477	-0.0043086	1	0.0488382	-5.061326	-4.657525E-005	3.244743	11	0.158985	0.0077634	-327.6853
	55	142	0.316723	0.0491074	-0.0043589	1	0.0493004	-5.072401	-4.314762E-005	3.245097	11	0.1589909	0.0078376	-327.6853
	56	159	0.2520161	0.0495398	-0.0044898	1	0.0497428	-5.17854	-4.722115E-005	3.245546	11	0.1589938	0.0079083	-327.6853
	57	181	0.2003205	0.0499741	-0.0047027	1	0.0501949	-5.375913	-4.349129E-005	3.246081	11	0.1589949	0.0079804	-327.6853
	58	207	0.1588983	0.0504269	-0.0050045	1	0.0506747	-5.667678	-4.700918E-005	3.24668	11	0.1589987	0.008057	-327.6853
	59	232	0.1260081	0.0509066	-0.0053998	1	0.0511921	-6.054881	-4.012652E-005	3.247632	11	0.1589965	0.0081393	-327.6853
	60	271	0.1001603	0.0514201	-0.0058848	1	0.0517558	-6.528805	-4.577054E-005	3.249096	11	0.1590003	0.0082291	-327.6853
	61	317	0.0794492	0.0519991	-0.0064958	1	0.0524032	-7.120605	-4.099033E-005	3.250769	11	0.1589976	0.0083319	-327.6853
	62	356	0.0631739	0.0524248	-0.007252	1	0.052924	-7.875775	-4.59963E-005	3.251484	11	0.158999	0.0084148	-327.6853
	63	405	0.0501337	0.0529459	-0.0081666	1	0.053572	-8.76841	-4.449362E-005	3.252486	11	0.1590022	0.0085181	-327.6853
	64	467	0.0398258	0.0534883	-0.009262	1	0.0542843	-9.82389	-4.569613E-005	3.253831	11	0.1590001	0.0086312	-327.6853
	65	544	0.0316296	0.0540519	-0.0106029	1	0.055082	-11.09829	-4.326664E-005	3.255703	11	0.1589983	0.0087579	-327.6853
	66	672	0.0251206	0.0546363	-0.0122535	1	0.0559935	-12.64084	-4.525435E-005	3.257906	11	0.1590006	0.008903	-327.6853
	67	793	0.0199553	0.0552866	-0.014318	1	0.0571106	-14.51937	-4.400243E-005	3.260567	11	0.1589993	0.0090805	-327.6853
	68	995	0.0158522	0.0560762	-0.0168175	1	0.0585438	-16.69422	-4.152306E-005	3.264007	11	0.1590006	0.0093085	-327.6853
	69	1248	0.0125907	0.0570808	-0.019826	1	0.0604259	-19.15379	-4.299608E-005	3.267954	11	0.1589999	0.0096077	-327.6853
	70	1568	0.0100011	0.0583874	-0.0233707	1	0.062891	-21.81469	-4.163011E-005	3.272482	11	0.1589985	0.0099996	-327.6853
