EXPLAIN
TAG	GALVEIS
TITLE	LABEL	Galvanostatic EIS	Test Identifier
DATE	LABEL	22.6.2024	Date
TIME	LABEL	1:49:19	Time
NOTES	NOTES	1	Notes...
	
PSTAT	PSTAT	REF600-12055	Potentiostat
FREQINIT	QUANT	1.00000E+005	Initial Freq. (Hz)
FREQFINAL	QUANT	1.00000E-002	Final Freq. (Hz)
PTSPERDEC	QUANT	1.00000E+001	Points/decade
IACREQ	QUANT	1.59000E-001	AC Current (A rms)
IDCREQ	QUANT	0.00000E+000	DC Current (A)
AREA	QUANT	1.00000E+000	Sample Area (cm^2)
SPEED	SELECTOR	1	Optimize for:
DRIFTCOR	SELECTOR	0	Drift Correction
THD	SELECTOR	0	THD
ZGUESS	QUANT	1.00000E-001	Estimated Z (ohms)
EOC	QUANT	4.035984	Open Circuit (V)
SEQUENCER	TOGGLE	TRUE	Run as Sequence
PSTATMODEL	IQUANT	4	Pstat Model
PSTATSECTION	LABEL	REF600-12055	Pstat Section
PSTATSERIALNO	LABEL	12055	Pstat Serial Number
CTRLMODE	IQUANT	0	Control Mode
ELECTROMETER	IQUANT	0	RE=0 or CS=1
IESTAB	IQUANT	0	I/E Stability
CASPEED	IQUANT	4	Control Amp Speed
CONVENTION	IQUANT	1	Current Convention
ICHRANGE	IQUANT	2	Ich Range
ICHRANGEMODE	TOGGLE	F	Ich Auto Range
ICHOFFSETENABLE	TOGGLE	T	Ich Offset Enable
ICHOFFSET	QUANT	0	Ich Offset (V)
ICHFILTER	IQUANT	3	Ich Filter
VCHRANGE	IQUANT	2	Vch Range
VCHRANGEMODE	TOGGLE	F	Vch Auto Range
VCHOFFSETENABLE	TOGGLE	T	Vch Offset Enable
VCHOFFSET	QUANT	0	Vch Offset (V)
VCHFILTER	IQUANT	3	Vch Filter
ACHRANGE	IQUANT	2	Ach Range
ACHOFFSETENABLE	TOGGLE	F	Ach Offset Enable
ACHOFFSET	QUANT	0	Ach Offset (V)
ACHFILTER	IQUANT	1	Ach Filter
IERANGELOWERLIMIT	IQUANT	1	I/E Range Lower Limit
IERANGEMODE	TOGGLE	F	I/E AutoRange
IERANGE	IQUANT	7	I/E Range
POSFEEDENABLE	TOGGLE	F	Positive Feedback IR Comp
POSFEEDRESISTANCE	QUANT	0	Positive Feedback Resistance (ohm)
ACHSELECT	IQUANT	4	Ach Select
SENSECABLEID	IQUANT	14	Sense Cable ID
PWRCABLEID	IQUANT	14	Power Cable ID
DCCALDATE	LABEL	2/12/2024	DC Calibration Date
ACCALDATE	LABEL	2/12/2024	AC Calibration Date
THERMOSELECT	IQUANT	1	Thermo Select
FRAMEWORKVERSION	LABEL	7.10.3	Framework Version
INSTRUMENTVERSION	LABEL	4.91	Instrument Version
COMMVERSION	LABEL	2.24	Communications Version
CPUPLDVERSION	LABEL	0.00	CPU PLD Version
CTRLPLDVERSION	LABEL	0.00	CTRL PLD Version
PSTATPLDVERSION	LABEL	0.00	PSTAT PLD Version
ZCURVE	TABLE
	Pt	Time	Freq	Zreal	Zimag	Zsig	Zmod	Zphz	Idc	Vdc	IERange	Imod	Vmod	Temp
	#	s	Hz	ohm	ohm	V	ohm	°	A	V	#	A	V	°C
	0	5	100078.1	0.097643	0.2348901	1	0.2543768	67.42751	2.79299E-005	4.036262	11	0.1597075	0.0403301	-327.6853
	1	7	79453.13	0.082629	0.194611	1	0.2114261	66.99462	1.370965E-005	4.036274	11	0.1643766	0.0345928	-327.6853
	2	8	63140.62	0.0707931	0.1608743	1	0.1757618	66.248	2.975226E-006	4.036261	11	0.1620741	0.0284025	-327.6853
	3	10	50203.12	0.0615644	0.1326676	1	0.1462562	65.10634	-9.07804E-006	4.036272	11	0.1609837	0.0235006	-327.6853
	4	12	39890.62	0.0544377	0.1091103	1	0.1219366	63.48432	-1.496228E-005	4.036276	11	0.1603157	0.019525	-327.6853
	5	13	31640.63	0.0489147	0.0895065	1	0.1020002	61.3437	-1.568079E-005	4.036275	11	0.159873	0.0162948	-327.6853
	6	15	25171.88	0.044659	0.0736527	1	0.0861345	58.76967	-1.523562E-005	4.036276	11	0.1595613	0.0137372	-327.6853
	7	17	20015.62	0.0412327	0.0606443	1	0.0733339	55.78779	-1.592323E-005	4.036285	11	0.1593687	0.0116836	-327.6853
	8	19	15890.62	0.0383582	0.0498867	1	0.0629288	52.44305	-2.004765E-005	4.036274	11	0.1592337	0.0100185	-327.6853
	9	20	12609.38	0.0359328	0.0409728	1	0.0544971	48.74949	-3.286137E-005	4.036272	11	0.159142	0.0086717	-327.6853
	10	22	10078.13	0.0339574	0.0337215	1	0.0478564	44.8003	-3.466621E-005	4.036288	11	0.1590889	0.0076128	-327.6853
	11	23	8015.625	0.0323456	0.0274468	1	0.0424213	40.3162	-3.198704E-005	4.036289	11	0.1590594	0.0067472	-327.6853
	12	25	6328.125	0.0310869	0.021983	1	0.0380742	35.26591	-2.972141E-005	4.036291	11	0.1590287	0.0060547	-327.6853
	13	26	5015.625	0.0302142	0.0175029	1	0.0349177	30.08345	-2.413991E-005	4.036278	11	0.1590184	0.0055525	-327.6853
	14	28	3984.375	0.0296548	0.0138188	1	0.0327164	24.98493	-1.981435E-005	4.036283	11	0.1590087	0.0052021	-327.6853
	15	30	3170.956	0.0293327	0.0108023	1	0.0312585	20.21713	-1.906359E-005	4.036299	11	0.1590078	0.0049703	-327.6853
	16	31	2527.573	0.0291956	0.0083399	1	0.0303634	15.94231	-2.215768E-005	4.036301	11	0.1590067	0.004828	-327.6853
	17	33	1976.103	0.0291835	0.0061076	1	0.0298158	11.82045	-2.297037E-005	4.036293	11	0.1589986	0.0047407	-327.6853
	18	34	1577.524	0.0292669	0.0045972	1	0.0296258	8.926904	-2.111155E-005	4.036296	11	0.1590049	0.0047106	-327.6853
	19	36	1265.625	0.0294144	0.0032491	1	0.0295933	6.303341	-3.298663E-005	4.0363	11	0.1589923	0.0047051	-327.6853
	20	37	998.264	0.0296054	0.0021527	1	0.0296836	4.158914	-3.41147E-005	4.036298	11	0.1589976	0.0047196	-327.6853
	21	39	796.875	0.0298283	0.0013105	1	0.029857	2.515653	-1.922029E-005	4.03631	11	0.159004	0.0047474	-327.6853
	22	40	627.7902	0.030079	0.000664	1	0.0300864	1.264634	-3.190988E-005	4.036318	11	0.1590067	0.0047839	-327.6853
	23	42	505.5147	0.0303358	0.0001037	1	0.030336	0.1958828	-3.258046E-005	4.036318	11	0.1575954	0.0047543	-327.6853
	24	43	397.9953	0.0306296	-0.0003454	1	0.0306316	-0.6461396	-2.121029E-005	4.036317	11	0.1606018	0.0048993	-327.6853
	25	45	315.5048	0.0309141	-0.0007009	1	0.030922	-1.298802	-2.136012E-005	4.036323	11	0.1593412	0.0049133	-327.6853
	26	46	252.4038	0.0311893	-0.0009931	1	0.0312051	-1.823735	-2.112333E-005	4.036325	11	0.1589638	0.0049511	-327.6853
	27	48	198.6229	0.0314953	-0.0012605	1	0.0315205	-2.291906	-2.082881E-005	4.036324	11	0.1588821	0.005002	-327.6853
	28	49	158.3615	0.0317845	-0.0014632	1	0.0318182	-2.635757	-2.268131E-005	4.036331	11	0.1588883	0.0050516	-327.6853
	29	51	125.558	0.0320973	-0.0016393	1	0.0321392	-2.923768	-2.476794E-005	4.036333	11	0.1589094	0.0051047	-327.6853
	30	52	100.4464	0.0324081	-0.0017901	1	0.0324575	-3.161646	-2.801744E-005	4.03633	11	0.1589435	0.0051573	-327.6853
	31	54	79.00281	0.0327511	-0.0019231	1	0.0328075	-3.360493	-2.346234E-005	4.036331	11	0.158958	0.005214	-327.6853
	32	56	63.3446	0.0330802	-0.0020323	1	0.0331425	-3.515495	-2.161239E-005	4.036335	11	0.1589733	0.0052681	-327.6853
	33	57	50.22321	0.0334363	-0.0021217	1	0.0335035	-3.630862	-2.368179E-005	4.036341	11	0.1589802	0.005326	-327.6853
	34	59	38.42213	0.0338571	-0.0022177	1	0.0339297	-3.747704	-2.046779E-005	4.036336	11	0.1589934	0.0053943	-327.6853
	35	60	31.25	0.034193	-0.0022696	1	0.0342682	-3.797582	-3.253605E-005	4.036349	11	0.1590004	0.0054485	-327.6853
	36	62	24.93351	0.0345768	-0.002297	1	0.034653	-3.800738	-2.32741E-005	4.036345	11	0.1589835	0.0055091	-327.6853
	37	63	19.86229	0.0349625	-0.0023152	1	0.035039	-3.788527	-3.365451E-006	4.03636	11	0.1589937	0.0055709	-327.6853
	38	65	15.625	0.0353666	-0.0023045	1	0.0354416	-3.728123	-1.059484E-005	4.036355	11	0.1589913	0.0056349	-327.6853
	39	66	12.40079	0.0357669	-0.0022667	1	0.0358387	-3.626165	-1.223572E-005	4.036377	11	0.1589995	0.0056983	-327.6853
	40	68	9.93114	0.0361047	-0.0021843	1	0.0361707	-3.462125	1.348008E-005	4.036381	11	0.1589834	0.0057505	-327.6853
	41	69	7.944915	0.036439	-0.0021252	1	0.036501	-3.33782	-2.606719E-005	4.036354	11	0.1590022	0.0058037	-327.6853
	42	71	6.317385	0.0367524	-0.002026	1	0.0368082	-3.155269	-3.952614E-005	4.036385	11	0.1589827	0.0058519	-327.6853
	43	73	5.008013	0.0370449	-0.001928	1	0.037095	-2.979336	-8.63747E-005	4.036407	11	0.1590068	0.0058984	-327.6853
	44	75	3.945707	0.0373114	-0.0018316	1	0.0373563	-2.810313	-5.02402E-005	4.036407	11	0.1590213	0.0059404	-327.6853
	45	78	3.158693	0.0375434	-0.0017613	1	0.0375847	-2.686021	-0.0001356	4.036433	11	0.158961	0.0059745	-327.6853
	46	81	2.504006	0.0377745	-0.0016835	1	0.037812	-2.551821	-3.34841E-005	4.036442	11	0.1554749	0.0058544	-327.6853
	47	85	1.998082	0.0379594	-0.0016391	1	0.0379948	-2.472589	-0.0001764	4.03643	11	0.1613808	0.0061132	-327.6853
	48	89	1.584686	0.0381467	-0.0016309	1	0.0381816	-2.448032	-1.015152E-005	4.036439	11	0.159821	0.0060898	-327.6853
	49	95	1.266892	0.0383315	-0.0016383	1	0.0383665	-2.447279	3.988799E-005	4.036369	11	0.1593236	0.0061044	-327.6853
	50	100	0.999041	0.0385245	-0.0016662	1	0.0385605	-2.476547	0.0000957	4.036385	11	0.1591078	0.00613	-327.6853
	51	106	0.7923428	0.0387431	-0.001718	1	0.0387812	-2.53903	-3.755902E-005	4.0365	11	0.1592764	0.0061735	-327.6853
	52	112	0.6334459	0.0389164	-0.0018154	1	0.0389588	-2.670882	-4.39907E-005	4.036485	11	0.1589839	0.0061916	-327.6853
	53	120	0.5040323	0.0391204	-0.0019232	1	0.0391676	-2.81446	-4.232055E-005	4.036497	11	0.1589826	0.0062256	-327.6853
	54	130	0.400641	0.0393476	-0.0020686	1	0.0394019	-3.009412	-4.329465E-005	4.036516	11	0.1589856	0.0062634	-327.6853
	55	141	0.316723	0.0396035	-0.0022416	1	0.0396669	-3.239508	-4.707355E-005	4.036529	11	0.1589891	0.006306	-327.6853
	56	155	0.2520161	0.0398499	-0.0024464	1	0.0399249	-3.513	-4.466159E-005	4.036541	11	0.1589941	0.0063475	-327.6853
	57	177	0.2003205	0.0401478	-0.0026763	1	0.0402369	-3.81382	-4.386235E-005	4.036567	11	0.1589968	0.0063973	-327.6853
	58	198	0.1588983	0.0404516	-0.0029495	1	0.040559	-4.170366	-4.403257E-005	4.03659	11	0.1589962	0.0064486	-327.6853
	59	230	0.1260081	0.0408518	-0.0032547	1	0.0409812	-4.555134	-4.620216E-005	4.036732	11	0.1589981	0.0065158	-327.6853
	60	260	0.1001603	0.0412925	-0.0035901	1	0.0414482	-4.968951	-4.17488E-005	4.036976	11	0.159	0.0065902	-327.6853
	61	296	0.0794492	0.041738	-0.0039847	1	0.0419278	-5.453427	-4.284904E-005	4.037164	11	0.1589984	0.0066664	-327.6853
	62	348	0.0631739	0.0421164	-0.0044566	1	0.0423516	-6.040319	-4.361271E-005	4.037011	11	0.1589991	0.0067338	-327.6853
	63	413	0.0501337	0.0426317	-0.0049766	1	0.0429212	-6.658266	-4.351049E-005	4.037003	11	0.1590012	0.0068245	-327.6853
	64	474	0.0398258	0.043214	-0.0055672	1	0.0435711	-7.340854	-4.220424E-005	4.037013	11	0.1589999	0.0069278	-327.6853
	65	551	0.0316296	0.0438188	-0.0062355	1	0.0442602	-8.098891	-4.325593E-005	4.037012	11	0.1589998	0.0070374	-327.6853
	66	679	0.0251206	0.0445122	-0.007017	1	0.0450619	-8.958549	-4.361184E-005	4.037036	11	0.1590016	0.0071649	-327.6853
	67	800	0.0199553	0.0452768	-0.0079135	1	0.0459632	-9.91401	-4.290536E-005	4.037028	11	0.1589995	0.0073081	-327.6853
	68	1002	0.0158522	0.0461397	-0.0089739	1	0.0470043	-11.00627	-4.244568E-005	4.036976	11	0.1589993	0.0074737	-327.6853
	69	1256	0.0125907	0.0472116	-0.01024	1	0.0483093	-12.23761	-4.202596E-005	4.036846	11	0.1590004	0.0076812	-327.6853
	70	1575	0.0100011	0.0485964	-0.0117031	1	0.0499857	-13.54029	-4.196762E-005	4.036654	11	0.1589999	0.0079477	-327.6853
