EXPLAIN
TAG	GALVEIS
TITLE	LABEL	Galvanostatic EIS	Test Identifier
DATE	LABEL	22.6.2024	Date
TIME	LABEL	8:29:33	Time
NOTES	NOTES	1	Notes...
	
PSTAT	PSTAT	REF600-12055	Potentiostat
FREQINIT	QUANT	1.00000E+005	Initial Freq. (Hz)
FREQFINAL	QUANT	1.00000E-002	Final Freq. (Hz)
PTSPERDEC	QUANT	1.00000E+001	Points/decade
IACREQ	QUANT	1.59000E-001	AC Current (A rms)
IDCREQ	QUANT	0.00000E+000	DC Current (A)
AREA	QUANT	1.00000E+000	Sample Area (cm^2)
SPEED	SELECTOR	1	Optimize for:
DRIFTCOR	SELECTOR	0	Drift Correction
THD	SELECTOR	0	THD
ZGUESS	QUANT	1.00000E-001	Estimated Z (ohms)
EOC	QUANT	3.605266	Open Circuit (V)
SEQUENCER	TOGGLE	TRUE	Run as Sequence
PSTATMODEL	IQUANT	4	Pstat Model
PSTATSECTION	LABEL	REF600-12055	Pstat Section
PSTATSERIALNO	LABEL	12055	Pstat Serial Number
CTRLMODE	IQUANT	0	Control Mode
ELECTROMETER	IQUANT	0	RE=0 or CS=1
IESTAB	IQUANT	0	I/E Stability
CASPEED	IQUANT	4	Control Amp Speed
CONVENTION	IQUANT	1	Current Convention
ICHRANGE	IQUANT	2	Ich Range
ICHRANGEMODE	TOGGLE	F	Ich Auto Range
ICHOFFSETENABLE	TOGGLE	T	Ich Offset Enable
ICHOFFSET	QUANT	0	Ich Offset (V)
ICHFILTER	IQUANT	3	Ich Filter
VCHRANGE	IQUANT	2	Vch Range
VCHRANGEMODE	TOGGLE	F	Vch Auto Range
VCHOFFSETENABLE	TOGGLE	T	Vch Offset Enable
VCHOFFSET	QUANT	0	Vch Offset (V)
VCHFILTER	IQUANT	3	Vch Filter
ACHRANGE	IQUANT	2	Ach Range
ACHOFFSETENABLE	TOGGLE	F	Ach Offset Enable
ACHOFFSET	QUANT	0	Ach Offset (V)
ACHFILTER	IQUANT	1	Ach Filter
IERANGELOWERLIMIT	IQUANT	1	I/E Range Lower Limit
IERANGEMODE	TOGGLE	F	I/E AutoRange
IERANGE	IQUANT	7	I/E Range
POSFEEDENABLE	TOGGLE	F	Positive Feedback IR Comp
POSFEEDRESISTANCE	QUANT	0	Positive Feedback Resistance (ohm)
ACHSELECT	IQUANT	4	Ach Select
SENSECABLEID	IQUANT	14	Sense Cable ID
PWRCABLEID	IQUANT	14	Power Cable ID
DCCALDATE	LABEL	2/12/2024	DC Calibration Date
ACCALDATE	LABEL	2/12/2024	AC Calibration Date
THERMOSELECT	IQUANT	1	Thermo Select
FRAMEWORKVERSION	LABEL	7.10.3	Framework Version
INSTRUMENTVERSION	LABEL	4.91	Instrument Version
COMMVERSION	LABEL	2.24	Communications Version
CPUPLDVERSION	LABEL	0.00	CPU PLD Version
CTRLPLDVERSION	LABEL	0.00	CTRL PLD Version
PSTATPLDVERSION	LABEL	0.00	PSTAT PLD Version
ZCURVE	TABLE
	Pt	Time	Freq	Zreal	Zimag	Zsig	Zmod	Zphz	Idc	Vdc	IERange	Imod	Vmod	Temp
	#	s	Hz	ohm	ohm	V	ohm	°	A	V	#	A	V	°C
	0	5	100078.1	0.0976385	0.235058	1	0.25453	67.44296	2.810918E-005	3.605462	11	0.1596912	0.0403503	-327.6853
	1	7	79453.13	0.0827502	0.1947259	1	0.2115792	66.97656	1.390232E-006	3.605464	11	0.1644311	0.0346294	-327.6853
	2	9	63140.62	0.0709821	0.1609724	1	0.1759278	66.20453	6.156624E-007	3.605494	11	0.1620741	0.0284293	-327.6853
	3	10	50203.12	0.0617854	0.1327546	1	0.1464282	65.04225	-5.227746E-006	3.605484	11	0.160987	0.0235287	-327.6853
	4	12	39890.62	0.0546609	0.1091877	1	0.1221056	63.4068	-1.153967E-005	3.605505	11	0.1603227	0.0195529	-327.6853
	5	14	31640.63	0.0491409	0.0895777	1	0.1021714	61.25152	-9.945943E-006	3.605517	11	0.1598697	0.0163218	-327.6853
	6	15	25171.88	0.0448819	0.0736993	1	0.08629	58.65913	-1.522736E-005	3.605521	11	0.1595676	0.0137625	-327.6853
	7	17	20015.62	0.0414544	0.0606677	1	0.0734782	55.65514	-1.538405E-005	3.60553	11	0.1593705	0.0117067	-327.6853
	8	19	15890.62	0.038585	0.0499005	1	0.0630782	52.28744	-2.564234E-005	3.60554	11	0.1592399	0.0100426	-327.6853
	9	20	12609.38	0.0361626	0.0409651	1	0.0546432	48.56302	-2.212462E-005	3.605539	11	0.1591385	0.0086948	-327.6853
	10	22	10078.13	0.0341963	0.0336985	1	0.0480101	44.57988	-2.00955E-005	3.60555	11	0.159093	0.0076375	-327.6853
	11	24	8015.625	0.0325847	0.0274089	1	0.0425795	40.06908	-1.504784E-005	3.605564	11	0.1590579	0.0067723	-327.6853
	12	25	6328.125	0.031335	0.0219423	1	0.0382537	35.00159	-2.039131E-005	3.605567	11	0.1590352	0.0060835	-327.6853
	13	27	5015.625	0.0304809	0.0174356	1	0.0351153	29.77026	-2.164149E-005	3.605567	11	0.1590129	0.0055837	-327.6853
	14	28	3984.375	0.0299209	0.0137461	1	0.0329274	24.67474	-2.006372E-005	3.605579	11	0.1590085	0.0052357	-327.6853
	15	30	3170.956	0.0296051	0.0107035	1	0.0314806	19.8771	-2.307934E-005	3.605586	11	0.1590077	0.0050056	-327.6853
	16	32	2527.573	0.0294761	0.0082333	1	0.0306044	15.6061	-1.928327E-005	3.605599	11	0.1590056	0.0048662	-327.6853
	17	33	1976.103	0.0294878	0.0060278	1	0.0300976	11.55311	-1.97512E-005	3.605599	11	0.159	0.0047855	-327.6853
	18	35	1577.524	0.0295868	0.0044441	1	0.0299187	8.542316	-1.625833E-005	3.605616	11	0.1590025	0.0047571	-327.6853
	19	37	1265.625	0.0297535	0.0031404	1	0.0299188	6.025157	-1.918792E-005	3.605615	11	0.158994	0.0047569	-327.6853
	20	38	998.264	0.0299848	0.0020487	1	0.0300547	3.908624	-2.189178E-005	3.605615	11	0.1590044	0.0047788	-327.6853
	21	40	796.875	0.0302436	0.0011521	1	0.0302655	2.181617	-1.88454E-005	3.605635	11	0.1590005	0.0048122	-327.6853
	22	41	627.7902	0.0305188	0.0004179	1	0.0305217	0.7844865	-2.206548E-005	3.605631	11	0.1589966	0.0048528	-327.6853
	23	43	505.5147	0.0308051	-8.120743E-005	1	0.0308052	-0.151041	-2.043825E-005	3.605654	11	0.157602	0.004828	-327.6853
	24	44	397.9953	0.031134	-0.0005283	1	0.0311385	-0.972118	-2.034282E-005	3.60566	11	0.1606008	0.0049803	-327.6853
	25	45	315.5048	0.0314551	-0.0008853	1	0.0314676	-1.612157	-1.87516E-005	3.605671	11	0.1593399	0.0049999	-327.6853
	26	47	252.4038	0.0317648	-0.0011656	1	0.0317862	-2.101491	-1.936319E-005	3.605674	11	0.1589729	0.0050436	-327.6853
	27	49	198.6229	0.0321073	-0.0014148	1	0.0321385	-2.523071	-1.899397E-005	3.60568	11	0.1588755	0.0050999	-327.6853
	28	50	158.3615	0.0324428	-0.0016041	1	0.0324824	-2.830663	-2.062955E-005	3.605691	11	0.1588876	0.005157	-327.6853
	29	52	125.558	0.0327946	-0.0017575	1	0.0328417	-3.06753	-1.777569E-005	3.605701	11	0.1589106	0.0052163	-327.6853
	30	53	100.4464	0.0331279	-0.0018679	1	0.0331805	-3.227226	-2.373158E-005	3.605708	11	0.1589407	0.005272	-327.6853
	31	55	79.00281	0.0335023	-0.0019661	1	0.0335599	-3.358505	-1.980935E-005	3.605718	11	0.1589577	0.0053335	-327.6853
	32	56	63.3446	0.0338453	-0.002028	1	0.033906	-3.429089	-2.320285E-005	3.605723	11	0.1589776	0.0053896	-327.6853
	33	58	50.22321	0.034222	-0.0020637	1	0.0342842	-3.450944	-1.263362E-005	3.605732	11	0.1589812	0.0054501	-327.6853
	34	60	38.42213	0.0346418	-0.0020744	1	0.0347038	-3.426809	-2.18933E-005	3.605743	11	0.158988	0.0055172	-327.6853
	35	61	31.25	0.0349673	-0.0020487	1	0.0350273	-3.353054	-4.074187E-006	3.605743	11	0.1589881	0.0055687	-327.6853
	36	63	24.93351	0.035312	-0.0019992	1	0.0353686	-3.240391	-1.990597E-005	3.605762	11	0.1590021	0.0056236	-327.6853
	37	64	19.86229	0.0356406	-0.0019299	1	0.0356928	-3.099473	-1.864973E-006	3.605756	11	0.1589845	0.0056745	-327.6853
	38	66	15.625	0.0359613	-0.0018371	1	0.0360082	-2.924395	-3.68238E-005	3.605781	11	0.1589909	0.0057249	-327.6853
	39	67	12.40079	0.0362477	-0.0017194	1	0.0362885	-2.715833	-3.504648E-005	3.605784	11	0.1590026	0.0057699	-327.6853
	40	69	9.93114	0.0364974	-0.0016007	1	0.0365325	-2.511201	-5.413592E-005	3.605774	11	0.1589921	0.0058084	-327.6853
	41	70	7.944915	0.0367125	-0.0014868	1	0.0367426	-2.319174	1.209835E-005	3.605781	11	0.1590187	0.0058428	-327.6853
	42	72	6.317385	0.036898	-0.0013726	1	0.0369235	-2.130464	-0.0001216	3.605777	11	0.1590166	0.0058714	-327.6853
	43	74	5.008013	0.0370719	-0.0012848	1	0.0370941	-1.984947	-1.964436E-005	3.605812	11	0.1589917	0.0058977	-327.6853
	44	77	3.945707	0.0372179	-0.0012022	1	0.0372374	-1.850126	1.085654E-005	3.605818	11	0.1589749	0.0059198	-327.6853
	45	79	3.158693	0.037348	-0.0011588	1	0.0373659	-1.777092	8.729054E-005	3.605808	11	0.1589702	0.0059401	-327.6853
	46	81	2.504006	0.0374909	-0.0011011	1	0.0375071	-1.682233	-2.621803E-005	3.605811	11	0.15547	0.005807	-327.6853
	47	85	1.998082	0.0375975	-0.0010736	1	0.0376128	-1.635599	0.0001932	3.605853	11	0.1614339	0.0060537	-327.6853
	48	89	1.584686	0.0377256	-0.0010763	1	0.0377409	-1.63425	5.65596E-005	3.605869	11	0.1597977	0.0060186	-327.6853
	49	93	1.266892	0.0378366	-0.0010879	1	0.0378522	-1.646947	-0.0001463	3.605937	11	0.1593266	0.0060227	-327.6853
	50	98	0.999041	0.0379632	-0.0011206	1	0.0379798	-1.690811	-0.0001882	3.605949	11	0.1591146	0.0060379	-327.6853
	51	104	0.7923428	0.0381004	-0.0011628	1	0.0381182	-1.748036	-4.048218E-005	3.605991	11	0.1592486	0.0060669	-327.6853
	52	112	0.6334459	0.038222	-0.0012244	1	0.0382416	-1.834765	-4.047656E-005	3.606026	11	0.1589837	0.0060776	-327.6853
	53	119	0.5040323	0.0383709	-0.0013002	1	0.038393	-1.940712	-4.107939E-005	3.606069	11	0.1589827	0.0061024	-327.6853
	54	131	0.400641	0.0385083	-0.0014014	1	0.0385338	-2.084182	-4.035732E-005	3.606126	11	0.1589864	0.0061255	-327.6853
	55	145	0.316723	0.0386706	-0.0015209	1	0.0387005	-2.252318	-4.113E-005	3.606192	11	0.1589888	0.0061524	-327.6853
	56	159	0.2520161	0.0388346	-0.0016637	1	0.0388702	-2.453141	-4.080283E-005	3.606269	11	0.1589941	0.0061798	-327.6853
	57	177	0.2003205	0.0390136	-0.0018339	1	0.0390567	-2.691372	-3.859268E-005	3.606352	11	0.1589961	0.0062096	-327.6853
	58	203	0.1588983	0.0392174	-0.0020345	1	0.0392702	-2.969651	-4.302863E-005	3.606485	11	0.1589971	0.0062437	-327.6853
	59	234	0.1260081	0.0394575	-0.0022681	1	0.0395226	-3.289877	-4.085033E-005	3.606711	11	0.1589995	0.006284	-327.6853
	60	273	0.1001603	0.0397524	-0.0025278	1	0.0398327	-3.638438	-4.242995E-005	3.607037	11	0.1589988	0.0063333	-327.6853
	61	309	0.0794492	0.0400685	-0.0028392	1	0.040169	-4.05317	-4.297012E-005	3.607366	11	0.1589976	0.0063867	-327.6853
	62	348	0.0631739	0.0402939	-0.0032102	1	0.0404216	-4.555175	-4.291756E-005	3.607383	11	0.1590016	0.0064271	-327.6853
	63	397	0.0501337	0.0405986	-0.0036316	1	0.0407607	-5.11154	-4.146358E-005	3.607534	11	0.1589994	0.0064809	-327.6853
	64	479	0.0398258	0.04096	-0.0041231	1	0.041167	-5.748093	-4.297074E-005	3.607761	11	0.1589989	0.0065455	-327.6853
	65	555	0.0316296	0.0413472	-0.0047094	1	0.0416146	-6.497964	-4.276527E-005	3.608037	11	0.1589992	0.0066167	-327.6853
	66	683	0.0251206	0.0418035	-0.0053922	1	0.0421499	-7.349878	-4.321955E-005	3.608398	11	0.1590007	0.0067019	-327.6853
	67	844	0.0199553	0.0423032	-0.0062027	1	0.0427555	-8.341508	-4.300521E-005	3.608816	11	0.1590013	0.0067982	-327.6853
	68	1046	0.0158522	0.0429054	-0.0071724	1	0.0435008	-9.490191	-4.194766E-005	3.609297	11	0.1590001	0.0069166	-327.6853
	69	1300	0.0125907	0.043633	-0.0083091	1	0.0444171	-10.78182	-4.303156E-005	3.609782	11	0.1589991	0.0070623	-327.6853
	70	1540	0.0100011	0.0444981	-0.0096444	1	0.0455313	-12.22898	-4.370055E-005	3.610258	11	0.1590009	0.0072395	-327.6853
