EXPLAIN
TAG	GALVEIS
TITLE	LABEL	Galvanostatic EIS	Test Identifier
DATE	LABEL	22.6.2024	Date
TIME	LABEL	0:26:32	Time
NOTES	NOTES	1	Notes...
	
PSTAT	PSTAT	REF600-12055	Potentiostat
FREQINIT	QUANT	1.00000E+005	Initial Freq. (Hz)
FREQFINAL	QUANT	1.00000E-002	Final Freq. (Hz)
PTSPERDEC	QUANT	1.00000E+001	Points/decade
IACREQ	QUANT	1.59000E-001	AC Current (A rms)
IDCREQ	QUANT	0.00000E+000	DC Current (A)
AREA	QUANT	1.00000E+000	Sample Area (cm^2)
SPEED	SELECTOR	1	Optimize for:
DRIFTCOR	SELECTOR	0	Drift Correction
THD	SELECTOR	0	THD
ZGUESS	QUANT	1.00000E-001	Estimated Z (ohms)
EOC	QUANT	4.107123	Open Circuit (V)
SEQUENCER	TOGGLE	TRUE	Run as Sequence
PSTATMODEL	IQUANT	4	Pstat Model
PSTATSECTION	LABEL	REF600-12055	Pstat Section
PSTATSERIALNO	LABEL	12055	Pstat Serial Number
CTRLMODE	IQUANT	0	Control Mode
ELECTROMETER	IQUANT	0	RE=0 or CS=1
IESTAB	IQUANT	0	I/E Stability
CASPEED	IQUANT	4	Control Amp Speed
CONVENTION	IQUANT	1	Current Convention
ICHRANGE	IQUANT	2	Ich Range
ICHRANGEMODE	TOGGLE	F	Ich Auto Range
ICHOFFSETENABLE	TOGGLE	T	Ich Offset Enable
ICHOFFSET	QUANT	0	Ich Offset (V)
ICHFILTER	IQUANT	3	Ich Filter
VCHRANGE	IQUANT	2	Vch Range
VCHRANGEMODE	TOGGLE	F	Vch Auto Range
VCHOFFSETENABLE	TOGGLE	T	Vch Offset Enable
VCHOFFSET	QUANT	0	Vch Offset (V)
VCHFILTER	IQUANT	3	Vch Filter
ACHRANGE	IQUANT	2	Ach Range
ACHOFFSETENABLE	TOGGLE	F	Ach Offset Enable
ACHOFFSET	QUANT	0	Ach Offset (V)
ACHFILTER	IQUANT	1	Ach Filter
IERANGELOWERLIMIT	IQUANT	1	I/E Range Lower Limit
IERANGEMODE	TOGGLE	F	I/E AutoRange
IERANGE	IQUANT	7	I/E Range
POSFEEDENABLE	TOGGLE	F	Positive Feedback IR Comp
POSFEEDRESISTANCE	QUANT	0	Positive Feedback Resistance (ohm)
ACHSELECT	IQUANT	4	Ach Select
SENSECABLEID	IQUANT	14	Sense Cable ID
PWRCABLEID	IQUANT	14	Power Cable ID
DCCALDATE	LABEL	2/12/2024	DC Calibration Date
ACCALDATE	LABEL	2/12/2024	AC Calibration Date
THERMOSELECT	IQUANT	1	Thermo Select
FRAMEWORKVERSION	LABEL	7.10.3	Framework Version
INSTRUMENTVERSION	LABEL	4.91	Instrument Version
COMMVERSION	LABEL	2.24	Communications Version
CPUPLDVERSION	LABEL	0.00	CPU PLD Version
CTRLPLDVERSION	LABEL	0.00	CTRL PLD Version
PSTATPLDVERSION	LABEL	0.00	PSTAT PLD Version
ZCURVE	TABLE
	Pt	Time	Freq	Zreal	Zimag	Zsig	Zmod	Zphz	Idc	Vdc	IERange	Imod	Vmod	Temp
	#	s	Hz	ohm	ohm	V	ohm	°	A	V	#	A	V	°C
	0	5	100078.1	0.0976662	0.2349729	1	0.2544621	67.42983	1.778096E-005	4.107614	11	0.1596787	0.0403364	-327.6853
	1	7	79453.13	0.0826633	0.1946849	1	0.2115075	66.9939	2.593268E-006	4.107604	11	0.1643795	0.0346068	-327.6853
	2	8	63140.62	0.07083	0.1609258	1	0.1758237	66.24374	-1.141522E-005	4.107617	11	0.1620641	0.0284108	-327.6853
	3	10	50203.12	0.0616034	0.1327106	1	0.1463116	65.09957	-2.072757E-005	4.107623	11	0.1609771	0.0235086	-327.6853
	4	12	39890.62	0.054462	0.1091453	1	0.1219788	63.48143	-8.977135E-006	4.107614	11	0.1603118	0.0195313	-327.6853
	5	13	31640.63	0.0489442	0.0895333	1	0.1020379	61.33636	-1.160998E-005	4.107625	11	0.1598694	0.0163004	-327.6853
	6	15	25171.88	0.0446849	0.0736697	1	0.0861624	58.76078	-1.807092E-005	4.107607	11	0.1595606	0.0137416	-327.6853
	7	17	20015.62	0.0412561	0.0606489	1	0.0733509	55.77466	-2.201693E-005	4.10762	11	0.159366	0.0116861	-327.6853
	8	19	15890.62	0.0383866	0.0498862	1	0.0629457	52.42228	-2.145546E-005	4.107604	11	0.1592307	0.010021	-327.6853
	9	20	12609.38	0.0359543	0.0409689	1	0.0545083	48.72979	-1.923484E-005	4.107615	11	0.1591443	0.0086736	-327.6853
	10	22	10078.13	0.0339926	0.033705	1	0.0478698	44.75656	-1.876682E-005	4.107625	11	0.1590901	0.007615	-327.6853
	11	23	8015.625	0.0323777	0.0274261	1	0.0424324	40.26685	-2.251659E-005	4.107611	11	0.1590551	0.0067488	-327.6853
	12	25	6328.125	0.0311211	0.0219586	1	0.0380881	35.20626	-3.143551E-005	4.107621	11	0.1590299	0.006057	-327.6853
	13	26	5015.625	0.0302682	0.0174741	1	0.0349501	29.99817	-2.688618E-005	4.107605	11	0.1590209	0.0055577	-327.6853
	14	28	3984.375	0.0297097	0.0137726	1	0.0327467	24.87111	-1.767318E-005	4.107623	11	0.1590021	0.0052067	-327.6853
	15	30	3170.956	0.0293903	0.0107418	1	0.0312917	20.07677	-1.824385E-005	4.107611	11	0.1590072	0.0049756	-327.6853
	16	32	2527.573	0.0292662	0.0082572	1	0.0304088	15.75595	-1.875137E-005	4.107613	11	0.1590054	0.0048351	-327.6853
	17	33	1976.103	0.0292646	0.0060765	1	0.0298888	11.73021	-1.995463E-005	4.107628	11	0.1590022	0.0047524	-327.6853
	18	35	1577.524	0.0293543	0.0045397	1	0.0297033	8.791335	-1.961016E-005	4.107619	11	0.1590075	0.004723	-327.6853
	19	36	1265.625	0.0295109	0.0032782	1	0.0296924	6.338765	-1.876731E-005	4.107613	11	0.1589958	0.004721	-327.6853
	20	38	998.264	0.0297085	0.0021426	1	0.0297857	4.125047	-2.166594E-005	4.107622	11	0.1589952	0.0047358	-327.6853
	21	39	796.875	0.0299259	0.0013066	1	0.0299544	2.500083	-2.258015E-005	4.107615	11	0.1590028	0.0047628	-327.6853
	22	41	627.7902	0.030177	0.0005596	1	0.0301822	1.06242	-2.222043E-005	4.107629	11	0.1589957	0.0047988	-327.6853
	23	42	505.5147	0.0304479	6.355107E-005	1	0.0304479	0.1195882	-2.067303E-005	4.107635	11	0.1576003	0.0047719	-327.6853
	24	44	397.9953	0.0307435	-0.0003865	1	0.030746	-0.7201862	-2.00998E-005	4.107635	11	0.1606007	0.0049176	-327.6853
	25	45	315.5048	0.0310297	-0.0007424	1	0.0310385	-1.370643	-3.050448E-005	4.107634	11	0.1593403	0.0049318	-327.6853
	26	47	252.4038	0.031307	-0.0010328	1	0.031324	-1.88945	-2.295757E-005	4.107635	11	0.1589716	0.0049702	-327.6853
	27	48	198.6229	0.0316149	-0.0012916	1	0.0316413	-2.33952	-2.087203E-005	4.107636	11	0.158876	0.005021	-327.6853
	28	50	158.3615	0.031902	-0.0015056	1	0.0319375	-2.702061	-2.057676E-005	4.107632	11	0.1588869	0.0050705	-327.6853
	29	51	125.558	0.0322058	-0.0016965	1	0.0322504	-3.015345	-1.583376E-005	4.107633	11	0.1589168	0.0051226	-327.6853
	30	53	100.4464	0.032507	-0.0018576	1	0.0325601	-3.27059	-2.536073E-005	4.107633	11	0.1589416	0.0051735	-327.6853
	31	54	79.00281	0.0328354	-0.0020187	1	0.0328974	-3.518017	-1.801661E-005	4.107635	11	0.1589572	0.0052282	-327.6853
	32	56	63.3446	0.033154	-0.0021585	1	0.0332242	-3.725032	-2.951582E-005	4.10764	11	0.1589712	0.005281	-327.6853
	33	58	50.22321	0.0334869	-0.0023066	1	0.0335662	-3.940281	-2.411264E-005	4.107644	11	0.1589865	0.0053361	-327.6853
	34	59	38.42213	0.0338966	-0.0024684	1	0.0339864	-4.164932	-2.926495E-005	4.107634	11	0.1589872	0.0054031	-327.6853
	35	61	31.25	0.0342222	-0.0026022	1	0.034321	-4.348371	-4.943809E-005	4.107645	11	0.1589882	0.0054565	-327.6853
	36	62	24.93351	0.0345923	-0.0027611	1	0.0347023	-4.563602	-2.192508E-005	4.107635	11	0.1590027	0.0055177	-327.6853
	37	64	19.86229	0.0349773	-0.0029379	1	0.0351005	-4.801194	-5.34656E-005	4.107651	11	0.1589712	0.0055799	-327.6853
	38	65	15.625	0.0354371	-0.0031467	1	0.0355766	-5.074334	-1.449429E-005	4.107625	11	0.1590152	0.0056572	-327.6853
	39	67	12.40079	0.0359026	-0.0033481	1	0.0360583	-5.327647	-3.330642E-006	4.107644	11	0.1589868	0.0057328	-327.6853
	40	68	9.93114	0.0364025	-0.0035462	1	0.0365748	-5.563916	8.386909E-006	4.107664	11	0.158993	0.0058151	-327.6853
	41	70	7.944915	0.0369727	-0.0037568	1	0.037163	-5.801901	-4.160427E-005	4.107647	11	0.1590031	0.005909	-327.6853
	42	72	6.317385	0.0376173	-0.0039359	1	0.0378226	-5.973122	1.224841E-005	4.107679	11	0.1589828	0.0060131	-327.6853
	43	74	5.008013	0.0383518	-0.0040573	1	0.0385658	-6.038965	-7.386168E-005	4.107678	11	0.1590117	0.0061324	-327.6853
	44	76	3.945707	0.039105	-0.0041068	1	0.03932	-5.995182	-6.49502E-005	4.107681	11	0.1590017	0.0062519	-327.6853
	45	79	3.158693	0.0398282	-0.0040676	1	0.0400353	-5.831343	-0.0001217	4.107694	11	0.1589792	0.0063648	-327.6853
	46	81	2.504006	0.0405536	-0.0039182	1	0.0407424	-5.518684	-1.180201E-005	4.107702	11	0.1554682	0.0063078	-327.6853
	47	84	1.998082	0.0411787	-0.0037469	1	0.0413488	-5.199093	-0.0002583	4.107671	11	0.1614442	0.0066554	-327.6853
	48	88	1.584686	0.0417728	-0.0035399	1	0.0419225	-4.843704	-0.0001171	4.107678	11	0.1597912	0.0066852	-327.6853
	49	92	1.266892	0.0422743	-0.0033145	1	0.042404	-4.483032	0.0001264	4.107633	11	0.1593433	0.0067477	-327.6853
	50	97	0.999041	0.0427178	-0.0031151	1	0.0428312	-4.170745	0.0001779	4.10765	11	0.1591203	0.0068095	-327.6853
	51	102	0.7923428	0.0431379	-0.0029317	1	0.0432374	-3.887959	-4.148565E-005	4.107728	11	0.1592044	0.0068798	-327.6853
	52	110	0.6334459	0.0434782	-0.0028003	1	0.0435682	-3.685139	-4.858561E-005	4.107712	11	0.1589842	0.0069242	-327.6853
	53	118	0.5040323	0.0437967	-0.0027023	1	0.04388	-3.530698	-4.281124E-005	4.107705	11	0.1589802	0.0069745	-327.6853
	54	129	0.400641	0.0440957	-0.0026436	1	0.0441748	-3.430819	-4.790991E-005	4.107701	11	0.1589883	0.0070223	-327.6853
	55	143	0.316723	0.0444013	-0.0026273	1	0.044479	-3.386354	-4.207582E-005	4.107695	11	0.1589892	0.007071	-327.6853
	56	161	0.2520161	0.0446967	-0.0026705	1	0.0447764	-3.419218	-4.657902E-005	4.107707	11	0.1589922	0.0071187	-327.6853
	57	178	0.2003205	0.0450017	-0.0027424	1	0.0450852	-3.487288	-4.27489E-005	4.107705	11	0.1589964	0.0071681	-327.6853
	58	200	0.1588983	0.0453151	-0.0028715	1	0.045406	-3.62589	-4.471392E-005	4.107702	11	0.1589963	0.0072192	-327.6853
	59	231	0.1260081	0.0456813	-0.0030454	1	0.0457827	-3.814028	-4.425053E-005	4.107775	11	0.1589992	0.0072793	-327.6853
	60	269	0.1001603	0.0460997	-0.0032564	1	0.0462146	-4.040611	-4.140592E-005	4.107934	11	0.1589993	0.007348	-327.6853
	61	306	0.0794492	0.0465231	-0.0035406	1	0.0466577	-4.352097	-4.336572E-005	4.108026	11	0.1589997	0.0074185	-327.6853
	62	358	0.0631739	0.0468795	-0.0038842	1	0.0470401	-4.736483	-4.151226E-005	4.107867	11	0.1589987	0.0074793	-327.6853
	63	407	0.0501337	0.0473367	-0.0042976	1	0.0475314	-5.187524	-4.26696E-005	4.107783	11	0.1590002	0.0075575	-327.6853
	64	468	0.0398258	0.0478687	-0.0047747	1	0.0481062	-5.69617	-4.882631E-005	4.107674	11	0.1590012	0.0076489	-327.6853
	65	570	0.0316296	0.0484774	-0.0053228	1	0.0487688	-6.265988	-4.29359E-005	4.10754	11	0.158998	0.0077541	-327.6853
	66	698	0.0251206	0.0491496	-0.0059493	1	0.0495084	-6.90182	-4.225441E-005	4.107356	11	0.1590004	0.0078718	-327.6853
	67	859	0.0199553	0.0499177	-0.0066676	1	0.0503611	-7.608011	-4.387454E-005	4.107148	11	0.1589993	0.0080074	-327.6853
	68	1011	0.0158522	0.0507411	-0.0074904	1	0.051291	-8.397335	-4.182321E-005	4.10684	11	0.1589995	0.0081552	-327.6853
	69	1264	0.0125907	0.0516986	-0.0084412	1	0.0523832	-9.273211	-4.217388E-005	4.106478	11	0.159	0.0083289	-327.6853
	70	1504	0.0100011	0.0528095	-0.009515	1	0.0536598	-10.21369	-3.941984E-005	4.105955	11	0.1589997	0.0085319	-327.6853
