EXPLAIN
TAG	GALVEIS
TITLE	LABEL	Galvanostatic EIS	Test Identifier
DATE	LABEL	22.6.2024	Date
TIME	LABEL	9:46:35	Time
NOTES	NOTES	1	Notes...
	
PSTAT	PSTAT	REF600-12055	Potentiostat
FREQINIT	QUANT	1.00000E+005	Initial Freq. (Hz)
FREQFINAL	QUANT	1.00000E-002	Final Freq. (Hz)
PTSPERDEC	QUANT	1.00000E+001	Points/decade
IACREQ	QUANT	1.59000E-001	AC Current (A rms)
IDCREQ	QUANT	0.00000E+000	DC Current (A)
AREA	QUANT	1.00000E+000	Sample Area (cm^2)
SPEED	SELECTOR	1	Optimize for:
DRIFTCOR	SELECTOR	0	Drift Correction
THD	SELECTOR	0	THD
ZGUESS	QUANT	1.00000E-001	Estimated Z (ohms)
EOC	QUANT	3.535235	Open Circuit (V)
SEQUENCER	TOGGLE	TRUE	Run as Sequence
PSTATMODEL	IQUANT	4	Pstat Model
PSTATSECTION	LABEL	REF600-12055	Pstat Section
PSTATSERIALNO	LABEL	12055	Pstat Serial Number
CTRLMODE	IQUANT	0	Control Mode
ELECTROMETER	IQUANT	0	RE=0 or CS=1
IESTAB	IQUANT	0	I/E Stability
CASPEED	IQUANT	4	Control Amp Speed
CONVENTION	IQUANT	1	Current Convention
ICHRANGE	IQUANT	2	Ich Range
ICHRANGEMODE	TOGGLE	F	Ich Auto Range
ICHOFFSETENABLE	TOGGLE	T	Ich Offset Enable
ICHOFFSET	QUANT	0	Ich Offset (V)
ICHFILTER	IQUANT	3	Ich Filter
VCHRANGE	IQUANT	2	Vch Range
VCHRANGEMODE	TOGGLE	F	Vch Auto Range
VCHOFFSETENABLE	TOGGLE	T	Vch Offset Enable
VCHOFFSET	QUANT	0	Vch Offset (V)
VCHFILTER	IQUANT	3	Vch Filter
ACHRANGE	IQUANT	2	Ach Range
ACHOFFSETENABLE	TOGGLE	F	Ach Offset Enable
ACHOFFSET	QUANT	0	Ach Offset (V)
ACHFILTER	IQUANT	1	Ach Filter
IERANGELOWERLIMIT	IQUANT	1	I/E Range Lower Limit
IERANGEMODE	TOGGLE	F	I/E AutoRange
IERANGE	IQUANT	7	I/E Range
POSFEEDENABLE	TOGGLE	F	Positive Feedback IR Comp
POSFEEDRESISTANCE	QUANT	0	Positive Feedback Resistance (ohm)
ACHSELECT	IQUANT	4	Ach Select
SENSECABLEID	IQUANT	14	Sense Cable ID
PWRCABLEID	IQUANT	14	Power Cable ID
DCCALDATE	LABEL	2/12/2024	DC Calibration Date
ACCALDATE	LABEL	2/12/2024	AC Calibration Date
THERMOSELECT	IQUANT	1	Thermo Select
FRAMEWORKVERSION	LABEL	7.10.3	Framework Version
INSTRUMENTVERSION	LABEL	4.91	Instrument Version
COMMVERSION	LABEL	2.24	Communications Version
CPUPLDVERSION	LABEL	0.00	CPU PLD Version
CTRLPLDVERSION	LABEL	0.00	CTRL PLD Version
PSTATPLDVERSION	LABEL	0.00	PSTAT PLD Version
ZCURVE	TABLE
	Pt	Time	Freq	Zreal	Zimag	Zsig	Zmod	Zphz	Idc	Vdc	IERange	Imod	Vmod	Temp
	#	s	Hz	ohm	ohm	V	ohm	°	A	V	#	A	V	°C
	0	5	100078.1	0.0977483	0.235325	1	0.2548187	67.44319	2.525814E-005	3.535322	11	0.1596797	0.0403932	-327.6853
	1	7	79453.13	0.0828442	0.1949427	1	0.2118156	66.97612	1.157005E-005	3.535323	11	0.1644385	0.0346696	-327.6853
	2	9	63140.62	0.0710606	0.161145	1	0.1761173	66.2038	1.937733E-006	3.53534	11	0.1620629	0.028458	-327.6853
	3	10	50203.12	0.0618652	0.132895	1	0.1465892	65.0371	-2.736109E-006	3.535348	11	0.1609799	0.0235536	-327.6853
	4	12	39890.62	0.0547432	0.1092947	1	0.1222381	63.39476	-8.43138E-006	3.535358	11	0.1603139	0.0195731	-327.6853
	5	14	31640.63	0.0492138	0.089656	1	0.1022751	61.23683	-1.62595E-005	3.535362	11	0.1598714	0.0163385	-327.6853
	6	15	25171.88	0.0449605	0.0737582	1	0.0863813	58.63491	-1.335237E-005	3.535374	11	0.1595675	0.013777	-327.6853
	7	17	20015.62	0.0415335	0.060718	1	0.0735643	55.6263	-1.332071E-005	3.535373	11	0.1593682	0.0117203	-327.6853
	8	19	15890.62	0.0386603	0.0499372	1	0.0631533	52.25371	-1.541537E-005	3.535378	11	0.1592358	0.0100543	-327.6853
	9	21	12609.38	0.0362327	0.0409911	1	0.054709	48.52606	-1.482881E-005	3.535387	11	0.1591436	0.0087055	-327.6853
	10	22	10078.13	0.0342784	0.0337136	1	0.0480792	44.52402	-2.182997E-005	3.535387	11	0.1590891	0.0076483	-327.6853
	11	24	8015.625	0.0326597	0.0274291	1	0.0426499	40.02513	-1.911074E-005	3.535386	11	0.1590552	0.0067834	-327.6853
	12	25	6328.125	0.0314246	0.0219538	1	0.0383337	34.93888	-1.907744E-005	3.535398	11	0.1590313	0.0060961	-327.6853
	13	27	5015.625	0.0305674	0.0174618	1	0.0352035	29.73738	-1.906441E-005	3.535408	11	0.1590227	0.005598	-327.6853
	14	28	3984.375	0.0300036	0.0137394	1	0.0329998	24.60426	-1.829839E-005	3.535416	11	0.1590049	0.0052471	-327.6853
	15	30	3170.956	0.0296976	0.0106811	1	0.03156	19.78175	-2.264276E-005	3.535413	11	0.1590035	0.0050181	-327.6853
	16	31	2527.573	0.0295753	0.0081914	1	0.0306887	15.48098	-2.419774E-005	3.535427	11	0.1590075	0.0048797	-327.6853
	17	33	1976.103	0.0295656	0.0060278	1	0.0301738	11.52354	-2.182106E-005	3.535427	11	0.1590021	0.0047977	-327.6853
	18	35	1577.524	0.0296899	0.0043919	1	0.030013	8.414445	-1.951722E-005	3.53545	11	0.158998	0.004772	-327.6853
	19	37	1265.625	0.0298338	0.0031409	1	0.0299987	6.009984	-1.840071E-005	3.535452	11	0.1590034	0.0047699	-327.6853
	20	38	998.264	0.0300605	0.0020263	1	0.0301287	3.856406	-2.373243E-005	3.535465	11	0.1589962	0.0047904	-327.6853
	21	40	796.875	0.0303113	0.0011448	1	0.030333	2.162871	-2.296909E-005	3.535455	11	0.1590002	0.0048229	-327.6853
	22	41	627.7902	0.0306301	0.0003799	1	0.0306324	0.7105547	-2.178916E-005	3.535465	11	0.1590017	0.0048706	-327.6853
	23	43	505.5147	0.0308976	-0.0001062	1	0.0308978	-0.1970195	-3.318861E-005	3.535481	11	0.1575966	0.0048423	-327.6853
	24	44	397.9953	0.0312309	-0.0005598	1	0.0312359	-1.026838	-1.961412E-005	3.535488	11	0.1606025	0.004996	-327.6853
	25	46	315.5048	0.0315553	-0.0009253	1	0.0315689	-1.679567	-3.055169E-005	3.535495	11	0.1593426	0.0050161	-327.6853
	26	47	252.4038	0.0318692	-0.0012176	1	0.0318925	-2.187966	-3.344694E-005	3.535498	11	0.1589664	0.0050602	-327.6853
	27	49	198.6229	0.032222	-0.0014738	1	0.0322557	-2.618784	-3.141526E-005	3.535508	11	0.158877	0.0051185	-327.6853
	28	50	158.3615	0.032553	-0.0016675	1	0.0325956	-2.932425	-2.127507E-005	3.535511	11	0.1588904	0.0051751	-327.6853
	29	52	125.558	0.0329119	-0.0018368	1	0.0329631	-3.194383	-2.496294E-005	3.535518	11	0.15891	0.0052356	-327.6853
	30	53	100.4464	0.0332568	-0.0019628	1	0.0333147	-3.377684	-2.423744E-005	3.535519	11	0.1589451	0.0052935	-327.6853
	31	55	79.00281	0.0336393	-0.002074	1	0.0337032	-3.52804	-2.340856E-005	3.535523	11	0.1589532	0.0053562	-327.6853
	32	57	63.3446	0.0339985	-0.0021483	1	0.0340663	-3.615685	-2.191367E-005	3.535533	11	0.1589799	0.0054152	-327.6853
	33	58	50.22321	0.0343816	-0.0022086	1	0.0344525	-3.675558	-1.639116E-005	3.535541	11	0.1589822	0.0054769	-327.6853
	34	60	38.42213	0.0348279	-0.0022481	1	0.0349004	-3.693227	-2.204021E-005	3.535549	11	0.1589847	0.0055484	-327.6853
	35	62	31.25	0.035175	-0.0022529	1	0.035247	-3.664725	-9.527896E-006	3.535553	11	0.1589888	0.0056037	-327.6853
	36	63	24.93351	0.0355537	-0.0022273	1	0.0356234	-3.584712	-3.181666E-005	3.535565	11	0.1590044	0.0056642	-327.6853
	37	65	19.86229	0.0359244	-0.002181	1	0.0359906	-3.474274	-2.530523E-005	3.53556	11	0.158993	0.0057222	-327.6853
	38	66	15.625	0.0363107	-0.0021013	1	0.0363715	-3.31202	-4.952552E-005	3.535578	11	0.1589814	0.0057823	-327.6853
	39	68	12.40079	0.0366516	-0.0020132	1	0.0367068	-3.144043	-4.641002E-005	3.535581	11	0.1590034	0.0058365	-327.6853
	40	69	9.93114	0.0369443	-0.0018812	1	0.0369921	-2.914966	-5.156721E-005	3.53557	11	0.1589865	0.0058812	-327.6853
	41	71	7.944915	0.0372175	-0.0017587	1	0.037259	-2.705511	1.105713E-005	3.535573	11	0.1590185	0.0059249	-327.6853
	42	73	6.317385	0.0374533	-0.0016428	1	0.0374893	-2.511504	-2.936322E-005	3.535567	11	0.1589632	0.0059594	-327.6853
	43	75	5.008013	0.0376749	-0.001524	1	0.0377057	-2.316384	3.429968E-005	3.535571	11	0.1590084	0.0059955	-327.6853
	44	77	3.945707	0.037859	-0.0014194	1	0.0378856	-2.147125	9.849085E-006	3.535581	11	0.1590152	0.0060244	-327.6853
	45	79	3.158693	0.038025	-0.0013377	1	0.0380485	-2.014859	8.536631E-005	3.535574	11	0.1589698	0.0060486	-327.6853
	46	82	2.504006	0.0381817	-0.0012547	1	0.0382023	-1.88218	-1.838775E-005	3.535572	11	0.1554707	0.0059146	-327.6853
	47	85	1.998082	0.0383125	-0.001215	1	0.0383317	-1.816438	0.0001716	3.535609	11	0.1614086	0.0061684	-327.6853
	48	90	1.584686	0.0384442	-0.0011984	1	0.0384629	-1.785453	2.891602E-005	3.535622	11	0.1597933	0.0061336	-327.6853
	49	96	1.266892	0.0385727	-0.001202	1	0.0385915	-1.784855	-0.0001306	3.535697	11	0.1593442	0.006141	-327.6853
	50	101	0.999041	0.038704	-0.0012205	1	0.0387232	-1.806176	-0.0001809	3.535703	11	0.1591214	0.0061564	-327.6853
	51	106	0.7923428	0.0388548	-0.0012662	1	0.0388754	-1.866563	-4.24496E-005	3.53574	11	0.1592467	0.0061874	-327.6853
	52	113	0.6334459	0.0389907	-0.0013152	1	0.0390129	-1.931925	-4.088698E-005	3.535776	11	0.1589838	0.0062002	-327.6853
	53	121	0.5040323	0.0391401	-0.0013924	1	0.0391648	-2.037456	-4.204991E-005	3.535814	11	0.158982	0.0062251	-327.6853
	54	131	0.400641	0.039291	-0.0014882	1	0.0393192	-2.169119	-4.19967E-005	3.535852	11	0.1589873	0.0062504	-327.6853
	55	145	0.316723	0.0394626	-0.0016094	1	0.0394954	-2.335382	-4.221659E-005	3.535911	11	0.1589893	0.0062788	-327.6853
	56	159	0.2520161	0.0396441	-0.0017535	1	0.0396828	-2.532608	-4.134589E-005	3.535978	11	0.1589941	0.006309	-327.6853
	57	176	0.2003205	0.0398246	-0.0019367	1	0.0398717	-2.784165	-4.248375E-005	3.536062	11	0.1589954	0.0063392	-327.6853
	58	203	0.1588983	0.0400332	-0.0021461	1	0.0400907	-3.068595	-4.614085E-005	3.536171	11	0.158998	0.0063742	-327.6853
	59	234	0.1260081	0.0402874	-0.0023791	1	0.0403576	-3.379596	-3.997152E-005	3.536397	11	0.1589972	0.0064167	-327.6853
	60	264	0.1001603	0.0405817	-0.0026698	1	0.0406694	-3.763954	-4.110394E-005	3.53674	11	0.1589988	0.0064663	-327.6853
	61	301	0.0794492	0.0408872	-0.0030078	1	0.0409976	-4.207276	-4.191312E-005	3.537088	11	0.1589999	0.0065186	-327.6853
	62	353	0.0631739	0.0411285	-0.0034082	1	0.0412695	-4.737066	-4.237587E-005	3.537136	11	0.1589993	0.0065618	-327.6853
	63	418	0.0501337	0.0414434	-0.0038685	1	0.0416235	-5.332775	-4.010133E-005	3.537316	11	0.1590005	0.0066181	-327.6853
	64	499	0.0398258	0.0418036	-0.0044173	1	0.0420363	-6.03198	-4.47089E-005	3.537579	11	0.1589979	0.0066837	-327.6853
	65	601	0.0316296	0.0422144	-0.00506	1	0.0425166	-6.835175	-4.233965E-005	3.537892	11	0.1590011	0.0067602	-327.6853
	66	697	0.0251206	0.0426703	-0.0058191	1	0.0430653	-7.765727	-4.216949E-005	3.538229	11	0.1590004	0.0068474	-327.6853
	67	818	0.0199553	0.0431862	-0.0067371	1	0.0437085	-8.866742	-4.387862E-005	3.538636	11	0.1589997	0.0069496	-327.6853
	68	970	0.0158522	0.0438043	-0.0078225	1	0.0444972	-10.1251	-4.288019E-005	3.539191	11	0.1589993	0.007075	-327.6853
	69	1224	0.0125907	0.0445602	-0.0091236	1	0.0454846	-11.5713	-4.288571E-005	3.539834	11	0.1590007	0.0072321	-327.6853
	70	1464	0.0100011	0.0454553	-0.0106311	1	0.046682	-13.16378	-4.383208E-005	3.5406	11	0.1590003	0.0074224	-327.6853
