EXPLAIN
TAG	GALVEIS
TITLE	LABEL	Galvanostatic EIS	Test Identifier
DATE	LABEL	22.6.2024	Date
TIME	LABEL	3:06:58	Time
NOTES	NOTES	1	Notes...
	
PSTAT	PSTAT	REF600-12055	Potentiostat
FREQINIT	QUANT	1.00000E+005	Initial Freq. (Hz)
FREQFINAL	QUANT	1.00000E-002	Final Freq. (Hz)
PTSPERDEC	QUANT	1.00000E+001	Points/decade
IACREQ	QUANT	1.59000E-001	AC Current (A rms)
IDCREQ	QUANT	0.00000E+000	DC Current (A)
AREA	QUANT	1.00000E+000	Sample Area (cm^2)
SPEED	SELECTOR	1	Optimize for:
DRIFTCOR	SELECTOR	0	Drift Correction
THD	SELECTOR	0	THD
ZGUESS	QUANT	1.00000E-001	Estimated Z (ohms)
EOC	QUANT	3.937833	Open Circuit (V)
SEQUENCER	TOGGLE	TRUE	Run as Sequence
PSTATMODEL	IQUANT	4	Pstat Model
PSTATSECTION	LABEL	REF600-12055	Pstat Section
PSTATSERIALNO	LABEL	12055	Pstat Serial Number
CTRLMODE	IQUANT	0	Control Mode
ELECTROMETER	IQUANT	0	RE=0 or CS=1
IESTAB	IQUANT	0	I/E Stability
CASPEED	IQUANT	4	Control Amp Speed
CONVENTION	IQUANT	1	Current Convention
ICHRANGE	IQUANT	2	Ich Range
ICHRANGEMODE	TOGGLE	F	Ich Auto Range
ICHOFFSETENABLE	TOGGLE	T	Ich Offset Enable
ICHOFFSET	QUANT	0	Ich Offset (V)
ICHFILTER	IQUANT	3	Ich Filter
VCHRANGE	IQUANT	2	Vch Range
VCHRANGEMODE	TOGGLE	F	Vch Auto Range
VCHOFFSETENABLE	TOGGLE	T	Vch Offset Enable
VCHOFFSET	QUANT	0	Vch Offset (V)
VCHFILTER	IQUANT	3	Vch Filter
ACHRANGE	IQUANT	2	Ach Range
ACHOFFSETENABLE	TOGGLE	F	Ach Offset Enable
ACHOFFSET	QUANT	0	Ach Offset (V)
ACHFILTER	IQUANT	1	Ach Filter
IERANGELOWERLIMIT	IQUANT	1	I/E Range Lower Limit
IERANGEMODE	TOGGLE	F	I/E AutoRange
IERANGE	IQUANT	7	I/E Range
POSFEEDENABLE	TOGGLE	F	Positive Feedback IR Comp
POSFEEDRESISTANCE	QUANT	0	Positive Feedback Resistance (ohm)
ACHSELECT	IQUANT	4	Ach Select
SENSECABLEID	IQUANT	14	Sense Cable ID
PWRCABLEID	IQUANT	14	Power Cable ID
DCCALDATE	LABEL	2/12/2024	DC Calibration Date
ACCALDATE	LABEL	2/12/2024	AC Calibration Date
THERMOSELECT	IQUANT	1	Thermo Select
FRAMEWORKVERSION	LABEL	7.10.3	Framework Version
INSTRUMENTVERSION	LABEL	4.91	Instrument Version
COMMVERSION	LABEL	2.24	Communications Version
CPUPLDVERSION	LABEL	0.00	CPU PLD Version
CTRLPLDVERSION	LABEL	0.00	CTRL PLD Version
PSTATPLDVERSION	LABEL	0.00	PSTAT PLD Version
ZCURVE	TABLE
	Pt	Time	Freq	Zreal	Zimag	Zsig	Zmod	Zphz	Idc	Vdc	IERange	Imod	Vmod	Temp
	#	s	Hz	ohm	ohm	V	ohm	°	A	V	#	A	V	°C
	0	5	100078.1	0.0975815	0.2348118	1	0.2542809	67.43353	2.546783E-005	3.938004	11	0.1596863	0.0403096	-327.6853
	1	6	79453.13	0.0826364	0.1945381	1	0.2113618	66.98507	1.655417E-005	3.938019	11	0.1644193	0.0345913	-327.6853
	2	8	63140.62	0.0708206	0.1608339	1	0.1757359	66.23447	9.750074E-007	3.93802	11	0.1620727	0.0283981	-327.6853
	3	10	50203.12	0.0616083	0.1326349	1	0.146245	65.08536	-9.056646E-006	3.938011	11	0.1609912	0.0234999	-327.6853
	4	12	39890.62	0.0544897	0.1090916	1	0.1219431	63.45855	-1.133E-005	3.938016	11	0.1603163	0.0195261	-327.6853
	5	13	31640.63	0.0489648	0.0894923	1	0.1020119	61.31515	-1.22987E-005	3.93803	11	0.1598689	0.0162962	-327.6853
	6	15	25171.88	0.0447085	0.0736423	1	0.0861512	58.73792	-2.957252E-005	3.938022	11	0.1595687	0.0137405	-327.6853
	7	17	20015.62	0.0412781	0.0606292	1	0.073347	55.75183	-1.979852E-005	3.938022	11	0.1593694	0.0116857	-327.6853
	8	18	15890.62	0.0384103	0.0498783	1	0.0629539	52.40081	-2.079096E-005	3.938024	11	0.159231	0.0100223	-327.6853
	9	20	12609.38	0.0359813	0.0409483	1	0.0545107	48.69421	-1.694588E-005	3.938032	11	0.1591492	0.0086743	-327.6853
	10	22	10078.13	0.0340197	0.0337075	1	0.0478909	44.73584	-2.034497E-005	3.938031	11	0.1590854	0.0076182	-327.6853
	11	23	8015.625	0.0323924	0.0274317	1	0.0424472	40.25974	-1.821236E-005	3.938045	11	0.1590549	0.0067511	-327.6853
	12	25	6328.125	0.0311389	0.0219691	1	0.0381087	35.20364	-2.006465E-005	3.938045	11	0.1590397	0.0060606	-327.6853
	13	26	5015.625	0.0302701	0.0174805	1	0.034955	30.00572	-2.105709E-005	3.938045	11	0.1590164	0.0055583	-327.6853
	14	28	3984.375	0.0297081	0.0137937	1	0.0327542	24.90586	-2.004893E-005	3.93804	11	0.1590053	0.005208	-327.6853
	15	30	3170.956	0.0293983	0.0107621	1	0.0313063	20.10666	-1.924395E-005	3.938055	11	0.1590063	0.0049779	-327.6853
	16	32	2527.573	0.0292599	0.00825	1	0.0304007	15.74616	-2.239255E-005	3.938042	11	0.1590016	0.0048337	-327.6853
	17	33	1976.103	0.0292441	0.0061462	1	0.029883	11.86913	-2.826727E-005	3.938055	11	0.1590073	0.0047516	-327.6853
	18	35	1577.524	0.0293602	0.0045021	1	0.0297033	8.717945	-3.464369E-005	3.938046	11	0.1590039	0.0047229	-327.6853
	19	37	1265.625	0.0294935	0.0032763	1	0.0296749	6.338731	-2.861873E-005	3.938059	11	0.1589972	0.0047182	-327.6853
	20	38	998.264	0.0297093	0.002103	1	0.0297836	4.048928	-1.78474E-005	3.938057	11	0.1589994	0.0047356	-327.6853
	21	40	796.875	0.0299399	0.0012991	1	0.0299681	2.484514	-2.357934E-005	3.938059	11	0.1590002	0.0047649	-327.6853
	22	41	627.7902	0.0302069	0.000582	1	0.0302125	1.103699	-1.909817E-005	3.93807	11	0.1589985	0.0048037	-327.6853
	23	43	505.5147	0.0304576	4.757232E-005	1	0.0304576	0.0894913	-1.925073E-005	3.938074	11	0.1575994	0.0047734	-327.6853
	24	44	397.9953	0.0307629	-0.0004006	1	0.0307655	-0.7459884	-2.048293E-005	3.938077	11	0.160606	0.0049208	-327.6853
	25	46	315.5048	0.03106	-0.0007608	1	0.0310693	-1.403197	-2.326409E-005	3.938079	11	0.1593319	0.0049364	-327.6853
	26	47	252.4038	0.0313424	-0.0010447	1	0.0313598	-1.90899	-2.64328E-005	3.938085	11	0.158973	0.0049759	-327.6853
	27	49	198.6229	0.0316626	-0.0012933	1	0.031689	-2.33905	-2.04941E-005	3.938089	11	0.1588744	0.0050285	-327.6853
	28	50	158.3615	0.0319643	-0.0014973	1	0.0319994	-2.681949	-2.282736E-005	3.938092	11	0.1588921	0.0050805	-327.6853
	29	52	125.558	0.0322934	-0.0016626	1	0.0323362	-2.947149	-1.423073E-005	3.938094	11	0.1589098	0.005136	-327.6853
	30	53	100.4464	0.0326127	-0.0017979	1	0.0326622	-3.155454	-2.968148E-005	3.938101	11	0.1589413	0.0051897	-327.6853
	31	55	79.00281	0.0329654	-0.0019174	1	0.0330211	-3.328722	-2.804305E-005	3.938106	11	0.1589575	0.0052479	-327.6853
	32	57	63.3446	0.0333003	-0.0020066	1	0.0333607	-3.448308	-3.22999E-005	3.938103	11	0.1589766	0.0053029	-327.6853
	33	58	50.22321	0.0336607	-0.0020667	1	0.0337241	-3.513352	-1.910899E-005	3.938107	11	0.1589844	0.0053612	-327.6853
	34	60	38.42213	0.0340883	-0.0021143	1	0.0341538	-3.549117	-2.282532E-005	3.938114	11	0.1589854	0.0054297	-327.6853
	35	61	31.25	0.0344181	-0.0021225	1	0.0344835	-3.528862	-1.739222E-005	3.938108	11	0.1589866	0.0054822	-327.6853
	36	63	24.93351	0.0347715	-0.0021133	1	0.0348356	-3.47802	-2.249237E-005	3.93812	11	0.1589994	0.0055387	-327.6853
	37	64	19.86229	0.0351183	-0.002078	1	0.0351797	-3.38631	-5.510636E-006	3.938106	11	0.1589909	0.0055932	-327.6853
	38	66	15.625	0.0354881	-0.0020016	1	0.0355445	-3.228258	-2.442417E-005	3.938129	11	0.1590007	0.0056516	-327.6853
	39	67	12.40079	0.0358011	-0.0019234	1	0.0358527	-3.075286	-3.72394E-005	3.938127	11	0.1589946	0.0057004	-327.6853
	40	69	9.93114	0.0360899	-0.00184	1	0.0361368	-2.918574	-2.80424E-005	3.938127	11	0.15901	0.0057461	-327.6853
	41	70	7.944915	0.0363356	-0.001747	1	0.0363776	-2.752578	8.770498E-006	3.938118	11	0.1589966	0.0057839	-327.6853
	42	72	6.317385	0.0365619	-0.0016475	1	0.036599	-2.580051	-2.937431E-005	3.938102	11	0.1589586	0.0058177	-327.6853
	43	74	5.008013	0.0367857	-0.001564	1	0.036819	-2.434492	3.188022E-005	3.938106	11	0.1590112	0.0058546	-327.6853
	44	77	3.945707	0.0369782	-0.0014939	1	0.0370084	-2.313478	-1.952986E-005	3.938113	11	0.1590275	0.0058853	-327.6853
	45	79	3.158693	0.0371487	-0.0014519	1	0.037177	-2.238105	7.032172E-005	3.938092	11	0.158973	0.0059101	-327.6853
	46	82	2.504006	0.0373293	-0.0014201	1	0.0373563	-2.178626	9.346521E-006	3.938071	11	0.1554418	0.0057826	-327.6853
	47	85	1.998082	0.03749	-0.0014154	1	0.0375167	-2.162187	5.565162E-006	3.93807	11	0.161332	0.0060344	-327.6853
	48	89	1.584686	0.0376478	-0.0014436	1	0.0376755	-2.195872	-0.0001786	3.938076	11	0.1599468	0.0060138	-327.6853
	49	93	1.266892	0.0378022	-0.001474	1	0.037831	-2.232953	4.07054E-005	3.938177	11	0.1592623	0.0060169	-327.6853
	50	98	0.999041	0.0379833	-0.0015415	1	0.0380146	-2.324005	-1.909466E-005	3.938195	11	0.1590685	0.0060417	-327.6853
	51	104	0.7923428	0.0381646	-0.0016232	1	0.0381991	-2.435408	-4.150302E-005	3.938214	11	0.1593204	0.0060826	-327.6853
	52	111	0.6334459	0.0383497	-0.0017369	1	0.038389	-2.593179	-4.694157E-005	3.93822	11	0.1589816	0.006101	-327.6853
	53	120	0.5040323	0.0385505	-0.0018613	1	0.0385954	-2.764229	-4.424696E-005	3.938242	11	0.1589838	0.0061347	-327.6853
	54	129	0.400641	0.0387711	-0.0020205	1	0.0388237	-2.983259	-4.309327E-005	3.93826	11	0.158986	0.0061715	-327.6853
	55	143	0.316723	0.0390241	-0.0022143	1	0.0390869	-3.247545	-4.526653E-005	3.938295	11	0.1589908	0.0062139	-327.6853
	56	158	0.2520161	0.0392879	-0.0024319	1	0.0393631	-3.541993	-4.195049E-005	3.938321	11	0.1589945	0.0062582	-327.6853
	57	175	0.2003205	0.0395603	-0.0026795	1	0.039651	-3.8748	-4.541918E-005	3.93836	11	0.1589944	0.0063041	-327.6853
	58	196	0.1588983	0.0398858	-0.0029708	1	0.0399963	-4.259699	-4.33973E-005	3.9384	11	0.1589976	0.0063592	-327.6853
	59	228	0.1260081	0.0402737	-0.0032956	1	0.0404083	-4.678092	-4.262849E-005	3.938563	11	0.1589991	0.0064248	-327.6853
	60	266	0.1001603	0.0407135	-0.0036439	1	0.0408763	-5.114344	-4.299857E-005	3.938827	11	0.1589977	0.0064992	-327.6853
	61	312	0.0794492	0.041201	-0.0040427	1	0.0413988	-5.603983	-4.4521E-005	3.939134	11	0.158998	0.0065823	-327.6853
	62	352	0.0631739	0.0415979	-0.0045272	1	0.0418435	-6.21118	-4.251078E-005	3.93897	11	0.1590007	0.0066531	-327.6853
	63	417	0.0501337	0.0420862	-0.0050656	1	0.04239	-6.863278	-4.427845E-005	3.938964	11	0.1590006	0.00674	-327.6853
	64	478	0.0398258	0.0426594	-0.0056895	1	0.0430372	-7.596671	-4.273881E-005	3.939009	11	0.1590001	0.0068429	-327.6853
	65	555	0.0316296	0.0432744	-0.0064038	1	0.0437456	-8.417581	-4.275031E-005	3.939061	11	0.1589984	0.0069555	-327.6853
	66	683	0.0251206	0.0439496	-0.0072227	1	0.0445391	-9.332579	-4.325527E-005	3.939142	11	0.1590011	0.0070818	-327.6853
	67	844	0.0199553	0.0447041	-0.0081977	1	0.0454495	-10.39128	-4.074988E-005	3.939247	11	0.1589999	0.0072265	-327.6853
	68	996	0.0158522	0.0456043	-0.0093535	1	0.0465536	-11.59076	-4.46321E-005	3.939338	11	0.1589998	0.007402	-327.6853
	69	1186	0.0125907	0.0466209	-0.0107297	1	0.0478397	-12.96086	-4.397181E-005	3.93942	11	0.1590004	0.0076065	-327.6853
	70	1426	0.0100011	0.0478542	-0.0123364	1	0.0494187	-14.45562	-4.329141E-005	3.939487	11	0.1589987	0.0078575	-327.6853
