EXPLAIN
TAG	GALVEIS
TITLE	LABEL	Galvanostatic EIS	Test Identifier
DATE	LABEL	21.6.2024	Date
TIME	LABEL	14:39:23	Time
NOTES	NOTES	1	Notes...
	
PSTAT	PSTAT	REF600-12055	Potentiostat
FREQINIT	QUANT	1.00000E+005	Initial Freq. (Hz)
FREQFINAL	QUANT	1.00000E-002	Final Freq. (Hz)
PTSPERDEC	QUANT	1.00000E+001	Points/decade
IACREQ	QUANT	1.59000E-001	AC Current (A rms)
IDCREQ	QUANT	0.00000E+000	DC Current (A)
AREA	QUANT	1.00000E+000	Sample Area (cm^2)
SPEED	SELECTOR	1	Optimize for:
DRIFTCOR	SELECTOR	0	Drift Correction
THD	SELECTOR	0	THD
ZGUESS	QUANT	1.00000E-001	Estimated Z (ohms)
EOC	QUANT	3.570542	Open Circuit (V)
SEQUENCER	TOGGLE	TRUE	Run as Sequence
PSTATMODEL	IQUANT	4	Pstat Model
PSTATSECTION	LABEL	REF600-12055	Pstat Section
PSTATSERIALNO	LABEL	12055	Pstat Serial Number
CTRLMODE	IQUANT	0	Control Mode
ELECTROMETER	IQUANT	0	RE=0 or CS=1
IESTAB	IQUANT	0	I/E Stability
CASPEED	IQUANT	4	Control Amp Speed
CONVENTION	IQUANT	1	Current Convention
ICHRANGE	IQUANT	2	Ich Range
ICHRANGEMODE	TOGGLE	F	Ich Auto Range
ICHOFFSETENABLE	TOGGLE	T	Ich Offset Enable
ICHOFFSET	QUANT	0	Ich Offset (V)
ICHFILTER	IQUANT	3	Ich Filter
VCHRANGE	IQUANT	2	Vch Range
VCHRANGEMODE	TOGGLE	F	Vch Auto Range
VCHOFFSETENABLE	TOGGLE	T	Vch Offset Enable
VCHOFFSET	QUANT	0	Vch Offset (V)
VCHFILTER	IQUANT	3	Vch Filter
ACHRANGE	IQUANT	2	Ach Range
ACHOFFSETENABLE	TOGGLE	F	Ach Offset Enable
ACHOFFSET	QUANT	0	Ach Offset (V)
ACHFILTER	IQUANT	1	Ach Filter
IERANGELOWERLIMIT	IQUANT	1	I/E Range Lower Limit
IERANGEMODE	TOGGLE	F	I/E AutoRange
IERANGE	IQUANT	7	I/E Range
POSFEEDENABLE	TOGGLE	F	Positive Feedback IR Comp
POSFEEDRESISTANCE	QUANT	0	Positive Feedback Resistance (ohm)
ACHSELECT	IQUANT	4	Ach Select
SENSECABLEID	IQUANT	14	Sense Cable ID
PWRCABLEID	IQUANT	14	Power Cable ID
DCCALDATE	LABEL	2/12/2024	DC Calibration Date
ACCALDATE	LABEL	2/12/2024	AC Calibration Date
THERMOSELECT	IQUANT	1	Thermo Select
FRAMEWORKVERSION	LABEL	7.10.3	Framework Version
INSTRUMENTVERSION	LABEL	4.91	Instrument Version
COMMVERSION	LABEL	2.24	Communications Version
CPUPLDVERSION	LABEL	0.00	CPU PLD Version
CTRLPLDVERSION	LABEL	0.00	CTRL PLD Version
PSTATPLDVERSION	LABEL	0.00	PSTAT PLD Version
ZCURVE	TABLE
	Pt	Time	Freq	Zreal	Zimag	Zsig	Zmod	Zphz	Idc	Vdc	IERange	Imod	Vmod	Temp
	#	s	Hz	ohm	ohm	V	ohm	°	A	V	#	A	V	°C
	0	5	100078.1	0.0977563	0.2353133	1	0.254811	67.44053	1.63203E-005	3.570983	11	0.1597016	0.0403975	-327.6853
	1	7	79453.13	0.0828287	0.1949247	1	0.2117929	66.97807	1.279567E-005	3.570971	11	0.1644483	0.034668	-327.6853
	2	9	63140.62	0.0710409	0.1611209	1	0.1760874	66.20651	1.202454E-006	3.570962	11	0.1620563	0.028452	-327.6853
	3	10	50203.12	0.0618359	0.1328641	1	0.1465488	65.04238	-4.242421E-006	3.570967	11	0.161011	0.0235516	-327.6853
	4	12	39890.62	0.0547044	0.1092667	1	0.1221957	63.40513	-9.681156E-006	3.570966	11	0.1603266	0.0195678	-327.6853
	5	14	31640.63	0.0491863	0.0896306	1	0.1022396	61.24347	-1.659512E-005	3.570943	11	0.15987	0.0163327	-327.6853
	6	16	25171.88	0.0449369	0.0737308	1	0.0863456	58.63883	-1.479057E-005	3.57095	11	0.1595687	0.0137714	-327.6853
	7	17	20015.62	0.0415093	0.0606888	1	0.0735265	55.62904	-1.859502E-005	3.570921	11	0.1593741	0.0117147	-327.6853
	8	19	15890.62	0.0386396	0.049919	1	0.0631263	52.25846	-1.595437E-005	3.570934	11	0.1592366	0.0100501	-327.6853
	9	20	12609.38	0.0362167	0.0409686	1	0.0546815	48.52298	-2.708723E-005	3.570914	11	0.1591469	0.0087014	-327.6853
	10	22	10078.13	0.0342644	0.0336904	1	0.048053	44.51608	-1.671957E-005	3.570922	11	0.1590868	0.007644	-327.6853
	11	24	8015.625	0.0326574	0.0274059	1	0.0426332	40.00317	-1.85332E-005	3.570913	11	0.1590577	0.0067808	-327.6853
	12	25	6328.125	0.0314039	0.0219296	1	0.0383029	34.92686	-2.121308E-005	3.5709	11	0.1590362	0.0060914	-327.6853
	13	27	5015.625	0.0305464	0.0174182	1	0.0351636	29.69272	-1.94069E-005	3.570899	11	0.1590149	0.0055914	-327.6853
	14	29	3984.375	0.0299926	0.0137165	1	0.0329803	24.57597	-1.989192E-005	3.570895	11	0.1590085	0.0052441	-327.6853
	15	30	3170.956	0.0296757	0.010676	1	0.0315376	19.78644	-1.889194E-005	3.570873	11	0.1590104	0.0050148	-327.6853
	16	32	2527.573	0.0295532	0.0081663	1	0.0306607	15.44679	-2.203975E-005	3.57088	11	0.159	0.004875	-327.6853
	17	34	1976.103	0.0295771	0.0059879	1	0.0301771	11.44494	-3.117428E-005	3.570863	11	0.1590063	0.0047983	-327.6853
	18	35	1577.524	0.029677	0.0043978	1	0.0300011	8.429241	-1.850177E-005	3.570869	11	0.158999	0.0047701	-327.6853
	19	37	1265.625	0.0298717	0.0030807	1	0.0300301	5.888224	-2.239893E-005	3.570863	11	0.1590006	0.0047748	-327.6853
	20	38	998.264	0.0301011	0.0019145	1	0.0301619	3.639177	-1.987838E-005	3.570859	11	0.1589971	0.0047957	-327.6853
	21	40	796.875	0.0303722	0.0010842	1	0.0303916	2.04442	-2.414268E-005	3.570846	11	0.1590063	0.0048324	-327.6853
	22	41	627.7902	0.0306635	0.0003949	1	0.030666	0.7379066	-2.097141E-005	3.570833	11	0.1590069	0.0048761	-327.6853
	23	43	505.5147	0.0309546	-0.0001937	1	0.0309552	-0.3586178	-2.178317E-005	3.570841	11	0.1575896	0.0048511	-327.6853
	24	44	397.9953	0.0312993	-0.0006499	1	0.031306	-1.189525	-2.088083E-005	3.570836	11	0.1606024	0.0050072	-327.6853
	25	46	315.5048	0.0316364	-0.001019	1	0.0316528	-1.84488	-2.11891E-005	3.570832	11	0.159336	0.0050292	-327.6853
	26	47	252.4038	0.0319643	-0.001313	1	0.0319913	-2.352131	-1.832983E-005	3.570828	11	0.1589671	0.0050759	-327.6853
	27	49	198.6229	0.0323258	-0.0015719	1	0.032364	-2.783937	-2.213946E-005	3.570822	11	0.158884	0.0051359	-327.6853
	28	50	158.3615	0.0326767	-0.0017724	1	0.0327248	-3.104775	-2.13437E-005	3.570817	11	0.1588817	0.0051953	-327.6853
	29	52	125.558	0.0330452	-0.0019433	1	0.0331023	-3.365589	-1.886945E-005	3.570807	11	0.1589202	0.005258	-327.6853
	30	53	100.4464	0.033412	-0.0020842	1	0.0334769	-3.569451	-2.185523E-005	3.570805	11	0.1589397	0.0053191	-327.6853
	31	55	79.00281	0.0338103	-0.0022104	1	0.0338825	-3.740422	-3.543741E-005	3.5708	11	0.1589537	0.0053847	-327.6853
	32	57	63.3446	0.0341867	-0.0022957	1	0.0342636	-3.841766	-3.514322E-005	3.570789	11	0.1589804	0.0054466	-327.6853
	33	59	50.22321	0.034585	-0.0023639	1	0.0346657	-3.910138	-3.450341E-005	3.570784	11	0.1589804	0.0055107	-327.6853
	34	60	38.42213	0.0350661	-0.0024181	1	0.0351493	-3.944746	-3.333646E-005	3.570777	11	0.1589901	0.0055881	-327.6853
	35	62	31.25	0.0354386	-0.0024319	1	0.0355219	-3.925642	-2.158526E-005	3.570772	11	0.1589926	0.0056476	-327.6853
	36	63	24.93351	0.0358483	-0.0024248	1	0.0359303	-3.869592	-3.118499E-005	3.570768	11	0.1589933	0.0057126	-327.6853
	37	65	19.86229	0.0362532	-0.0023956	1	0.0363323	-3.780544	-2.854154E-006	3.570757	11	0.1589778	0.005776	-327.6853
	38	66	15.625	0.0366745	-0.0023261	1	0.0367482	-3.629106	-1.484901E-005	3.570762	11	0.1590118	0.0058433	-327.6853
	39	67	12.40079	0.0370627	-0.0022292	1	0.0371297	-3.442071	-1.270766E-005	3.570771	11	0.1589859	0.0059031	-327.6853
	40	69	9.93114	0.0373976	-0.0021055	1	0.0374568	-3.22234	7.190742E-006	3.570772	11	0.1589972	0.0059555	-327.6853
	41	71	7.944915	0.0377192	-0.0019835	1	0.0377713	-3.010104	-3.633311E-005	3.570749	11	0.1590057	0.0060058	-327.6853
	42	72	6.317385	0.0379956	-0.0018424	1	0.0380403	-2.776113	-0.0000995	3.570742	11	0.1590176	0.0060491	-327.6853
	43	75	5.008013	0.038242	-0.0017027	1	0.0382799	-2.549324	-5.140807E-005	3.570754	11	0.1589907	0.0060861	-327.6853
	44	77	3.945707	0.038464	-0.0015699	1	0.038496	-2.337273	1.100486E-005	3.57073	11	0.1589802	0.0061201	-327.6853
	45	80	3.158693	0.0386488	-0.0014726	1	0.0386768	-2.18204	7.002102E-005	3.570699	11	0.1589893	0.0061492	-327.6853
	46	83	2.504006	0.0388163	-0.0013801	1	0.0388408	-2.03626	-4.072307E-005	3.570688	11	0.1554566	0.0060129	-327.6853
	47	86	1.998082	0.0389591	-0.0013234	1	0.0389816	-1.945495	0.0002296	3.570704	11	0.1614781	0.0062757	-327.6853
	48	90	1.584686	0.0391064	-0.0012879	1	0.0391276	-1.886239	0.000138	3.570676	11	0.1597861	0.0062393	-327.6853
	49	96	1.266892	0.0392544	-0.0012664	1	0.0392748	-1.847733	-0.0002216	3.570692	11	0.1593537	0.0062501	-327.6853
	50	100	0.999041	0.039397	-0.0012737	1	0.0394176	-1.851711	-0.0002477	3.570653	11	0.1591174	0.0062666	-327.6853
	51	106	0.7923428	0.0395598	-0.0013068	1	0.0395814	-1.891964	-3.969343E-005	3.570662	11	0.1591922	0.0062976	-327.6853
	52	112	0.6334459	0.0397063	-0.001349	1	0.0397292	-1.945833	-4.237413E-005	3.570638	11	0.1589835	0.0063141	-327.6853
	53	120	0.5040323	0.0398579	-0.0014058	1	0.0398827	-2.019939	-3.982917E-005	3.570613	11	0.1589823	0.0063392	-327.6853
	54	130	0.400641	0.0400232	-0.0014944	1	0.0400511	-2.138335	-4.071684E-005	3.570583	11	0.1589864	0.0063667	-327.6853
	55	141	0.316723	0.0401936	-0.0015987	1	0.0402254	-2.277694	-4.094378E-005	3.57053	11	0.1589899	0.0063949	-327.6853
	56	159	0.2520161	0.0403909	-0.0017344	1	0.0404281	-2.45875	-4.398881E-005	3.570482	11	0.1589921	0.0064274	-327.6853
	57	176	0.2003205	0.0405688	-0.001893	1	0.040613	-2.671599	-4.218327E-005	3.570422	11	0.1589977	0.0064571	-327.6853
	58	202	0.1588983	0.0407928	-0.0020868	1	0.0408461	-2.928517	-4.311188E-005	3.570357	11	0.1589976	0.0064943	-327.6853
	59	228	0.1260081	0.041046	-0.0023177	1	0.0411114	-3.231799	-4.250965E-005	3.570392	11	0.1589977	0.0065365	-327.6853
	60	258	0.1001603	0.0413319	-0.0025823	1	0.0414125	-3.575083	-4.27306E-005	3.570484	11	0.158999	0.0065845	-327.6853
	61	304	0.0794492	0.0416524	-0.0029013	1	0.0417533	-3.984486	-4.288965E-005	3.570548	11	0.1589992	0.0066387	-327.6853
	62	356	0.0631739	0.0419021	-0.0032872	1	0.0420308	-4.485694	-4.433372E-005	3.570293	11	0.1589996	0.0066829	-327.6853
	63	405	0.0501337	0.0422574	-0.0037377	1	0.0424224	-5.054668	-4.415486E-005	3.570125	11	0.1589998	0.0067451	-327.6853
	64	467	0.0398258	0.0426072	-0.0042707	1	0.0428207	-5.723921	-4.243609E-005	3.569914	11	0.1590006	0.0068085	-327.6853
	65	569	0.0316296	0.0430495	-0.0048935	1	0.0433267	-6.485005	-4.293257E-005	3.569666	11	0.1589998	0.0068889	-327.6853
	66	697	0.0251206	0.0435236	-0.0056419	1	0.0438877	-7.385979	-4.221788E-005	3.569398	11	0.1590008	0.0069782	-327.6853
	67	857	0.0199553	0.0440743	-0.006543	1	0.0445574	-8.444094	-4.326773E-005	3.569121	11	0.1589996	0.0070846	-327.6853
	68	1059	0.0158522	0.0447132	-0.0076066	1	0.0453556	-9.65473	-4.43501E-005	3.568819	11	0.1590005	0.0072116	-327.6853
	69	1313	0.0125907	0.0454839	-0.0088614	1	0.0463391	-11.02459	-4.339599E-005	3.568492	11	0.1589988	0.0073679	-327.6853
	70	1632	0.0100011	0.046427	-0.0103336	1	0.0475631	-12.54824	-4.100944E-005	3.568226	11	0.1590007	0.0075626	-327.6853
