EXPLAIN
TAG	GALVEIS
TITLE	LABEL	Galvanostatic EIS	Test Identifier
DATE	LABEL	21.6.2024	Date
TIME	LABEL	20:04:48	Time
NOTES	NOTES	1	Notes...
	
PSTAT	PSTAT	REF600-12055	Potentiostat
FREQINIT	QUANT	1.00000E+005	Initial Freq. (Hz)
FREQFINAL	QUANT	1.00000E-002	Final Freq. (Hz)
PTSPERDEC	QUANT	1.00000E+001	Points/decade
IACREQ	QUANT	1.59000E-001	AC Current (A rms)
IDCREQ	QUANT	0.00000E+000	DC Current (A)
AREA	QUANT	1.00000E+000	Sample Area (cm^2)
SPEED	SELECTOR	1	Optimize for:
DRIFTCOR	SELECTOR	0	Drift Correction
THD	SELECTOR	0	THD
ZGUESS	QUANT	1.00000E-001	Estimated Z (ohms)
EOC	QUANT	3.905522	Open Circuit (V)
SEQUENCER	TOGGLE	TRUE	Run as Sequence
PSTATMODEL	IQUANT	4	Pstat Model
PSTATSECTION	LABEL	REF600-12055	Pstat Section
PSTATSERIALNO	LABEL	12055	Pstat Serial Number
CTRLMODE	IQUANT	0	Control Mode
ELECTROMETER	IQUANT	0	RE=0 or CS=1
IESTAB	IQUANT	0	I/E Stability
CASPEED	IQUANT	4	Control Amp Speed
CONVENTION	IQUANT	1	Current Convention
ICHRANGE	IQUANT	2	Ich Range
ICHRANGEMODE	TOGGLE	F	Ich Auto Range
ICHOFFSETENABLE	TOGGLE	T	Ich Offset Enable
ICHOFFSET	QUANT	0	Ich Offset (V)
ICHFILTER	IQUANT	3	Ich Filter
VCHRANGE	IQUANT	2	Vch Range
VCHRANGEMODE	TOGGLE	F	Vch Auto Range
VCHOFFSETENABLE	TOGGLE	T	Vch Offset Enable
VCHOFFSET	QUANT	0	Vch Offset (V)
VCHFILTER	IQUANT	3	Vch Filter
ACHRANGE	IQUANT	2	Ach Range
ACHOFFSETENABLE	TOGGLE	F	Ach Offset Enable
ACHOFFSET	QUANT	0	Ach Offset (V)
ACHFILTER	IQUANT	1	Ach Filter
IERANGELOWERLIMIT	IQUANT	1	I/E Range Lower Limit
IERANGEMODE	TOGGLE	F	I/E AutoRange
IERANGE	IQUANT	7	I/E Range
POSFEEDENABLE	TOGGLE	F	Positive Feedback IR Comp
POSFEEDRESISTANCE	QUANT	0	Positive Feedback Resistance (ohm)
ACHSELECT	IQUANT	4	Ach Select
SENSECABLEID	IQUANT	14	Sense Cable ID
PWRCABLEID	IQUANT	14	Power Cable ID
DCCALDATE	LABEL	2/12/2024	DC Calibration Date
ACCALDATE	LABEL	2/12/2024	AC Calibration Date
THERMOSELECT	IQUANT	1	Thermo Select
FRAMEWORKVERSION	LABEL	7.10.3	Framework Version
INSTRUMENTVERSION	LABEL	4.91	Instrument Version
COMMVERSION	LABEL	2.24	Communications Version
CPUPLDVERSION	LABEL	0.00	CPU PLD Version
CTRLPLDVERSION	LABEL	0.00	CTRL PLD Version
PSTATPLDVERSION	LABEL	0.00	PSTAT PLD Version
ZCURVE	TABLE
	Pt	Time	Freq	Zreal	Zimag	Zsig	Zmod	Zphz	Idc	Vdc	IERange	Imod	Vmod	Temp
	#	s	Hz	ohm	ohm	V	ohm	°	A	V	#	A	V	°C
	0	5	100078.1	0.0976364	0.2348766	1	0.2543617	67.42773	3.012479E-005	3.905653	11	0.159701	0.0403261	-327.6853
	1	6	79453.13	0.0826429	0.1946092	1	0.2114298	66.99096	1.11942E-005	3.905651	11	0.1644264	0.0346039	-327.6853
	2	8	63140.62	0.0708266	0.1608808	1	0.1757812	66.23887	1.773238E-006	3.905641	11	0.1620627	0.0284036	-327.6853
	3	10	50203.12	0.061587	0.1326679	1	0.146266	65.09836	-1.005619E-005	3.905636	11	0.1610118	0.0235063	-327.6853
	4	11	39890.62	0.054447	0.1091147	1	0.1219446	63.48133	-1.150079E-005	3.905615	11	0.1603197	0.0195268	-327.6853
	5	13	31640.63	0.0489213	0.089505	1	0.1020021	61.34001	-9.400363E-006	3.905619	11	0.1598738	0.0162951	-327.6853
	6	15	25171.88	0.0446703	0.073639	1	0.0861286	58.75851	-1.533795E-005	3.905613	11	0.1595686	0.0137369	-327.6853
	7	17	20015.62	0.041243	0.0606209	1	0.0733203	55.77086	-1.693098E-005	3.90559	11	0.1593683	0.0116814	-327.6853
	8	18	15890.62	0.0383731	0.0498524	1	0.0629107	52.41328	-1.650164E-005	3.905594	11	0.1592379	0.0100159	-327.6853
	9	20	12609.38	0.0359548	0.0409312	1	0.0544803	48.70328	-1.859316E-005	3.905589	11	0.1591444	0.0086692	-327.6853
	10	22	10078.13	0.0339914	0.0336763	1	0.0478488	44.73324	-1.797057E-005	3.905582	11	0.1590874	0.0076116	-327.6853
	11	23	8015.625	0.0323875	0.0273941	1	0.0424192	40.22534	-2.254883E-005	3.905566	11	0.1590594	0.0067468	-327.6853
	12	25	6328.125	0.0311478	0.0219281	1	0.0380923	35.14563	-2.145511E-005	3.905559	11	0.1590341	0.0060578	-327.6853
	13	26	5015.625	0.0302794	0.0174493	1	0.0349474	29.95379	-2.24078E-005	3.905555	11	0.1590128	0.005557	-327.6853
	14	28	3984.375	0.0297239	0.0137587	1	0.0327538	24.83861	-2.286932E-005	3.90555	11	0.1590087	0.0052081	-327.6853
	15	29	3170.956	0.0294199	0.0107238	1	0.0313135	20.02728	-2.19536E-005	3.905546	11	0.1590081	0.0049791	-327.6853
	16	31	2527.573	0.0292868	0.0082154	1	0.0304172	15.66972	-2.092368E-005	3.905548	11	0.1590038	0.0048364	-327.6853
	17	32	1976.103	0.029294	0.0061104	1	0.0299245	11.78226	-1.985277E-005	3.905545	11	0.1590028	0.0047581	-327.6853
	18	34	1577.524	0.0293951	0.0044324	1	0.0297274	8.574834	-3.036065E-005	3.905527	11	0.1589998	0.0047266	-327.6853
	19	36	1265.625	0.029542	0.003167	1	0.0297113	6.118945	-1.995452E-005	3.905532	11	0.1589997	0.0047241	-327.6853
	20	37	998.264	0.0297657	0.0020629	1	0.0298371	3.964555	-1.689192E-005	3.905523	11	0.1589994	0.0047441	-327.6853
	21	39	796.875	0.0299941	0.0012451	1	0.0300199	2.376984	-2.021971E-005	3.905511	11	0.1589979	0.0047731	-327.6853
	22	40	627.7902	0.0302578	0.0005794	1	0.0302634	1.097025	-2.060749E-005	3.905494	11	0.1590045	0.004812	-327.6853
	23	42	505.5147	0.0305353	2.65575E-005	1	0.0305353	0.049832	-2.111132E-005	3.905506	11	0.1576003	0.0047856	-327.6853
	24	43	397.9953	0.0308468	-0.0004069	1	0.0308495	-0.7557864	-2.018607E-005	3.905499	11	0.1606	0.0049341	-327.6853
	25	45	315.5048	0.0311476	-0.0007589	1	0.0311568	-1.395697	-2.164172E-005	3.905495	11	0.1593398	0.0049505	-327.6853
	26	46	252.4038	0.0314339	-0.0010384	1	0.0314511	-1.891985	-2.17479E-005	3.905485	11	0.1589657	0.0049902	-327.6853
	27	48	198.6229	0.0317518	-0.0012749	1	0.0317774	-2.299273	-1.991261E-005	3.905482	11	0.1588834	0.0050428	-327.6853
	28	49	158.3615	0.0320624	-0.0014639	1	0.0320958	-2.614265	-2.265838E-005	3.905474	11	0.1588881	0.0050957	-327.6853
	29	51	125.558	0.0323851	-0.0016178	1	0.0324255	-2.859869	-1.60893E-005	3.905472	11	0.1589117	0.0051502	-327.6853
	30	52	100.4464	0.0326969	-0.0017353	1	0.0327429	-3.03797	-2.141256E-005	3.905458	11	0.1589414	0.0052025	-327.6853
	31	54	79.00281	0.0330499	-0.0018345	1	0.0331008	-3.177085	-2.133602E-005	3.905454	11	0.1589593	0.0052606	-327.6853
	32	56	63.3446	0.0333772	-0.0018973	1	0.033431	-3.253411	-1.922774E-005	3.905449	11	0.1589714	0.0053139	-327.6853
	33	57	50.22321	0.0337216	-0.001937	1	0.0337772	-3.287464	-2.263789E-005	3.905445	11	0.1589789	0.0053694	-327.6853
	34	59	38.42213	0.0341229	-0.0019592	1	0.0341791	-3.286058	-1.609814E-005	3.905435	11	0.1589949	0.005434	-327.6853
	35	61	31.25	0.0344289	-0.0019401	1	0.0344835	-3.22524	-3.546593E-005	3.905436	11	0.1589845	0.0054822	-327.6853
	36	62	24.93351	0.0347544	-0.0019005	1	0.0348063	-3.129976	-2.350332E-005	3.905426	11	0.1590044	0.0055343	-327.6853
	37	64	19.86229	0.0350705	-0.001849	1	0.0351192	-3.018041	-4.078133E-005	3.905424	11	0.1589851	0.0055834	-327.6853
	38	65	15.625	0.0353797	-0.0017589	1	0.0354234	-2.846079	-5.014241E-006	3.9054	11	0.1589881	0.0056319	-327.6853
	39	67	12.40079	0.0356569	-0.0016433	1	0.0356948	-2.638645	1.352746E-006	3.905419	11	0.1589966	0.0056753	-327.6853
	40	68	9.93114	0.0358848	-0.0015504	1	0.0359182	-2.473958	5.782349E-006	3.90542	11	0.1590026	0.0057111	-327.6853
	41	70	7.944915	0.0360825	-0.0014601	1	0.036112	-2.317287	-4.893611E-005	3.905417	11	0.1590073	0.0057421	-327.6853
	42	72	6.317385	0.0362804	-0.0013762	1	0.0363065	-2.172353	6.890332E-005	3.905412	11	0.1590232	0.0057736	-327.6853
	43	74	5.008013	0.0364471	-0.0012891	1	0.0364699	-2.025685	-1.97411E-005	3.905377	11	0.1589906	0.0057984	-327.6853
	44	76	3.945707	0.036606	-0.0012325	1	0.0366267	-1.928388	-4.135841E-005	3.905378	11	0.1589859	0.0058231	-327.6853
	45	79	3.158693	0.0367357	-0.0011938	1	0.0367551	-1.861303	7.22587E-006	3.905357	11	0.1590254	0.005845	-327.6853
	46	81	2.504006	0.0368726	-0.0011719	1	0.0368912	-1.820463	3.816304E-005	3.905332	11	0.1553679	0.0057079	-327.6853
	47	86	1.998082	0.0370145	-0.0011692	1	0.037033	-1.809302	-0.0002013	3.905284	11	0.1614416	0.0059607	-327.6853
	48	89	1.584686	0.0371422	-0.0011794	1	0.0371609	-1.818727	-0.0003348	3.905274	11	0.1600345	0.0059349	-327.6853
	49	93	1.266892	0.037275	-0.0012146	1	0.0372948	-1.866306	0.0002284	3.905305	11	0.159236	0.0059307	-327.6853
	50	99	0.999041	0.0374303	-0.001276	1	0.0374521	-1.952432	0.000185	3.905319	11	0.1590413	0.0059513	-327.6853
	51	104	0.7923428	0.0375978	-0.0013208	1	0.037621	-2.011885	-4.679689E-005	3.905312	11	0.1592103	0.0059864	-327.6853
	52	111	0.6334459	0.0377496	-0.0014032	1	0.0377757	-2.128774	-4.319011E-005	3.905275	11	0.158984	0.0060036	-327.6853
	53	121	0.5040323	0.0379224	-0.0015009	1	0.0379521	-2.266524	-3.956171E-005	3.905246	11	0.1589818	0.0060323	-327.6853
	54	132	0.400641	0.0381068	-0.0016234	1	0.0381414	-2.439341	-4.131942E-005	3.9052	11	0.1589862	0.0060631	-327.6853
	55	146	0.316723	0.0383211	-0.0017669	1	0.0383618	-2.63991	-4.116198E-005	3.905151	11	0.1589881	0.0060985	-327.6853
	56	160	0.2520161	0.0385458	-0.0019335	1	0.0385943	-2.871677	-4.164141E-005	3.905114	11	0.1589957	0.006136	-327.6853
	57	178	0.2003205	0.0387732	-0.0021127	1	0.0388307	-3.118833	-4.8152E-005	3.905045	11	0.1589957	0.0061737	-327.6853
	58	204	0.1588983	0.0390516	-0.0023293	1	0.039121	-3.413449	-4.1318E-005	3.904977	11	0.1589971	0.00622	-327.6853
	59	230	0.1260081	0.0393788	-0.0025748	1	0.0394629	-3.74095	-4.362823E-005	3.904982	11	0.1589987	0.0062745	-327.6853
	60	260	0.1001603	0.0397474	-0.0028411	1	0.0398488	-4.088414	-4.270433E-005	3.905067	11	0.1589976	0.0063358	-327.6853
	61	296	0.0794492	0.0401374	-0.003158	1	0.0402615	-4.49876	-4.476253E-005	3.905132	11	0.1590012	0.0064016	-327.6853
	62	335	0.0631739	0.0404467	-0.0035242	1	0.0406	-4.979702	-4.240717E-005	3.90485	11	0.1589997	0.0064554	-327.6853
	63	384	0.0501337	0.0408593	-0.0039271	1	0.0410476	-5.489989	-4.274999E-005	3.90464	11	0.1590011	0.0065266	-327.6853
	64	446	0.0398258	0.0413049	-0.0044104	1	0.0415397	-6.094799	-3.948512E-005	3.904396	11	0.158997	0.0066047	-327.6853
	65	548	0.0316296	0.0418217	-0.0049649	1	0.0421154	-6.77017	-4.179187E-005	3.904103	11	0.1590005	0.0066964	-327.6853
	66	676	0.0251206	0.0423894	-0.0056214	1	0.0427605	-7.554089	-4.276943E-005	3.903775	11	0.1590011	0.006799	-327.6853
	67	837	0.0199553	0.0430361	-0.0063899	1	0.0435078	-8.445413	-4.368077E-005	3.903477	11	0.1589998	0.0069177	-327.6853
	68	988	0.0158522	0.0437749	-0.0072896	1	0.0443777	-9.454465	-4.295092E-005	3.903168	11	0.1589999	0.007056	-327.6853
	69	1179	0.0125907	0.0446562	-0.0083582	1	0.0454317	-10.60124	-4.252906E-005	3.902802	11	0.1589986	0.0072236	-327.6853
	70	1419	0.0100011	0.0456863	-0.0095711	1	0.0466781	-11.83207	-4.451423E-005	3.902387	11	0.1590016	0.0074219	-327.6853
