EXPLAIN
TAG	GALVEIS
TITLE	LABEL	Galvanostatic EIS	Test Identifier
DATE	LABEL	21.6.2024	Date
TIME	LABEL	21:24:53	Time
NOTES	NOTES	1	Notes...
	
PSTAT	PSTAT	REF600-12055	Potentiostat
FREQINIT	QUANT	1.00000E+005	Initial Freq. (Hz)
FREQFINAL	QUANT	1.00000E-002	Final Freq. (Hz)
PTSPERDEC	QUANT	1.00000E+001	Points/decade
IACREQ	QUANT	1.59000E-001	AC Current (A rms)
IDCREQ	QUANT	0.00000E+000	DC Current (A)
AREA	QUANT	1.00000E+000	Sample Area (cm^2)
SPEED	SELECTOR	1	Optimize for:
DRIFTCOR	SELECTOR	0	Drift Correction
THD	SELECTOR	0	THD
ZGUESS	QUANT	1.00000E-001	Estimated Z (ohms)
EOC	QUANT	4.003024	Open Circuit (V)
SEQUENCER	TOGGLE	TRUE	Run as Sequence
PSTATMODEL	IQUANT	4	Pstat Model
PSTATSECTION	LABEL	REF600-12055	Pstat Section
PSTATSERIALNO	LABEL	12055	Pstat Serial Number
CTRLMODE	IQUANT	0	Control Mode
ELECTROMETER	IQUANT	0	RE=0 or CS=1
IESTAB	IQUANT	0	I/E Stability
CASPEED	IQUANT	4	Control Amp Speed
CONVENTION	IQUANT	1	Current Convention
ICHRANGE	IQUANT	2	Ich Range
ICHRANGEMODE	TOGGLE	F	Ich Auto Range
ICHOFFSETENABLE	TOGGLE	T	Ich Offset Enable
ICHOFFSET	QUANT	0	Ich Offset (V)
ICHFILTER	IQUANT	3	Ich Filter
VCHRANGE	IQUANT	2	Vch Range
VCHRANGEMODE	TOGGLE	F	Vch Auto Range
VCHOFFSETENABLE	TOGGLE	T	Vch Offset Enable
VCHOFFSET	QUANT	0	Vch Offset (V)
VCHFILTER	IQUANT	3	Vch Filter
ACHRANGE	IQUANT	2	Ach Range
ACHOFFSETENABLE	TOGGLE	F	Ach Offset Enable
ACHOFFSET	QUANT	0	Ach Offset (V)
ACHFILTER	IQUANT	1	Ach Filter
IERANGELOWERLIMIT	IQUANT	1	I/E Range Lower Limit
IERANGEMODE	TOGGLE	F	I/E AutoRange
IERANGE	IQUANT	7	I/E Range
POSFEEDENABLE	TOGGLE	F	Positive Feedback IR Comp
POSFEEDRESISTANCE	QUANT	0	Positive Feedback Resistance (ohm)
ACHSELECT	IQUANT	4	Ach Select
SENSECABLEID	IQUANT	14	Sense Cable ID
PWRCABLEID	IQUANT	14	Power Cable ID
DCCALDATE	LABEL	2/12/2024	DC Calibration Date
ACCALDATE	LABEL	2/12/2024	AC Calibration Date
THERMOSELECT	IQUANT	1	Thermo Select
FRAMEWORKVERSION	LABEL	7.10.3	Framework Version
INSTRUMENTVERSION	LABEL	4.91	Instrument Version
COMMVERSION	LABEL	2.24	Communications Version
CPUPLDVERSION	LABEL	0.00	CPU PLD Version
CTRLPLDVERSION	LABEL	0.00	CTRL PLD Version
PSTATPLDVERSION	LABEL	0.00	PSTAT PLD Version
ZCURVE	TABLE
	Pt	Time	Freq	Zreal	Zimag	Zsig	Zmod	Zphz	Idc	Vdc	IERange	Imod	Vmod	Temp
	#	s	Hz	ohm	ohm	V	ohm	°	A	V	#	A	V	°C
	0	5	100078.1	0.097526	0.2348252	1	0.2542719	67.44624	1.973461E-005	4.003135	11	0.1597075	0.0403135	-327.6853
	1	7	79453.13	0.0825524	0.1945585	1	0.2113478	67.00816	2.921093E-006	4.003127	11	0.1644318	0.0345917	-327.6853
	2	9	63140.62	0.070729	0.1608344	1	0.1756994	66.2619	2.663583E-006	4.003117	11	0.1620568	0.0283894	-327.6853
	3	10	50203.12	0.0615234	0.1326243	1	0.1461996	65.11377	-3.954396E-006	4.003111	11	0.1610163	0.0234963	-327.6853
	4	12	39890.62	0.0544009	0.1090654	1	0.1218799	63.49035	-1.275877E-005	4.003095	11	0.1603239	0.0195169	-327.6853
	5	14	31640.63	0.048877	0.089458	1	0.1019396	61.34922	-1.157913E-005	4.003095	11	0.1598716	0.0162849	-327.6853
	6	16	25171.88	0.0446349	0.0736022	1	0.0860788	58.76595	-1.391489E-005	4.003078	11	0.1595701	0.013729	-327.6853
	7	17	20015.62	0.0412149	0.0605772	1	0.0732684	55.76979	-1.78304E-005	4.003051	11	0.1593696	0.0116732	-327.6853
	8	19	15890.62	0.0383528	0.0498217	1	0.062874	52.41092	-1.660991E-005	4.003055	11	0.1592401	0.0100101	-327.6853
	9	21	12609.38	0.0359305	0.0409043	1	0.0544442	48.70377	-2.081331E-005	4.00304	11	0.1591403	0.0086632	-327.6853
	10	22	10078.13	0.0339741	0.0336525	1	0.0478198	44.72753	-3.013512E-005	4.003034	11	0.1590941	0.0076073	-327.6853
	11	24	8015.625	0.032364	0.0273728	1	0.0423875	40.22389	-3.118976E-005	4.003017	11	0.1590534	0.0067415	-327.6853
	12	26	6328.125	0.031115	0.0219165	1	0.0380588	35.15982	-1.722656E-005	4.003018	11	0.1590359	0.0060525	-327.6853
	13	27	5015.625	0.0302649	0.0174251	1	0.0349227	29.93138	-1.997023E-005	4.002994	11	0.1590132	0.0055531	-327.6853
	14	29	3984.375	0.0297129	0.0137464	1	0.0327386	24.82721	-1.792365E-005	4.002993	11	0.1590105	0.0052057	-327.6853
	15	30	3170.956	0.0294001	0.0106959	1	0.0312852	19.99162	-1.822074E-005	4.002995	11	0.1590095	0.0049746	-327.6853
	16	32	2527.573	0.0292688	0.0082099	1	0.0303984	15.66877	-1.823536E-005	4.002972	11	0.158999	0.0048333	-327.6853
	17	34	1976.103	0.0292792	0.0060218	1	0.029892	11.62182	-1.825998E-005	4.002981	11	0.1590023	0.0047529	-327.6853
	18	35	1577.524	0.029382	0.004412	1	0.0297114	8.539754	-2.24004E-005	4.002959	11	0.1590009	0.0047241	-327.6853
	19	37	1265.625	0.0295394	0.0031704	1	0.029709	6.125949	-2.045496E-005	4.002953	11	0.1590032	0.0047238	-327.6853
	20	39	998.264	0.0297791	0.0020822	1	0.0298518	3.999667	-1.848978E-005	4.002946	11	0.159	0.0047464	-327.6853
	21	40	796.875	0.0299923	0.0012899	1	0.03002	2.462693	-3.140734E-005	4.002935	11	0.1590032	0.0047733	-327.6853
	22	42	627.7902	0.0302618	0.0005418	1	0.0302666	1.025672	-2.909813E-005	4.002928	11	0.1589965	0.0048123	-327.6853
	23	43	505.5147	0.0305315	1.374907E-005	1	0.0305315	0.0258017	-3.211049E-005	4.002925	11	0.1575973	0.004785	-327.6853
	24	45	397.9953	0.0308467	-0.0004311	1	0.0308497	-0.8007056	-3.200967E-005	4.002914	11	0.1606022	0.0049342	-327.6853
	25	46	315.5048	0.0311437	-0.0007858	1	0.0311536	-1.445284	-1.978106E-005	4.002907	11	0.1593403	0.00495	-327.6853
	26	48	252.4038	0.0314383	-0.0010602	1	0.0314562	-1.931511	-2.049736E-005	4.002904	11	0.1589675	0.0049911	-327.6853
	27	49	198.6229	0.0317532	-0.001309	1	0.0317801	-2.360702	-1.598703E-005	4.002898	11	0.1588776	0.0050431	-327.6853
	28	51	158.3615	0.0320644	-0.0014987	1	0.0320994	-2.676057	-3.090093E-005	4.002888	11	0.1588915	0.0050964	-327.6853
	29	52	125.558	0.0323859	-0.0016635	1	0.0324286	-2.94038	-2.947649E-005	4.002875	11	0.1589156	0.0051509	-327.6853
	30	54	100.4464	0.0326999	-0.0017905	1	0.0327489	-3.134181	-2.834259E-005	4.002869	11	0.1589381	0.0052034	-327.6853
	31	56	79.00281	0.0330538	-0.0018972	1	0.0331082	-3.28497	-2.905959E-005	4.00286	11	0.1589602	0.0052619	-327.6853
	32	57	63.3446	0.0333803	-0.0019779	1	0.0334389	-3.391027	-2.092368E-005	4.002848	11	0.1589728	0.0053152	-327.6853
	33	59	50.22321	0.033732	-0.0020491	1	0.0337942	-3.476191	-1.625554E-005	4.002839	11	0.1589853	0.0053723	-327.6853
	34	60	38.42213	0.0341531	-0.0020986	1	0.0342175	-3.5163	-1.841446E-005	4.002836	11	0.1589829	0.0054397	-327.6853
	35	62	31.25	0.0344765	-0.0021064	1	0.0345408	-3.496211	-4.875474E-006	4.00282	11	0.1589914	0.0054915	-327.6853
	36	64	24.93351	0.0348287	-0.002094	1	0.0348916	-3.440693	-1.904659E-005	4.002817	11	0.1590002	0.0055477	-327.6853
	37	65	19.86229	0.035184	-0.0020766	1	0.0352453	-3.377755	7.841503E-006	4.002803	11	0.1589774	0.0056031	-327.6853
	38	67	15.625	0.0355452	-0.0020079	1	0.0356019	-3.233181	-4.059554E-005	4.002816	11	0.1590079	0.0056609	-327.6853
	39	68	12.40079	0.0358691	-0.0019284	1	0.0359209	-3.077394	-3.549003E-005	4.002796	11	0.1589906	0.0057111	-327.6853
	40	70	9.93114	0.0361554	-0.0018364	1	0.036202	-2.907703	-5.028863E-005	4.002774	11	0.1589945	0.0057559	-327.6853
	41	71	7.944915	0.0364154	-0.0017257	1	0.0364563	-2.713172	1.010741E-005	4.002763	11	0.1590209	0.0057973	-327.6853
	42	73	6.317385	0.0366569	-0.001624	1	0.0366928	-2.53667	-0.000107	4.002742	11	0.1590102	0.0058345	-327.6853
	43	75	5.008013	0.0368733	-0.0015322	1	0.0369051	-2.379523	2.46939E-005	4.002722	11	0.1589564	0.0058663	-327.6853
	44	78	3.945707	0.037071	-0.0014366	1	0.0370988	-2.219285	-4.817813E-005	4.002722	11	0.1590219	0.0058995	-327.6853
	45	81	3.158693	0.037242	-0.0013731	1	0.0372673	-2.111574	-7.77567E-006	4.002699	11	0.1590305	0.0059266	-327.6853
	46	84	2.504006	0.0373983	-0.0013247	1	0.0374218	-2.0286	3.208593E-005	4.002664	11	0.1553708	0.0057901	-327.6853
	47	88	1.998082	0.0375509	-0.0012957	1	0.0375732	-1.976279	-0.000212	4.002609	11	0.161448	0.0060478	-327.6853
	48	92	1.584686	0.0376905	-0.001283	1	0.0377124	-1.949601	-0.0003423	4.002592	11	0.1600236	0.0060226	-327.6853
	49	97	1.266892	0.0378336	-0.0013032	1	0.0378561	-1.972821	0.0002364	4.002608	11	0.1592555	0.0060206	-327.6853
	50	102	0.999041	0.0380032	-0.0013426	1	0.0380269	-2.023282	0.0001915	4.00262	11	0.1590383	0.0060425	-327.6853
	51	106	0.7923428	0.0381731	-0.0013669	1	0.0381975	-2.050744	-3.913476E-005	4.00262	11	0.1591952	0.0060775	-327.6853
	52	113	0.6334459	0.0383197	-0.0014325	1	0.0383464	-2.140841	-3.981625E-005	4.002567	11	0.1589834	0.0060943	-327.6853
	53	122	0.5040323	0.0384945	-0.0015261	1	0.0385248	-2.270229	-3.861441E-005	4.002507	11	0.1589823	0.0061234	-327.6853
	54	134	0.400641	0.0386715	-0.0016346	1	0.038706	-2.420437	-4.071728E-005	4.002451	11	0.1589861	0.0061528	-327.6853
	55	148	0.316723	0.0388732	-0.0017695	1	0.0389135	-2.606315	-3.902281E-005	4.002381	11	0.1589898	0.0061863	-327.6853
	56	165	0.2520161	0.03909	-0.0019311	1	0.0391376	-2.828259	-4.368866E-005	4.002297	11	0.1589934	0.0062223	-327.6853
	57	186	0.2003205	0.0393208	-0.0021209	1	0.039378	-3.087475	-4.009211E-005	4.002198	11	0.1589962	0.0062607	-327.6853
	58	213	0.1588983	0.0395813	-0.0023385	1	0.0396504	-3.381223	-4.03158E-005	4.002098	11	0.1589965	0.0063041	-327.6853
	59	238	0.1260081	0.0398969	-0.0025933	1	0.0399811	-3.71899	-4.051227E-005	4.002082	11	0.1589988	0.0063569	-327.6853
	60	268	0.1001603	0.0402549	-0.002883	1	0.040358	-4.096446	-4.628579E-005	4.002141	11	0.159	0.0064169	-327.6853
	61	305	0.0794492	0.0406332	-0.0032182	1	0.0407604	-4.528388	-4.347028E-005	4.002115	11	0.1590006	0.0064809	-327.6853
	62	357	0.0631739	0.0409534	-0.0036122	1	0.0411124	-5.040628	-4.080906E-005	4.001774	11	0.1589994	0.0065368	-327.6853
	63	406	0.0501337	0.0413567	-0.0040608	1	0.0415556	-5.60786	-4.004582E-005	4.001521	11	0.1589998	0.0066073	-327.6853
	64	467	0.0398258	0.0418213	-0.0045769	1	0.042071	-6.245605	-4.206511E-005	4.001208	11	0.1589987	0.0066892	-327.6853
	65	569	0.0316296	0.0423448	-0.0051796	1	0.0426605	-6.973782	-4.101179E-005	4.000828	11	0.1590005	0.006783	-327.6853
	66	697	0.0251206	0.0429368	-0.005876	1	0.043337	-7.792624	-4.223728E-005	4.000454	11	0.1590002	0.0068906	-327.6853
	67	818	0.0199553	0.0436069	-0.0066896	1	0.044117	-8.72164	-4.243875E-005	4.000004	11	0.1589998	0.0070146	-327.6853
	68	1020	0.0158522	0.0443696	-0.0076337	1	0.0450215	-9.76206	-3.969064E-005	3.99951	11	0.1589993	0.0071584	-327.6853
	69	1211	0.0125907	0.0452363	-0.0087451	1	0.0460738	-10.94153	-4.112077E-005	3.998932	11	0.1590001	0.0073257	-327.6853
	70	1530	0.0100011	0.0462679	-0.0100342	1	0.0473435	-12.23629	-3.998756E-005	3.998189	11	0.1590007	0.0075276	-327.6853
