EXPLAIN
TAG	GALVEIS
TITLE	LABEL	Galvanostatic EIS	Test Identifier
DATE	LABEL	21.6.2024	Date
TIME	LABEL	18:45:05	Time
NOTES	NOTES	1	Notes...
	
PSTAT	PSTAT	REF600-12055	Potentiostat
FREQINIT	QUANT	1.00000E+005	Initial Freq. (Hz)
FREQFINAL	QUANT	1.00000E-002	Final Freq. (Hz)
PTSPERDEC	QUANT	1.00000E+001	Points/decade
IACREQ	QUANT	1.59000E-001	AC Current (A rms)
IDCREQ	QUANT	0.00000E+000	DC Current (A)
AREA	QUANT	1.00000E+000	Sample Area (cm^2)
SPEED	SELECTOR	1	Optimize for:
DRIFTCOR	SELECTOR	0	Drift Correction
THD	SELECTOR	0	THD
ZGUESS	QUANT	1.00000E-001	Estimated Z (ohms)
EOC	QUANT	3.820191	Open Circuit (V)
SEQUENCER	TOGGLE	TRUE	Run as Sequence
PSTATMODEL	IQUANT	4	Pstat Model
PSTATSECTION	LABEL	REF600-12055	Pstat Section
PSTATSERIALNO	LABEL	12055	Pstat Serial Number
CTRLMODE	IQUANT	0	Control Mode
ELECTROMETER	IQUANT	0	RE=0 or CS=1
IESTAB	IQUANT	0	I/E Stability
CASPEED	IQUANT	4	Control Amp Speed
CONVENTION	IQUANT	1	Current Convention
ICHRANGE	IQUANT	2	Ich Range
ICHRANGEMODE	TOGGLE	F	Ich Auto Range
ICHOFFSETENABLE	TOGGLE	T	Ich Offset Enable
ICHOFFSET	QUANT	0	Ich Offset (V)
ICHFILTER	IQUANT	3	Ich Filter
VCHRANGE	IQUANT	2	Vch Range
VCHRANGEMODE	TOGGLE	F	Vch Auto Range
VCHOFFSETENABLE	TOGGLE	T	Vch Offset Enable
VCHOFFSET	QUANT	0	Vch Offset (V)
VCHFILTER	IQUANT	3	Vch Filter
ACHRANGE	IQUANT	2	Ach Range
ACHOFFSETENABLE	TOGGLE	F	Ach Offset Enable
ACHOFFSET	QUANT	0	Ach Offset (V)
ACHFILTER	IQUANT	1	Ach Filter
IERANGELOWERLIMIT	IQUANT	1	I/E Range Lower Limit
IERANGEMODE	TOGGLE	F	I/E AutoRange
IERANGE	IQUANT	7	I/E Range
POSFEEDENABLE	TOGGLE	F	Positive Feedback IR Comp
POSFEEDRESISTANCE	QUANT	0	Positive Feedback Resistance (ohm)
ACHSELECT	IQUANT	4	Ach Select
SENSECABLEID	IQUANT	14	Sense Cable ID
PWRCABLEID	IQUANT	14	Power Cable ID
DCCALDATE	LABEL	2/12/2024	DC Calibration Date
ACCALDATE	LABEL	2/12/2024	AC Calibration Date
THERMOSELECT	IQUANT	1	Thermo Select
FRAMEWORKVERSION	LABEL	7.10.3	Framework Version
INSTRUMENTVERSION	LABEL	4.91	Instrument Version
COMMVERSION	LABEL	2.24	Communications Version
CPUPLDVERSION	LABEL	0.00	CPU PLD Version
CTRLPLDVERSION	LABEL	0.00	CTRL PLD Version
PSTATPLDVERSION	LABEL	0.00	PSTAT PLD Version
ZCURVE	TABLE
	Pt	Time	Freq	Zreal	Zimag	Zsig	Zmod	Zphz	Idc	Vdc	IERange	Imod	Vmod	Temp
	#	s	Hz	ohm	ohm	V	ohm	°	A	V	#	A	V	°C
	0	5	100078.1	0.0977922	0.2349846	1	0.2545213	67.40466	2.385955E-005	3.820526	11	0.1596823	0.0403467	-327.6853
	1	7	79453.13	0.082776	0.1946946	1	0.2115605	66.96683	1.187506E-005	3.82052	11	0.1644276	0.0346256	-327.6853
	2	9	63140.62	0.0709308	0.1609712	1	0.175906	66.21967	-6.641727E-006	3.820521	11	0.1620772	0.0284263	-327.6853
	3	10	50203.12	0.0616779	0.132748	1	0.1463769	65.07928	-1.850119E-005	3.820495	11	0.1609892	0.0235208	-327.6853
	4	12	39890.62	0.0545276	0.1091852	1	0.1220437	63.46226	-2.468913E-005	3.82049	11	0.1603188	0.0195425	-327.6853
	5	14	31640.63	0.0489945	0.0895735	1	0.1020973	61.32244	-2.012693E-005	3.82049	11	0.1598689	0.0163099	-327.6853
	6	15	25171.88	0.0447336	0.0737004	1	0.0862139	58.74369	-1.825916E-005	3.820456	11	0.1595661	0.0137502	-327.6853
	7	17	20015.62	0.0412894	0.0606689	1	0.0733862	55.76203	-1.879826E-005	3.820453	11	0.1593671	0.0116918	-327.6853
	8	19	15890.62	0.0384177	0.0499064	1	0.0629807	52.41112	-1.423596E-005	3.820451	11	0.1592357	0.0100269	-327.6853
	9	20	12609.38	0.0359956	0.0409694	1	0.054536	48.69754	-1.758663E-005	3.820444	11	0.1591418	0.0086779	-327.6853
	10	22	10078.13	0.0340226	0.0337162	1	0.0478991	44.74083	-1.830573E-005	3.820434	11	0.1590889	0.0076196	-327.6853
	11	24	8015.625	0.0324024	0.0274319	1	0.042455	40.25128	-3.312679E-005	3.820416	11	0.1590605	0.0067526	-327.6853
	12	25	6328.125	0.0311598	0.0219619	1	0.0381216	35.1767	-2.131439E-005	3.820406	11	0.1590283	0.0060622	-327.6853
	13	27	5015.625	0.0302984	0.0174755	1	0.0349769	29.97551	-2.089818E-005	3.820395	11	0.1590204	0.0055619	-327.6853
	14	28	3984.375	0.0297435	0.0137882	1	0.032784	24.87096	-1.9814E-005	3.820392	11	0.1590105	0.0052129	-327.6853
	15	30	3170.956	0.0294352	0.0107598	1	0.0313401	20.07953	-1.979072E-005	3.820389	11	0.159003	0.0049831	-327.6853
	16	32	2527.573	0.0292876	0.008276	1	0.0304344	15.77915	-1.854869E-005	3.820376	11	0.159007	0.0048393	-327.6853
	17	34	1976.103	0.0292993	0.0061218	1	0.029932	11.80157	-2.253335E-005	3.82036	11	0.1590056	0.0047593	-327.6853
	18	35	1577.524	0.0293852	0.0045371	1	0.0297334	8.777251	-2.904842E-005	3.82036	11	0.1590013	0.0047276	-327.6853
	19	37	1265.625	0.0295319	0.003242	1	0.0297093	6.264765	-2.053287E-005	3.820333	11	0.1589976	0.0047237	-327.6853
	20	38	998.264	0.0297601	0.0020851	1	0.029833	4.007865	-1.921877E-005	3.82033	11	0.1589963	0.0047433	-327.6853
	21	40	796.875	0.0299999	0.001265	1	0.0300265	2.414609	-2.282974E-005	3.820322	11	0.1589958	0.0047741	-327.6853
	22	41	627.7902	0.0302486	0.0005694	1	0.0302539	1.078407	-2.237708E-005	3.820322	11	0.1590021	0.0048104	-327.6853
	23	43	505.5147	0.0305263	3.090826E-005	1	0.0305263	0.0580127	-2.014061E-005	3.820317	11	0.1576041	0.0047843	-327.6853
	24	44	397.9953	0.0308357	-0.000405	1	0.0308384	-0.7525129	-2.063933E-005	3.82031	11	0.1606021	0.0049324	-327.6853
	25	46	315.5048	0.031132	-0.0007619	1	0.0311413	-1.401978	-1.957803E-005	3.820298	11	0.159335	0.0049479	-327.6853
	26	47	252.4038	0.0314251	-0.0010438	1	0.0314424	-1.90233	-2.536073E-005	3.820292	11	0.1589722	0.004989	-327.6853
	27	49	198.6229	0.0317485	-0.0012841	1	0.0317744	-2.316137	-2.038223E-005	3.820284	11	0.1588773	0.0050421	-327.6853
	28	50	158.3615	0.0320556	-0.0014719	1	0.0320893	-2.629037	-1.913286E-005	3.820274	11	0.1588882	0.0050946	-327.6853
	29	52	125.558	0.032383	-0.0016252	1	0.0324237	-2.873061	-2.011703E-005	3.820271	11	0.1589084	0.0051499	-327.6853
	30	53	100.4464	0.0327017	-0.0017417	1	0.032748	-3.048693	-2.457888E-005	3.820259	11	0.1589449	0.0052035	-327.6853
	31	55	79.00281	0.0330557	-0.0018401	1	0.0331069	-3.186098	-2.444722E-005	3.820251	11	0.1589587	0.0052616	-327.6853
	32	56	63.3446	0.033387	-0.0019009	1	0.0334411	-3.258674	-2.104603E-005	3.82024	11	0.1589719	0.0053155	-327.6853
	33	58	50.22321	0.0337322	-0.0019403	1	0.033788	-3.292134	-2.079096E-005	3.820228	11	0.1589811	0.0053712	-327.6853
	34	60	38.42213	0.034134	-0.0019426	1	0.0341892	-3.25729	-2.238253E-005	3.820225	11	0.1589884	0.0054354	-327.6853
	35	61	31.25	0.0344404	-0.0019188	1	0.0344938	-3.188939	-1.970393E-005	3.820215	11	0.1590022	0.0054844	-327.6853
	36	63	24.93351	0.0347615	-0.001878	1	0.0348122	-3.092337	-1.969136E-005	3.820209	11	0.1589918	0.0055347	-327.6853
	37	64	19.86229	0.0350619	-0.0018182	1	0.035109	-2.968532	9.800773E-006	3.820198	11	0.1589718	0.0055813	-327.6853
	38	66	15.625	0.035364	-0.0017225	1	0.0354059	-2.788602	-9.984011E-006	3.820186	11	0.1590063	0.0056297	-327.6853
	39	67	12.40079	0.0356241	-0.0016199	1	0.0356609	-2.603587	4.878268E-006	3.820192	11	0.1589891	0.0056697	-327.6853
	40	69	9.93114	0.0358427	-0.0015287	1	0.0358752	-2.442123	7.885625E-006	3.820197	11	0.159003	0.0057043	-327.6853
	41	70	7.944915	0.0360312	-0.0014382	1	0.0360599	-2.285719	-1.231726E-005	3.820159	11	0.1589989	0.0057335	-327.6853
	42	72	6.317385	0.0362172	-0.0013573	1	0.0362427	-2.146264	-6.773334E-005	3.820167	11	0.1589936	0.0057623	-327.6853
	43	74	5.008013	0.0363764	-0.0013054	1	0.0363998	-2.055304	-6.95223E-005	3.820176	11	0.1590034	0.0057877	-327.6853
	44	76	3.945707	0.0365269	-0.0012424	1	0.036548	-1.948143	-3.393338E-005	3.820163	11	0.1590169	0.0058117	-327.6853
	45	79	3.158693	0.0366686	-0.0012304	1	0.0366893	-1.921775	-0.0001168	3.820163	11	0.1589701	0.0058325	-327.6853
	46	81	2.504006	0.0368185	-0.0012184	1	0.0368387	-1.895388	-5.131832E-005	3.820173	11	0.1554455	0.0057026	-327.6853
	47	85	1.998082	0.0369609	-0.0012249	1	0.0369812	-1.898165	-6.007333E-005	3.820158	11	0.1613381	0.0059485	-327.6853
	48	88	1.584686	0.0370981	-0.0012696	1	0.0371198	-1.960057	0.0001255	3.82014	11	0.1599355	0.0059247	-327.6853
	49	92	1.266892	0.037235	-0.0013195	1	0.0372584	-2.029542	-7.174314E-005	3.820026	11	0.1592657	0.005926	-327.6853
	50	97	0.999041	0.0373865	-0.001388	1	0.0374123	-2.126094	-6.934868E-006	3.819994	11	0.1590747	0.0059462	-327.6853
	51	101	0.7923428	0.0375786	-0.0014777	1	0.0376077	-2.251907	-4.146996E-005	3.820076	11	0.159315	0.0059882	-327.6853
	52	109	0.6334459	0.037753	-0.0015979	1	0.0377868	-2.423617	-4.186423E-005	3.820022	11	0.1589829	0.0060053	-327.6853
	53	117	0.5040323	0.0379392	-0.0017344	1	0.0379788	-2.61741	-4.13261E-005	3.819964	11	0.1589821	0.0060366	-327.6853
	54	129	0.400641	0.0381462	-0.0018937	1	0.0381932	-2.842077	-4.048766E-005	3.819894	11	0.1589863	0.0060713	-327.6853
	55	143	0.316723	0.0383957	-0.0020832	1	0.0384522	-3.105563	-4.126508E-005	3.819834	11	0.1589908	0.006113	-327.6853
	56	157	0.2520161	0.0386462	-0.002299	1	0.0387145	-3.404377	-4.010407E-005	3.819748	11	0.1589926	0.006155	-327.6853
	57	178	0.2003205	0.0389392	-0.0025404	1	0.039022	-3.732666	-4.693997E-005	3.819637	11	0.1589971	0.0062042	-327.6853
	58	205	0.1588983	0.0392529	-0.0028192	1	0.039354	-4.108051	-4.476275E-005	3.819526	11	0.1589973	0.006257	-327.6853
	59	230	0.1260081	0.0396418	-0.0031372	1	0.0397657	-4.524954	-4.22517E-005	3.819489	11	0.1589973	0.0063226	-327.6853
	60	268	0.1001603	0.040099	-0.0034849	1	0.0402501	-4.966898	-4.573994E-005	3.819572	11	0.1589977	0.0063996	-327.6853
	61	304	0.0794492	0.0405992	-0.0038953	1	0.0407857	-5.480483	-3.965948E-005	3.819644	11	0.1590011	0.0064849	-327.6853
	62	344	0.0631739	0.0409537	-0.0043649	1	0.0411857	-6.083683	-4.308023E-005	3.819223	11	0.1590001	0.0065485	-327.6853
	63	408	0.0501337	0.0414583	-0.0049013	1	0.041747	-6.742394	-4.309447E-005	3.818917	11	0.1590008	0.0066378	-327.6853
	64	470	0.0398258	0.0420061	-0.0055206	1	0.0423673	-7.487177	-4.335243E-005	3.818581	11	0.1589996	0.0067364	-327.6853
	65	572	0.0316296	0.0426269	-0.0062565	1	0.0430836	-8.349881	-4.309445E-005	3.818233	11	0.1589998	0.0068503	-327.6853
	66	668	0.0251206	0.0433068	-0.0071298	1	0.0438898	-9.348994	-4.273759E-005	3.817823	11	0.1589996	0.0069785	-327.6853
	67	829	0.0199553	0.0440893	-0.0081777	1	0.0448413	-10.50789	-4.211028E-005	3.817297	11	0.159	0.0071298	-327.6853
	68	1031	0.0158522	0.0449998	-0.0094261	1	0.0459764	-11.83064	-4.307656E-005	3.816817	11	0.1589983	0.0073102	-327.6853
	69	1222	0.0125907	0.0460509	-0.0109319	1	0.0473307	-13.35415	-4.285684E-005	3.816354	11	0.1590012	0.0075256	-327.6853
	70	1462	0.0100011	0.0473199	-0.0126813	1	0.0489897	-15.00223	-4.181183E-005	3.815842	11	0.1590003	0.0077894	-327.6853
