EXPLAIN
TAG	GALVEIS
TITLE	LABEL	Galvanostatic EIS	Test Identifier
DATE	LABEL	21.6.2024	Date
TIME	LABEL	17:27:54	Time
NOTES	NOTES	1	Notes...
	
PSTAT	PSTAT	REF600-12055	Potentiostat
FREQINIT	QUANT	1.00000E+005	Initial Freq. (Hz)
FREQFINAL	QUANT	1.00000E-002	Final Freq. (Hz)
PTSPERDEC	QUANT	1.00000E+001	Points/decade
IACREQ	QUANT	1.59000E-001	AC Current (A rms)
IDCREQ	QUANT	0.00000E+000	DC Current (A)
AREA	QUANT	1.00000E+000	Sample Area (cm^2)
SPEED	SELECTOR	1	Optimize for:
DRIFTCOR	SELECTOR	0	Drift Correction
THD	SELECTOR	0	THD
ZGUESS	QUANT	1.00000E-001	Estimated Z (ohms)
EOC	QUANT	3.716948	Open Circuit (V)
SEQUENCER	TOGGLE	TRUE	Run as Sequence
PSTATMODEL	IQUANT	4	Pstat Model
PSTATSECTION	LABEL	REF600-12055	Pstat Section
PSTATSERIALNO	LABEL	12055	Pstat Serial Number
CTRLMODE	IQUANT	0	Control Mode
ELECTROMETER	IQUANT	0	RE=0 or CS=1
IESTAB	IQUANT	0	I/E Stability
CASPEED	IQUANT	4	Control Amp Speed
CONVENTION	IQUANT	1	Current Convention
ICHRANGE	IQUANT	2	Ich Range
ICHRANGEMODE	TOGGLE	F	Ich Auto Range
ICHOFFSETENABLE	TOGGLE	T	Ich Offset Enable
ICHOFFSET	QUANT	0	Ich Offset (V)
ICHFILTER	IQUANT	3	Ich Filter
VCHRANGE	IQUANT	2	Vch Range
VCHRANGEMODE	TOGGLE	F	Vch Auto Range
VCHOFFSETENABLE	TOGGLE	T	Vch Offset Enable
VCHOFFSET	QUANT	0	Vch Offset (V)
VCHFILTER	IQUANT	3	Vch Filter
ACHRANGE	IQUANT	2	Ach Range
ACHOFFSETENABLE	TOGGLE	F	Ach Offset Enable
ACHOFFSET	QUANT	0	Ach Offset (V)
ACHFILTER	IQUANT	1	Ach Filter
IERANGELOWERLIMIT	IQUANT	1	I/E Range Lower Limit
IERANGEMODE	TOGGLE	F	I/E AutoRange
IERANGE	IQUANT	7	I/E Range
POSFEEDENABLE	TOGGLE	F	Positive Feedback IR Comp
POSFEEDRESISTANCE	QUANT	0	Positive Feedback Resistance (ohm)
ACHSELECT	IQUANT	4	Ach Select
SENSECABLEID	IQUANT	14	Sense Cable ID
PWRCABLEID	IQUANT	14	Power Cable ID
DCCALDATE	LABEL	2/12/2024	DC Calibration Date
ACCALDATE	LABEL	2/12/2024	AC Calibration Date
THERMOSELECT	IQUANT	1	Thermo Select
FRAMEWORKVERSION	LABEL	7.10.3	Framework Version
INSTRUMENTVERSION	LABEL	4.91	Instrument Version
COMMVERSION	LABEL	2.24	Communications Version
CPUPLDVERSION	LABEL	0.00	CPU PLD Version
CTRLPLDVERSION	LABEL	0.00	CTRL PLD Version
PSTATPLDVERSION	LABEL	0.00	PSTAT PLD Version
ZCURVE	TABLE
	Pt	Time	Freq	Zreal	Zimag	Zsig	Zmod	Zphz	Idc	Vdc	IERange	Imod	Vmod	Temp
	#	s	Hz	ohm	ohm	V	ohm	°	A	V	#	A	V	°C
	0	5	100078.1	0.0977798	0.2350647	1	0.2545905	67.41416	2.902467E-005	3.717042	11	0.1596905	0.0403597	-327.6853
	1	7	79453.13	0.0827921	0.1947576	1	0.2116248	66.96948	1.648348E-005	3.717036	11	0.1644283	0.0346362	-327.6853
	2	9	63140.62	0.0709541	0.1610108	1	0.1759516	66.2179	4.265341E-006	3.717028	11	0.1620818	0.0284345	-327.6853
	3	10	50203.12	0.061732	0.1327772	1	0.1464262	65.0649	-8.110655E-006	3.717014	11	0.1609886	0.0235287	-327.6853
	4	12	39890.62	0.0545758	0.1092155	1	0.1220923	63.44836	-1.950958E-005	3.717014	11	0.1603216	0.0195506	-327.6853
	5	14	31640.63	0.0490434	0.089586	1	0.1021318	61.30175	-1.500931E-005	3.716993	11	0.1598696	0.0163154	-327.6853
	6	15	25171.88	0.0447869	0.0737024	1	0.0862433	58.71414	-1.436064E-005	3.716983	11	0.1595675	0.013755	-327.6853
	7	17	20015.62	0.0413561	0.0606776	1	0.0734309	55.72274	-1.975149E-005	3.716986	11	0.1593701	0.0116991	-327.6853
	8	19	15890.62	0.0384815	0.049907	1	0.0630201	52.36546	-2.939138E-005	3.716966	11	0.1592369	0.0100332	-327.6853
	9	21	12609.38	0.0360582	0.0409714	1	0.0545788	48.64964	-1.550923E-005	3.716966	11	0.1591437	0.0086848	-327.6853
	10	22	10078.13	0.0340853	0.0337094	1	0.0479388	44.68237	-2.212671E-005	3.716946	11	0.1590927	0.0076261	-327.6853
	11	24	8015.625	0.0324684	0.0274226	1	0.0424993	40.18429	-2.150959E-005	3.716943	11	0.1590492	0.0067592	-327.6853
	12	25	6328.125	0.0312277	0.0219516	1	0.0381712	35.10546	-1.831201E-005	3.716933	11	0.1590375	0.0060705	-327.6853
	13	27	5015.625	0.030364	0.01746	1	0.0350261	29.89984	-2.26429E-005	3.716933	11	0.1590176	0.0055697	-327.6853
	14	29	3984.375	0.0298089	0.0137454	1	0.0328254	24.75523	-2.339215E-005	3.716935	11	0.1590074	0.0052194	-327.6853
	15	30	3170.956	0.029497	0.0107103	1	0.0313813	19.95584	-2.215779E-005	3.716923	11	0.1590078	0.0049898	-327.6853
	16	32	2527.573	0.0293733	0.0082127	1	0.0304998	15.62085	-1.734495E-005	3.716905	11	0.1590042	0.0048496	-327.6853
	17	34	1976.103	0.0293798	0.0060928	1	0.0300049	11.71603	-1.743907E-005	3.716901	11	0.1590009	0.0047708	-327.6853
	18	35	1577.524	0.0294911	0.0044356	1	0.0298228	8.553476	-1.951691E-005	3.716899	11	0.1589993	0.0047418	-327.6853
	19	37	1265.625	0.0296201	0.0032022	1	0.0297927	6.170309	-2.100135E-005	3.716893	11	0.1590013	0.0047371	-327.6853
	20	39	998.264	0.0298684	0.0020466	1	0.0299385	3.919741	-1.961796E-005	3.716882	11	0.1589989	0.0047602	-327.6853
	21	40	796.875	0.0300978	0.0012058	1	0.0301219	2.294172	-1.936057E-005	3.716887	11	0.158995	0.0047892	-327.6853
	22	42	627.7902	0.0303774	0.0004703	1	0.030381	0.8869323	-1.944572E-005	3.716876	11	0.1590018	0.0048306	-327.6853
	23	43	505.5147	0.0306566	-3.720537E-005	1	0.0306566	-0.0695351	-1.515821E-005	3.716877	11	0.157604	0.0048048	-327.6853
	24	45	397.9953	0.0309803	-0.0004826	1	0.0309841	-0.8923918	-2.121122E-005	3.716871	11	0.1605995	0.0049556	-327.6853
	25	46	315.5048	0.031293	-0.0008352	1	0.0313042	-1.528838	-2.125301E-005	3.716866	11	0.1593378	0.0049739	-327.6853
	26	48	252.4038	0.0315976	-0.0011129	1	0.0316172	-2.017156	-2.139446E-005	3.71686	11	0.1589698	0.0050167	-327.6853
	27	49	198.6229	0.0319281	-0.0013628	1	0.0319572	-2.444109	-1.963763E-005	3.716855	11	0.15888	0.0050712	-327.6853
	28	51	158.3615	0.0322518	-0.0015466	1	0.0322889	-2.745365	-3.118801E-005	3.71685	11	0.1588848	0.0051262	-327.6853
	29	52	125.558	0.0325883	-0.0017002	1	0.0326326	-2.986614	-2.644898E-005	3.716843	11	0.1589162	0.0051833	-327.6853
	30	54	100.4464	0.0329256	-0.0018213	1	0.0329759	-3.166158	-1.252629E-005	3.716838	11	0.158941	0.0052396	-327.6853
	31	55	79.00281	0.0332876	-0.0019091	1	0.0333423	-3.282465	-2.195017E-005	3.716831	11	0.1589575	0.005299	-327.6853
	32	57	63.3446	0.0336268	-0.0019676	1	0.0336843	-3.348752	-2.240692E-005	3.716824	11	0.1589773	0.0053544	-327.6853
	33	59	50.22321	0.0339834	-0.0020076	1	0.0340426	-3.380791	-2.770778E-005	3.716815	11	0.1589797	0.0054117	-327.6853
	34	60	38.42213	0.0343923	-0.0020053	1	0.0344507	-3.336998	-2.610963E-005	3.716818	11	0.1589867	0.0054769	-327.6853
	35	62	31.25	0.0347162	-0.0019979	1	0.0347736	-3.293727	-2.051238E-005	3.716803	11	0.1589897	0.0055285	-327.6853
	36	63	24.93351	0.0350494	-0.0019435	1	0.0351032	-3.173812	-3.133435E-005	3.716803	11	0.1590014	0.0055813	-327.6853
	37	65	19.86229	0.0353624	-0.0018701	1	0.0354118	-3.027142	-5.811627E-006	3.716784	11	0.1589922	0.0056301	-327.6853
	38	66	15.625	0.035669	-0.0017959	1	0.0357142	-2.882285	-3.863999E-005	3.716797	11	0.1589839	0.0056779	-327.6853
	39	68	12.40079	0.0359409	-0.0016805	1	0.0359802	-2.676968	-3.875955E-005	3.716779	11	0.1590037	0.005721	-327.6853
	40	69	9.93114	0.0361817	-0.0015791	1	0.0362162	-2.499074	-5.401252E-005	3.716754	11	0.1589888	0.0057579	-327.6853
	41	71	7.944915	0.0363841	-0.0014751	1	0.0364139	-2.321638	9.548152E-006	3.716746	11	0.1590233	0.0057907	-327.6853
	42	73	6.317385	0.0365654	-0.0013888	1	0.0365918	-2.175115	-3.545138E-006	3.71673	11	0.1589545	0.0058164	-327.6853
	43	75	5.008013	0.0367329	-0.0013142	1	0.0367564	-2.049027	-4.301156E-005	3.71672	11	0.159042	0.0058458	-327.6853
	44	78	3.945707	0.0368865	-0.0012573	1	0.0369079	-1.952216	-2.889309E-005	3.716729	11	0.1590019	0.0058684	-327.6853
	45	80	3.158693	0.0370142	-0.0012295	1	0.0370347	-1.902511	-0.0001107	3.716744	11	0.1589666	0.0058873	-327.6853
	46	83	2.504006	0.0371662	-0.0012221	1	0.0371863	-1.883289	-5.887297E-005	3.716764	11	0.1554427	0.0057563	-327.6853
	47	86	1.998082	0.0372978	-0.0012183	1	0.0373177	-1.870864	-2.271584E-005	3.716755	11	0.1613193	0.0060019	-327.6853
	48	91	1.584686	0.0374346	-0.0012613	1	0.0374559	-1.929811	0.0001673	3.71674	11	0.159972	0.0059797	-327.6853
	49	97	1.266892	0.0375666	-0.0013058	1	0.0375893	-1.990768	-0.0001187	3.71664	11	0.1592668	0.0059786	-327.6853
	50	102	0.999041	0.0377153	-0.0013789	1	0.0377405	-2.093815	-6.028284E-005	3.716612	11	0.1590589	0.0059978	-327.6853
	51	107	0.7923428	0.0379073	-0.0014651	1	0.0379356	-2.213339	-3.993089E-005	3.716706	11	0.1593158	0.0060404	-327.6853
	52	115	0.6334459	0.0380642	-0.0015755	1	0.0380968	-2.370208	-4.258635E-005	3.716655	11	0.1589829	0.0060546	-327.6853
	53	125	0.5040323	0.0382469	-0.0017139	1	0.0382853	-2.565798	-4.842406E-005	3.716616	11	0.1589819	0.0060853	-327.6853
	54	136	0.400641	0.0384568	-0.0018682	1	0.0385022	-2.781264	-4.047221E-005	3.71658	11	0.1589872	0.0061205	-327.6853
	55	148	0.316723	0.0386832	-0.002064	1	0.0387383	-3.054188	-4.120212E-005	3.716538	11	0.1589895	0.0061584	-327.6853
	56	165	0.2520161	0.0389213	-0.0022737	1	0.0389877	-3.343315	-4.162619E-005	3.716494	11	0.1589936	0.0061984	-327.6853
	57	182	0.2003205	0.0392056	-0.0025289	1	0.0392871	-3.690644	-4.13903E-005	3.716428	11	0.1589955	0.0062462	-327.6853
	58	209	0.1588983	0.0395056	-0.0028242	1	0.0396064	-4.089049	-4.014045E-005	3.716347	11	0.1589975	0.0062972	-327.6853
	59	240	0.1260081	0.0398865	-0.0031558	1	0.0400111	-4.523729	-4.295277E-005	3.716391	11	0.1589965	0.0063615	-327.6853
	60	271	0.1001603	0.0403067	-0.0035273	1	0.0404607	-5.001257	-4.12786E-005	3.716516	11	0.1590013	0.0064332	-327.6853
	61	317	0.0794492	0.0407648	-0.0039593	1	0.0409566	-5.54744	-4.560492E-005	3.716602	11	0.158999	0.006512	-327.6853
	62	369	0.0631739	0.0411661	-0.0044341	1	0.0414042	-6.147707	-4.152932E-005	3.716306	11	0.1590006	0.0065833	-327.6853
	63	418	0.0501337	0.0416317	-0.0049908	1	0.0419297	-6.836008	-3.960258E-005	3.716094	11	0.158999	0.0066668	-327.6853
	64	499	0.0398258	0.0421672	-0.0056211	1	0.0425402	-7.593094	-4.426525E-005	3.715892	11	0.1590001	0.0067639	-327.6853
	65	576	0.0316296	0.0427695	-0.0063726	1	0.0432417	-8.474651	-4.341415E-005	3.715718	11	0.158999	0.0068754	-327.6853
	66	672	0.0251206	0.0434165	-0.0072542	1	0.0440183	-9.485565	-4.164486E-005	3.715514	11	0.159001	0.006999	-327.6853
	67	793	0.0199553	0.0440999	-0.0083163	1	0.0448772	-10.67933	-4.281671E-005	3.71523	11	0.1590006	0.0071355	-327.6853
	68	995	0.0158522	0.0448986	-0.0095569	1	0.0459044	-12.01637	-3.810622E-005	3.714884	11	0.1589993	0.0072988	-327.6853
	69	1249	0.0125907	0.045845	-0.0110691	1	0.0471624	-13.57405	-4.182139E-005	3.714524	11	0.1590007	0.0074988	-327.6853
	70	1569	0.0100011	0.0470268	-0.0128169	1	0.0487421	-15.24534	-4.236491E-005	3.714215	11	0.1590004	0.00775	-327.6853
