EXPLAIN
TAG	GALVEIS
TITLE	LABEL	Galvanostatic EIS	Test Identifier
DATE	LABEL	21.6.2024	Date
TIME	LABEL	16:02:18	Time
NOTES	NOTES	1	Notes...
	
PSTAT	PSTAT	REF600-12055	Potentiostat
FREQINIT	QUANT	1.00000E+005	Initial Freq. (Hz)
FREQFINAL	QUANT	1.00000E-002	Final Freq. (Hz)
PTSPERDEC	QUANT	1.00000E+001	Points/decade
IACREQ	QUANT	1.59000E-001	AC Current (A rms)
IDCREQ	QUANT	0.00000E+000	DC Current (A)
AREA	QUANT	1.00000E+000	Sample Area (cm^2)
SPEED	SELECTOR	1	Optimize for:
DRIFTCOR	SELECTOR	0	Drift Correction
THD	SELECTOR	0	THD
ZGUESS	QUANT	1.00000E-001	Estimated Z (ohms)
EOC	QUANT	3.632935	Open Circuit (V)
SEQUENCER	TOGGLE	TRUE	Run as Sequence
PSTATMODEL	IQUANT	4	Pstat Model
PSTATSECTION	LABEL	REF600-12055	Pstat Section
PSTATSERIALNO	LABEL	12055	Pstat Serial Number
CTRLMODE	IQUANT	0	Control Mode
ELECTROMETER	IQUANT	0	RE=0 or CS=1
IESTAB	IQUANT	0	I/E Stability
CASPEED	IQUANT	4	Control Amp Speed
CONVENTION	IQUANT	1	Current Convention
ICHRANGE	IQUANT	2	Ich Range
ICHRANGEMODE	TOGGLE	F	Ich Auto Range
ICHOFFSETENABLE	TOGGLE	T	Ich Offset Enable
ICHOFFSET	QUANT	0	Ich Offset (V)
ICHFILTER	IQUANT	3	Ich Filter
VCHRANGE	IQUANT	2	Vch Range
VCHRANGEMODE	TOGGLE	F	Vch Auto Range
VCHOFFSETENABLE	TOGGLE	T	Vch Offset Enable
VCHOFFSET	QUANT	0	Vch Offset (V)
VCHFILTER	IQUANT	3	Vch Filter
ACHRANGE	IQUANT	2	Ach Range
ACHOFFSETENABLE	TOGGLE	F	Ach Offset Enable
ACHOFFSET	QUANT	0	Ach Offset (V)
ACHFILTER	IQUANT	1	Ach Filter
IERANGELOWERLIMIT	IQUANT	1	I/E Range Lower Limit
IERANGEMODE	TOGGLE	F	I/E AutoRange
IERANGE	IQUANT	7	I/E Range
POSFEEDENABLE	TOGGLE	F	Positive Feedback IR Comp
POSFEEDRESISTANCE	QUANT	0	Positive Feedback Resistance (ohm)
ACHSELECT	IQUANT	4	Ach Select
SENSECABLEID	IQUANT	14	Sense Cable ID
PWRCABLEID	IQUANT	14	Power Cable ID
DCCALDATE	LABEL	2/12/2024	DC Calibration Date
ACCALDATE	LABEL	2/12/2024	AC Calibration Date
THERMOSELECT	IQUANT	1	Thermo Select
FRAMEWORKVERSION	LABEL	7.10.3	Framework Version
INSTRUMENTVERSION	LABEL	4.91	Instrument Version
COMMVERSION	LABEL	2.24	Communications Version
CPUPLDVERSION	LABEL	0.00	CPU PLD Version
CTRLPLDVERSION	LABEL	0.00	CTRL PLD Version
PSTATPLDVERSION	LABEL	0.00	PSTAT PLD Version
ZCURVE	TABLE
	Pt	Time	Freq	Zreal	Zimag	Zsig	Zmod	Zphz	Idc	Vdc	IERange	Imod	Vmod	Temp
	#	s	Hz	ohm	ohm	V	ohm	°	A	V	#	A	V	°C
	0	5	100078.1	0.0977888	0.2352165	1	0.2547341	67.42542	2.389716E-005	3.633081	11	0.1596908	0.0403826	-327.6853
	1	7	79453.13	0.0828257	0.1948636	1	0.2117355	66.97234	1.093699E-005	3.633073	11	0.1644335	0.0346555	-327.6853
	2	8	63140.62	0.0710188	0.1610778	1	0.176039	66.20744	-3.525347E-007	3.633063	11	0.1620762	0.0284477	-327.6853
	3	10	50203.12	0.0617877	0.1328413	1	0.1465078	65.05573	-3.71944E-006	3.633071	11	0.1609848	0.0235412	-327.6853
	4	12	39890.62	0.0546444	0.10925	1	0.1221539	63.42683	-1.267355E-005	3.633062	11	0.1603267	0.0195611	-327.6853
	5	13	31640.63	0.0491122	0.089617	1	0.102192	61.27623	-1.232151E-005	3.633068	11	0.1598728	0.0163254	-327.6853
	6	15	25171.88	0.0448559	0.0737346	1	0.0863067	58.68607	-2.00324E-005	3.633046	11	0.1595658	0.013765	-327.6853
	7	17	20015.62	0.041424	0.0606962	1	0.0734845	55.68717	-1.976802E-005	3.633031	11	0.159367	0.0117075	-327.6853
	8	19	15890.62	0.0385596	0.0499114	1	0.0630713	52.31176	-1.663389E-005	3.633044	11	0.1592357	0.0100413	-327.6853
	9	20	12609.38	0.0361242	0.0409718	1	0.0546228	48.59791	-2.148503E-005	3.633021	11	0.1591508	0.0086922	-327.6853
	10	22	10078.13	0.0341738	0.0337033	1	0.0479975	44.60285	-2.317328E-005	3.633016	11	0.1590926	0.0076355	-327.6853
	11	23	8015.625	0.0325666	0.0274169	1	0.0425708	40.09301	-1.795415E-005	3.633026	11	0.1590501	0.0067706	-327.6853
	12	25	6328.125	0.0313101	0.0219416	1	0.0382329	35.02211	-2.445304E-005	3.633015	11	0.1590317	0.0060801	-327.6853
	13	26	5015.625	0.0304546	0.0174512	1	0.0351002	29.81372	-1.811865E-005	3.633013	11	0.1590212	0.0055816	-327.6853
	14	28	3984.375	0.029903	0.0137483	1	0.0329121	24.69131	-1.899392E-005	3.633012	11	0.1590059	0.0052332	-327.6853
	15	30	3170.956	0.0295842	0.0106883	1	0.0314558	19.86399	-1.972012E-005	3.633001	11	0.1590054	0.0050016	-327.6853
	16	31	2527.573	0.02946	0.0082377	1	0.03059	15.62229	-2.051808E-005	3.633002	11	0.1590129	0.0048642	-327.6853
	17	33	1976.103	0.0294699	0.006066	1	0.0300877	11.63117	-1.982867E-005	3.632993	11	0.1589998	0.0047839	-327.6853
	18	35	1577.524	0.0295834	0.0043782	1	0.0299056	8.418483	-3.454974E-005	3.632968	11	0.1589977	0.0047549	-327.6853
	19	36	1265.625	0.0297268	0.0031361	1	0.0298918	6.022186	-2.348679E-005	3.632968	11	0.1589969	0.0047527	-327.6853
	20	38	998.264	0.0299554	0.0020656	1	0.0300266	3.944584	-2.249936E-005	3.632959	11	0.1590041	0.0047743	-327.6853
	21	39	796.875	0.0302183	0.0011783	1	0.0302413	2.233049	-2.461043E-005	3.632964	11	0.1589986	0.0048083	-327.6853
	22	41	627.7902	0.030508	0.000438	1	0.0305111	0.8224435	-2.005196E-005	3.632966	11	0.1589958	0.0048511	-327.6853
	23	42	505.5147	0.0307795	-8.031032E-005	1	0.0307796	-0.1494966	-3.218959E-005	3.632963	11	0.1576051	0.0048241	-327.6853
	24	44	397.9953	0.0311151	-0.0005284	1	0.0311196	-0.972884	-3.213331E-005	3.632954	11	0.1605977	0.0049772	-327.6853
	25	45	315.5048	0.0314314	-0.0008906	1	0.031444	-1.623042	-3.253424E-005	3.632951	11	0.1593383	0.0049961	-327.6853
	26	47	252.4038	0.0317444	-0.0011743	1	0.0317661	-2.118546	-2.32131E-005	3.632948	11	0.1589712	0.0050404	-327.6853
	27	48	198.6229	0.0320877	-0.0014267	1	0.0321194	-2.545781	-3.236986E-005	3.632947	11	0.158882	0.005097	-327.6853
	28	50	158.3615	0.0324152	-0.0016159	1	0.0324555	-2.85389	-3.739842E-005	3.632943	11	0.1588866	0.0051527	-327.6853
	29	52	125.558	0.032767	-0.0017778	1	0.0328152	-3.105576	-2.905622E-005	3.63294	11	0.1589074	0.005212	-327.6853
	30	53	100.4464	0.0331112	-0.0018997	1	0.0331656	-3.283613	-3.763766E-005	3.63293	11	0.1589481	0.0052699	-327.6853
	31	55	79.00281	0.0334853	-0.0019936	1	0.0335446	-3.407128	-2.017652E-005	3.632929	11	0.1589566	0.0053311	-327.6853
	32	56	63.3446	0.0338403	-0.002062	1	0.033903	-3.486968	-2.2644E-005	3.632925	11	0.1589756	0.0053891	-327.6853
	33	58	50.22321	0.0342111	-0.0020969	1	0.0342753	-3.507375	-1.9058E-005	3.632921	11	0.1589769	0.0054486	-327.6853
	34	60	38.42213	0.0346428	-0.0021102	1	0.034707	-3.485734	-2.541346E-005	3.63292	11	0.1589918	0.0055179	-327.6853
	35	61	31.25	0.0349767	-0.0020939	1	0.0350393	-3.425896	-2.01168E-005	3.632904	11	0.1589946	0.0055709	-327.6853
	36	63	24.93351	0.0353301	-0.0020479	1	0.0353894	-3.317379	-2.255477E-005	3.63291	11	0.158995	0.0056266	-327.6853
	37	64	19.86229	0.0356511	-0.001996	1	0.0357069	-3.204548	-2.810816E-005	3.632895	11	0.1589961	0.0056772	-327.6853
	38	66	15.625	0.0359987	-0.001888	1	0.0360482	-3.002161	-5.279551E-005	3.632905	11	0.1589786	0.0057308	-327.6853
	39	67	12.40079	0.0362998	-0.0017652	1	0.0363427	-2.784	-4.523434E-005	3.632885	11	0.1589995	0.0057784	-327.6853
	40	69	9.93114	0.0365451	-0.0016566	1	0.0365827	-2.595442	-4.88644E-005	3.632869	11	0.159003	0.0058167	-327.6853
	41	71	7.944915	0.0367672	-0.001547	1	0.0367997	-2.409389	-4.782499E-005	3.63289	11	0.1589914	0.0058508	-327.6853
	42	72	6.317385	0.0369635	-0.0014458	1	0.0369918	-2.23991	5.245244E-005	3.632898	11	0.1590276	0.0058827	-327.6853
	43	75	5.008013	0.0371398	-0.0013492	1	0.0371643	-2.080512	-7.632968E-005	3.632896	11	0.1589582	0.0059076	-327.6853
	44	77	3.945707	0.0372959	-0.0012637	1	0.0373173	-1.940561	-3.064633E-005	3.632883	11	0.1590364	0.0059348	-327.6853
	45	80	3.158693	0.0374291	-0.0012229	1	0.0374491	-1.871371	-0.0001075	3.632884	11	0.1589852	0.0059539	-327.6853
	46	83	2.504006	0.0375752	-0.0011826	1	0.0375938	-1.802601	-6.589771E-005	3.632895	11	0.1554101	0.0058182	-327.6853
	47	87	1.998082	0.0377079	-0.0011688	1	0.037726	-1.775397	2.16277E-005	3.632895	11	0.1613453	0.0060686	-327.6853
	48	92	1.584686	0.037838	-0.0011866	1	0.0378566	-1.796164	0.0002123	3.632889	11	0.1600142	0.0060453	-327.6853
	49	96	1.266892	0.0379545	-0.0012046	1	0.0379736	-1.817858	-0.0001676	3.632806	11	0.1592339	0.0060385	-327.6853
	50	103	0.999041	0.0381074	-0.001255	1	0.038128	-1.886243	-0.0001161	3.632767	11	0.1590518	0.0060591	-327.6853
	51	108	0.7923428	0.0382735	-0.0013045	1	0.0382957	-1.952097	-4.202797E-005	3.632856	11	0.1593005	0.0060972	-327.6853
	52	114	0.6334459	0.0384252	-0.0013799	1	0.0384499	-2.056732	-4.352519E-005	3.632814	11	0.158983	0.0061107	-327.6853
	53	124	0.5040323	0.0385802	-0.0014774	1	0.0386085	-2.193033	-4.262183E-005	3.632787	11	0.1589826	0.0061367	-327.6853
	54	133	0.400641	0.0387445	-0.0016023	1	0.0387776	-2.368209	-3.822127E-005	3.632762	11	0.1589854	0.0061642	-327.6853
	55	145	0.316723	0.0389503	-0.001747	1	0.0389895	-2.568148	-4.278343E-005	3.63273	11	0.158991	0.0061984	-327.6853
	56	159	0.2520161	0.0391614	-0.0019111	1	0.039208	-2.79386	-4.238656E-005	3.632694	11	0.158993	0.0062335	-327.6853
	57	176	0.2003205	0.0393812	-0.002109	1	0.0394376	-3.065511	-4.197143E-005	3.632645	11	0.158996	0.0062702	-327.6853
	58	203	0.1588983	0.0396377	-0.0023367	1	0.0397065	-3.373702	-4.287044E-005	3.632571	11	0.1589986	0.0063131	-327.6853
	59	234	0.1260081	0.0399506	-0.0025965	1	0.0400349	-3.718544	-4.685865E-005	3.632611	11	0.1589988	0.0063654	-327.6853
	60	264	0.1001603	0.0402985	-0.0028923	1	0.0404021	-4.105214	-4.707342E-005	3.632715	11	0.1589984	0.0064238	-327.6853
	61	311	0.0794492	0.0406985	-0.0032369	1	0.0408271	-4.547407	-3.920888E-005	3.632837	11	0.1589976	0.0064914	-327.6853
	62	350	0.0631739	0.0409925	-0.0036349	1	0.0411534	-5.06735	-4.307711E-005	3.632559	11	0.1590004	0.0065434	-327.6853
	63	415	0.0501337	0.0413856	-0.0040849	1	0.0415867	-5.636992	-4.37186E-005	3.63236	11	0.1590007	0.0066123	-327.6853
	64	496	0.0398258	0.0418449	-0.0046098	1	0.042098	-6.286553	-4.39731E-005	3.632174	11	0.1589992	0.0066935	-327.6853
	65	598	0.0316296	0.0423216	-0.0052142	1	0.0426416	-7.023643	-4.389183E-005	3.631984	11	0.1590011	0.00678	-327.6853
	66	726	0.0251206	0.0428891	-0.005931	1	0.0432972	-7.873361	-4.280726E-005	3.631823	11	0.1589993	0.0068842	-327.6853
	67	847	0.0199553	0.0434863	-0.006786	1	0.0440126	-8.869395	-4.19188E-005	3.631669	11	0.1589995	0.006998	-327.6853
	68	999	0.0158522	0.0441974	-0.0077995	1	0.0448803	-10.00791	-4.359962E-005	3.631498	11	0.1590011	0.007136	-327.6853
	69	1190	0.0125907	0.0450389	-0.0090101	1	0.0459313	-11.31274	-4.676662E-005	3.631297	11	0.1589998	0.0073031	-327.6853
	70	1430	0.0100011	0.0460362	-0.0103882	1	0.0471937	-12.71593	-4.278107E-005	3.631015	11	0.1589997	0.0075038	-327.6853
