EXPLAIN
TAG	GALVEIS
TITLE	LABEL	Galvanostatic EIS	Test Identifier
DATE	LABEL	21.6.2024	Date
TIME	LABEL	12:20:31	Time
NOTES	NOTES	1	Notes...
	
PSTAT	PSTAT	REF600-12055	Potentiostat
FREQINIT	QUANT	1.00000E+005	Initial Freq. (Hz)
FREQFINAL	QUANT	1.00000E-002	Final Freq. (Hz)
PTSPERDEC	QUANT	1.00000E+001	Points/decade
IACREQ	QUANT	1.59000E-001	AC Current (A rms)
IDCREQ	QUANT	0.00000E+000	DC Current (A)
AREA	QUANT	1.00000E+000	Sample Area (cm^2)
SPEED	SELECTOR	1	Optimize for:
DRIFTCOR	SELECTOR	0	Drift Correction
THD	SELECTOR	0	THD
ZGUESS	QUANT	1.00000E-001	Estimated Z (ohms)
EOC	QUANT	3.395412	Open Circuit (V)
SEQUENCER	TOGGLE	TRUE	Run as Sequence
PSTATMODEL	IQUANT	4	Pstat Model
PSTATSECTION	LABEL	REF600-12055	Pstat Section
PSTATSERIALNO	LABEL	12055	Pstat Serial Number
CTRLMODE	IQUANT	0	Control Mode
ELECTROMETER	IQUANT	0	RE=0 or CS=1
IESTAB	IQUANT	0	I/E Stability
CASPEED	IQUANT	4	Control Amp Speed
CONVENTION	IQUANT	1	Current Convention
ICHRANGE	IQUANT	2	Ich Range
ICHRANGEMODE	TOGGLE	F	Ich Auto Range
ICHOFFSETENABLE	TOGGLE	T	Ich Offset Enable
ICHOFFSET	QUANT	0	Ich Offset (V)
ICHFILTER	IQUANT	3	Ich Filter
VCHRANGE	IQUANT	2	Vch Range
VCHRANGEMODE	TOGGLE	F	Vch Auto Range
VCHOFFSETENABLE	TOGGLE	T	Vch Offset Enable
VCHOFFSET	QUANT	0	Vch Offset (V)
VCHFILTER	IQUANT	3	Vch Filter
ACHRANGE	IQUANT	2	Ach Range
ACHOFFSETENABLE	TOGGLE	F	Ach Offset Enable
ACHOFFSET	QUANT	0	Ach Offset (V)
ACHFILTER	IQUANT	1	Ach Filter
IERANGELOWERLIMIT	IQUANT	1	I/E Range Lower Limit
IERANGEMODE	TOGGLE	F	I/E AutoRange
IERANGE	IQUANT	7	I/E Range
POSFEEDENABLE	TOGGLE	F	Positive Feedback IR Comp
POSFEEDRESISTANCE	QUANT	0	Positive Feedback Resistance (ohm)
ACHSELECT	IQUANT	4	Ach Select
SENSECABLEID	IQUANT	14	Sense Cable ID
PWRCABLEID	IQUANT	14	Power Cable ID
DCCALDATE	LABEL	2/12/2024	DC Calibration Date
ACCALDATE	LABEL	2/12/2024	AC Calibration Date
THERMOSELECT	IQUANT	1	Thermo Select
FRAMEWORKVERSION	LABEL	7.10.3	Framework Version
INSTRUMENTVERSION	LABEL	4.91	Instrument Version
COMMVERSION	LABEL	2.24	Communications Version
CPUPLDVERSION	LABEL	0.00	CPU PLD Version
CTRLPLDVERSION	LABEL	0.00	CTRL PLD Version
PSTATPLDVERSION	LABEL	0.00	PSTAT PLD Version
ZCURVE	TABLE
	Pt	Time	Freq	Zreal	Zimag	Zsig	Zmod	Zphz	Idc	Vdc	IERange	Imod	Vmod	Temp
	#	s	Hz	ohm	ohm	V	ohm	°	A	V	#	A	V	°C
	0	5	100078.1	0.0979159	0.235907	1	0.2554205	67.45854	2.905418E-005	3.39552	11	0.1596867	0.0404904	-327.6853
	1	6	79453.13	0.0830174	0.1953783	1	0.2122842	66.97906	7.609429E-006	3.395514	11	0.1644315	0.0347448	-327.6853
	2	8	63140.62	0.0712646	0.161464	1	0.1764916	66.18499	-9.416253E-006	3.395487	11	0.1620741	0.0285204	-327.6853
	3	10	50203.12	0.0620923	0.1331238	1	0.1468925	64.99445	-1.902459E-005	3.395478	11	0.1609874	0.0236034	-327.6853
	4	11	39890.62	0.0549908	0.1094681	1	0.1225041	63.32754	-2.009637E-005	3.395473	11	0.1603212	0.0196165	-327.6853
	5	13	31640.63	0.0494707	0.089783	1	0.1025102	61.1451	-1.664192E-005	3.395459	11	0.1598679	0.0163757	-327.6853
	6	15	25171.88	0.0452358	0.0738538	1	0.0866064	58.51232	-2.632226E-005	3.395442	11	0.1595724	0.0138134	-327.6853
	7	16	20015.62	0.0418134	0.0607864	1	0.0737791	55.4769	-1.529185E-005	3.395444	11	0.1593677	0.0117544	-327.6853
	8	18	15890.62	0.0389505	0.0499849	1	0.0633691	52.07265	-2.004852E-005	3.395427	11	0.1592357	0.0100887	-327.6853
	9	20	12609.38	0.0365331	0.04101	1	0.0549226	48.30426	-2.180074E-005	3.395411	11	0.1591444	0.0087396	-327.6853
	10	21	10078.13	0.034576	0.0337337	1	0.0483059	44.29357	-1.908792E-005	3.39541	11	0.1590917	0.0076845	-327.6853
	11	23	8015.625	0.0329654	0.0274226	1	0.0428802	39.75575	-3.37665E-005	3.395391	11	0.1590569	0.0068201	-327.6853
	12	25	6328.125	0.0317196	0.0219396	1	0.0385679	34.67051	-3.354612E-005	3.395387	11	0.1590323	0.0061333	-327.6853
	13	27	5015.625	0.030869	0.0174385	1	0.0354541	29.463	-3.086112E-005	3.395389	11	0.159017	0.0056377	-327.6853
	14	28	3984.375	0.0303172	0.0137011	1	0.0332694	24.31933	-2.848555E-005	3.395385	11	0.1590061	0.00529	-327.6853
	15	30	3170.956	0.0300047	0.0106689	1	0.0318451	19.57408	-3.163447E-005	3.39536	11	0.1590059	0.0050635	-327.6853
	16	31	2527.573	0.0298921	0.0081517	1	0.0309837	15.25382	-3.082241E-005	3.395355	11	0.1590045	0.0049265	-327.6853
	17	33	1976.103	0.029893	0.0059275	1	0.0304751	11.21577	-3.272062E-005	3.395343	11	0.1590044	0.0048457	-327.6853
	18	35	1577.524	0.0300143	0.0043222	1	0.0303239	8.194469	-2.803353E-005	3.395349	11	0.1589985	0.0048214	-327.6853
	19	36	1265.625	0.0301868	0.0030483	1	0.0303404	5.766323	-2.026837E-005	3.395333	11	0.1590033	0.0048242	-327.6853
	20	38	998.264	0.0304224	0.001919	1	0.0304829	3.609367	-2.024265E-005	3.395334	11	0.1590053	0.0048469	-327.6853
	21	39	796.875	0.0307119	0.0009717	1	0.0307273	1.812174	-2.201821E-005	3.395321	11	0.1589904	0.0048853	-327.6853
	22	41	627.7902	0.0310227	0.0002843	1	0.031024	0.525128	-2.164952E-005	3.395303	11	0.1590068	0.004933	-327.6853
	23	42	505.5147	0.0313219	-0.000316	1	0.0313235	-0.5780265	-2.300227E-005	3.39531	11	0.1575916	0.0049089	-327.6853
	24	44	397.9953	0.031684	-0.0008029	1	0.0316941	-1.451541	-1.897162E-005	3.395301	11	0.1606048	0.0050693	-327.6853
	25	45	315.5048	0.0320366	-0.0011952	1	0.0320589	-2.136512	-1.720525E-005	3.395296	11	0.1593376	0.0050938	-327.6853
	26	47	252.4038	0.0323867	-0.0015138	1	0.032422	-2.676064	-2.491073E-005	3.39529	11	0.1589715	0.0051444	-327.6853
	27	48	198.6229	0.0327673	-0.0018119	1	0.0328174	-3.164966	-1.948338E-005	3.395274	11	0.1588729	0.0052075	-327.6853
	28	50	158.3615	0.0331387	-0.0020518	1	0.0332021	-3.542908	-2.05515E-005	3.395268	11	0.1588918	0.0052714	-327.6853
	29	51	125.558	0.0335373	-0.0022653	1	0.0336138	-3.864211	-3.413763E-005	3.395262	11	0.1589166	0.0053391	-327.6853
	30	53	100.4464	0.0339211	-0.0024454	1	0.0340091	-4.123437	-3.068984E-005	3.39525	11	0.1589375	0.0054036	-327.6853
	31	55	79.00281	0.0343531	-0.0026321	1	0.0344537	-4.381426	-2.132702E-005	3.395247	11	0.1589579	0.0054756	-327.6853
	32	56	63.3446	0.0347553	-0.0027821	1	0.0348665	-4.576723	-2.018688E-005	3.395233	11	0.1589749	0.0055422	-327.6853
	33	58	50.22321	0.0351898	-0.0029429	1	0.0353126	-4.780406	-2.585072E-005	3.395228	11	0.1589845	0.0056137	-327.6853
	34	60	38.42213	0.035715	-0.0031228	1	0.0358513	-4.997101	-1.91225E-005	3.395204	11	0.1589847	0.0056995	-327.6853
	35	61	31.25	0.0361272	-0.0032773	1	0.0362755	-5.183501	-3.447209E-005	3.395213	11	0.1589893	0.0057672	-327.6853
	36	63	24.93351	0.0365981	-0.0034352	1	0.036759	-5.362212	-2.379878E-005	3.395191	11	0.1589993	0.0058445	-327.6853
	37	65	19.86229	0.0370838	-0.0036225	1	0.0372603	-5.579175	-3.509218E-005	3.395215	11	0.1589929	0.0059241	-327.6853
	38	66	15.625	0.0376523	-0.003833	1	0.0378469	-5.812609	-4.003174E-006	3.39516	11	0.1589815	0.0060169	-327.6853
	39	67	12.40079	0.0382144	-0.0040338	1	0.0384267	-6.025609	-1.302327E-005	3.395163	11	0.1590093	0.0061102	-327.6853
	40	69	9.93114	0.0388113	-0.0042223	1	0.0390403	-6.208819	2.156361E-006	3.395189	11	0.1589953	0.0062072	-327.6853
	41	71	7.944915	0.0394619	-0.0044395	1	0.0397109	-6.418885	-4.033791E-005	3.39519	11	0.1589971	0.0063139	-327.6853
	42	72	6.317385	0.0402082	-0.0046476	1	0.0404759	-6.59346	6.108626E-005	3.395167	11	0.1590281	0.0064368	-327.6853
	43	74	5.008013	0.0410215	-0.0047997	1	0.0413013	-6.673467	-3.325636E-006	3.395121	11	0.1589863	0.0065663	-327.6853
	44	77	3.945707	0.0419099	-0.0048805	1	0.0421931	-6.642264	-5.352963E-005	3.395131	11	0.1589823	0.006708	-327.6853
	45	79	3.158693	0.042756	-0.0048672	1	0.0430322	-6.494399	-5.978433E-005	3.395115	11	0.1590351	0.0068436	-327.6853
	46	82	2.504006	0.0436095	-0.0047588	1	0.0438684	-6.227612	1.834938E-005	3.395086	11	0.1553826	0.006788	-327.6853
	47	85	1.998082	0.0443902	-0.004607	1	0.0446286	-5.925166	-0.0002852	3.395011	11	0.1615201	0.0071867	-327.6853
	48	89	1.584686	0.0451274	-0.0043691	1	0.0453384	-5.529939	-0.0003376	3.395001	11	0.1599278	0.0072361	-327.6853
	49	93	1.266892	0.045759	-0.0041363	1	0.0459456	-5.165111	0.0002598	3.394995	11	0.1592945	0.007309	-327.6853
	50	97	0.999041	0.0463512	-0.0038822	1	0.0465135	-4.787715	0.0002485	3.395016	11	0.1590687	0.0073925	-327.6853
	51	103	0.7923428	0.0468946	-0.0036377	1	0.0470355	-4.435596	-3.995741E-005	3.395047	11	0.159136	0.0074809	-327.6853
	52	109	0.6334459	0.0473095	-0.0034619	1	0.047436	-4.185153	-4.039466E-005	3.395005	11	0.1589827	0.0075388	-327.6853
	53	117	0.5040323	0.0477115	-0.0033285	1	0.0478274	-3.990656	-4.120372E-005	3.394965	11	0.1589826	0.007602	-327.6853
	54	127	0.400641	0.0480661	-0.0032468	1	0.0481756	-3.864392	-3.948285E-005	3.394916	11	0.1589861	0.0076582	-327.6853
	55	141	0.316723	0.0484295	-0.0032228	1	0.0485367	-3.807209	-4.088496E-005	3.394854	11	0.1589898	0.0077161	-327.6853
	56	158	0.2520161	0.0487538	-0.003268	1	0.0488632	-3.834842	-4.648248E-005	3.394777	11	0.1589951	0.0077686	-327.6853
	57	180	0.2003205	0.049095	-0.0033751	1	0.0492109	-3.93265	-4.803971E-005	3.39471	11	0.1589936	0.0078239	-327.6853
	58	201	0.1588983	0.049429	-0.0035647	1	0.0495573	-4.124867	-4.080684E-005	3.394617	11	0.1589979	0.0078793	-327.6853
	59	233	0.1260081	0.0498119	-0.0038283	1	0.0499588	-4.394808	-4.165289E-005	3.394661	11	0.1589987	0.0079433	-327.6853
	60	271	0.1001603	0.0502462	-0.0041721	1	0.0504191	-4.746516	-4.230308E-005	3.394905	11	0.1589982	0.0080165	-327.6853
	61	307	0.0794492	0.0507114	-0.0046136	1	0.0509208	-5.198278	-4.293157E-005	3.395191	11	0.1589987	0.0080963	-327.6853
	62	346	0.0631739	0.0510656	-0.0051778	1	0.0513275	-5.789756	-4.295752E-005	3.394802	11	0.1589999	0.008161	-327.6853
	63	411	0.0501337	0.0515574	-0.0058572	1	0.0518891	-6.481372	-3.926612E-005	3.394584	11	0.1590013	0.0082504	-327.6853
	64	473	0.0398258	0.0521181	-0.0066651	1	0.0525426	-7.287732	-4.407243E-005	3.394408	11	0.1590001	0.0083543	-327.6853
	65	549	0.0316296	0.0527185	-0.0076438	1	0.0532698	-8.250014	-4.428766E-005	3.394237	11	0.1589989	0.0084698	-327.6853
	66	646	0.0251206	0.0533992	-0.0088354	1	0.0541252	-9.395	-4.57157E-005	3.394065	11	0.1590003	0.0086059	-327.6853
	67	767	0.0199553	0.054154	-0.010287	1	0.0551224	-10.75562	-4.249874E-005	3.393834	11	0.1590006	0.0087645	-327.6853
	68	969	0.0158522	0.0550603	-0.0120576	1	0.056365	-12.35217	-4.338682E-005	3.393644	11	0.1589999	0.008962	-327.6853
	69	1160	0.0125907	0.0561471	-0.0142043	1	0.057916	-14.19703	-4.257282E-005	3.393447	11	0.1590002	0.0092087	-327.6853
	70	1479	0.0100011	0.0575061	-0.0167284	1	0.0598898	-16.21956	-4.247949E-005	3.39327	11	0.1590004	0.0095225	-327.6853
