EXPLAIN
TAG	GALVEIS
TITLE	LABEL	Galvanostatic EIS	Test Identifier
DATE	LABEL	21.6.2024	Date
TIME	LABEL	13:33:44	Time
NOTES	NOTES	1	Notes...
	
PSTAT	PSTAT	REF600-12055	Potentiostat
FREQINIT	QUANT	1.00000E+005	Initial Freq. (Hz)
FREQFINAL	QUANT	1.00000E-002	Final Freq. (Hz)
PTSPERDEC	QUANT	1.00000E+001	Points/decade
IACREQ	QUANT	1.59000E-001	AC Current (A rms)
IDCREQ	QUANT	0.00000E+000	DC Current (A)
AREA	QUANT	1.00000E+000	Sample Area (cm^2)
SPEED	SELECTOR	1	Optimize for:
DRIFTCOR	SELECTOR	0	Drift Correction
THD	SELECTOR	0	THD
ZGUESS	QUANT	1.00000E-001	Estimated Z (ohms)
EOC	QUANT	3.500103	Open Circuit (V)
SEQUENCER	TOGGLE	TRUE	Run as Sequence
PSTATMODEL	IQUANT	4	Pstat Model
PSTATSECTION	LABEL	REF600-12055	Pstat Section
PSTATSERIALNO	LABEL	12055	Pstat Serial Number
CTRLMODE	IQUANT	0	Control Mode
ELECTROMETER	IQUANT	0	RE=0 or CS=1
IESTAB	IQUANT	0	I/E Stability
CASPEED	IQUANT	4	Control Amp Speed
CONVENTION	IQUANT	1	Current Convention
ICHRANGE	IQUANT	2	Ich Range
ICHRANGEMODE	TOGGLE	F	Ich Auto Range
ICHOFFSETENABLE	TOGGLE	T	Ich Offset Enable
ICHOFFSET	QUANT	0	Ich Offset (V)
ICHFILTER	IQUANT	3	Ich Filter
VCHRANGE	IQUANT	2	Vch Range
VCHRANGEMODE	TOGGLE	F	Vch Auto Range
VCHOFFSETENABLE	TOGGLE	T	Vch Offset Enable
VCHOFFSET	QUANT	0	Vch Offset (V)
VCHFILTER	IQUANT	3	Vch Filter
ACHRANGE	IQUANT	2	Ach Range
ACHOFFSETENABLE	TOGGLE	F	Ach Offset Enable
ACHOFFSET	QUANT	0	Ach Offset (V)
ACHFILTER	IQUANT	1	Ach Filter
IERANGELOWERLIMIT	IQUANT	1	I/E Range Lower Limit
IERANGEMODE	TOGGLE	F	I/E AutoRange
IERANGE	IQUANT	7	I/E Range
POSFEEDENABLE	TOGGLE	F	Positive Feedback IR Comp
POSFEEDRESISTANCE	QUANT	0	Positive Feedback Resistance (ohm)
ACHSELECT	IQUANT	4	Ach Select
SENSECABLEID	IQUANT	14	Sense Cable ID
PWRCABLEID	IQUANT	14	Power Cable ID
DCCALDATE	LABEL	2/12/2024	DC Calibration Date
ACCALDATE	LABEL	2/12/2024	AC Calibration Date
THERMOSELECT	IQUANT	1	Thermo Select
FRAMEWORKVERSION	LABEL	7.10.3	Framework Version
INSTRUMENTVERSION	LABEL	4.91	Instrument Version
COMMVERSION	LABEL	2.24	Communications Version
CPUPLDVERSION	LABEL	0.00	CPU PLD Version
CTRLPLDVERSION	LABEL	0.00	CTRL PLD Version
PSTATPLDVERSION	LABEL	0.00	PSTAT PLD Version
ZCURVE	TABLE
	Pt	Time	Freq	Zreal	Zimag	Zsig	Zmod	Zphz	Idc	Vdc	IERange	Imod	Vmod	Temp
	#	s	Hz	ohm	ohm	V	ohm	°	A	V	#	A	V	°C
	0	5	100078.1	0.097845	0.2355058	1	0.2550228	67.43871	2.630476E-005	3.500377	11	0.1596925	0.0404288	-327.6853
	1	7	79453.13	0.0829102	0.1950784	1	0.2119662	66.97404	1.518655E-005	3.500371	11	0.1644246	0.0346914	-327.6853
	2	9	63140.62	0.0711152	0.1612461	1	0.1762319	66.20084	2.960558E-006	3.500364	11	0.1620872	0.0284808	-327.6853
	3	10	50203.12	0.0619228	0.1329533	1	0.1466664	65.02631	-3.610039E-006	3.500352	11	0.1609858	0.0235668	-327.6853
	4	12	39890.62	0.0548028	0.1093373	1	0.1223029	63.37876	-1.008599E-005	3.500344	11	0.1603128	0.0195833	-327.6853
	5	14	31640.63	0.0492835	0.0896836	1	0.1023328	61.21002	-1.293898E-005	3.500336	11	0.1598737	0.016348	-327.6853
	6	16	25171.88	0.0450271	0.0737817	1	0.086436	58.60534	-1.986054E-005	3.500321	11	0.1595725	0.0137862	-327.6853
	7	17	20015.62	0.0416048	0.0607198	1	0.073606	55.58134	-2.764235E-005	3.500313	11	0.1593677	0.0117269	-327.6853
	8	19	15890.62	0.0387366	0.0499384	1	0.063201	52.19971	-1.569663E-005	3.500305	11	0.1592355	0.0100619	-327.6853
	9	21	12609.38	0.0363286	0.0409794	1	0.0547638	48.44279	-2.062554E-005	3.5003	11	0.1591448	0.0087143	-327.6853
	10	22	10078.13	0.0343654	0.0337109	1	0.0481394	44.44909	-2.254796E-005	3.500299	11	0.15909	0.0076579	-327.6853
	11	24	8015.625	0.0327467	0.0274185	1	0.0427097	39.93918	-1.775154E-005	3.500303	11	0.1590547	0.0067929	-327.6853
	12	25	6328.125	0.0314998	0.0219447	1	0.0383902	34.86341	-2.328283E-005	3.500283	11	0.159033	0.0061051	-327.6853
	13	27	5015.625	0.030648	0.0174355	1	0.0352604	29.63533	-1.709629E-005	3.500286	11	0.1590161	0.0056069	-327.6853
	14	28	3984.375	0.0300882	0.013719	1	0.0330683	24.51108	-2.053194E-005	3.50027	11	0.1590111	0.0052582	-327.6853
	15	30	3170.956	0.0297913	0.0106815	1	0.0316483	19.72494	-1.908781E-005	3.500273	11	0.1590074	0.0050323	-327.6853
	16	32	2527.573	0.0296553	0.0081684	1	0.0307597	15.4	-2.270431E-005	3.500258	11	0.1590025	0.0048908	-327.6853
	17	34	1976.103	0.0296873	0.0059537	1	0.0302784	11.34006	-2.281473E-005	3.500262	11	0.1589996	0.0048142	-327.6853
	18	35	1577.524	0.0297906	0.0043073	1	0.0301004	8.227105	-2.315806E-005	3.500244	11	0.1590042	0.0047861	-327.6853
	19	37	1265.625	0.0299629	0.0030278	1	0.0301155	5.770267	-2.385327E-005	3.500236	11	0.1589977	0.0047883	-327.6853
	20	38	998.264	0.0302027	0.001963	1	0.0302664	3.718745	-2.249936E-005	3.500232	11	0.1590051	0.0048125	-327.6853
	21	40	796.875	0.030453	0.0011183	1	0.0304735	2.103148	-3.354822E-005	3.500235	11	0.1589997	0.0048453	-327.6853
	22	41	627.7902	0.0307803	0.00027	1	0.0307815	0.5025621	-3.338559E-005	3.500224	11	0.158994	0.0048941	-327.6853
	23	43	505.5147	0.0310668	-0.0002355	1	0.0310677	-0.4343189	-2.40003E-005	3.500229	11	0.1575977	0.004869	-327.6853
	24	44	397.9953	0.0314177	-0.0006961	1	0.0314254	-1.269231	-3.256579E-005	3.500226	11	0.1606047	0.0050264	-327.6853
	25	46	315.5048	0.0317586	-0.0010787	1	0.031777	-1.945322	-3.217405E-005	3.500219	11	0.1593388	0.005049	-327.6853
	26	47	252.4038	0.0320979	-0.0013826	1	0.0321277	-2.466428	-2.208108E-005	3.500211	11	0.1589699	0.0050977	-327.6853
	27	49	198.6229	0.0324619	-0.0016527	1	0.0325039	-2.914609	-3.254507E-005	3.500211	11	0.1588797	0.005158	-327.6853
	28	50	158.3615	0.0328279	-0.0018705	1	0.0328812	-3.261162	-3.348745E-005	3.500205	11	0.1588862	0.0052203	-327.6853
	29	52	125.558	0.0331957	-0.0020574	1	0.0332594	-3.546534	-2.909265E-005	3.500199	11	0.1589153	0.0052828	-327.6853
	30	53	100.4464	0.0335677	-0.0022176	1	0.0336409	-3.779673	-2.544644E-005	3.500189	11	0.1589399	0.0053452	-327.6853
	31	55	79.00281	0.0339743	-0.0023563	1	0.0340559	-3.967401	-2.062274E-005	3.500181	11	0.1589555	0.0054123	-327.6853
	32	56	63.3446	0.0343683	-0.002472	1	0.0344571	-4.114069	-2.234834E-005	3.500173	11	0.1589753	0.0054771	-327.6853
	33	58	50.22321	0.0347813	-0.0025793	1	0.0348769	-4.241092	-3.083411E-005	3.500171	11	0.1589859	0.0055445	-327.6853
	34	60	38.42213	0.0352846	-0.0026782	1	0.0353861	-4.340589	-2.035918E-005	3.500163	11	0.1589862	0.0056256	-327.6853
	35	61	31.25	0.0356771	-0.0027445	1	0.0357825	-4.398927	-3.639166E-005	3.500165	11	0.1589875	0.0056888	-327.6853
	36	63	24.93351	0.0361233	-0.0027964	1	0.0362314	-4.426637	-2.38308E-005	3.500156	11	0.1590007	0.0057607	-327.6853
	37	64	19.86229	0.036605	-0.0028496	1	0.0367158	-4.451279	-4.981691E-005	3.500156	11	0.1589784	0.0058369	-327.6853
	38	66	15.625	0.0370766	-0.0028502	1	0.037186	-4.395899	-3.714766E-005	3.500151	11	0.1589981	0.0059125	-327.6853
	39	67	12.40079	0.0375583	-0.0028083	1	0.0376631	-4.276193	-3.660424E-005	3.500125	11	0.1590092	0.0059888	-327.6853
	40	69	9.93114	0.0380371	-0.0027465	1	0.0381361	-4.129935	-5.305477E-005	3.500111	11	0.1589812	0.0060629	-327.6853
	41	70	7.944915	0.0384844	-0.0026526	1	0.0385757	-3.942951	-4.48199E-008	3.50011	11	0.1590211	0.0061343	-327.6853
	42	72	6.317385	0.0389024	-0.0025157	1	0.0389836	-3.700024	-8.890158E-006	3.500092	11	0.1589592	0.0061968	-327.6853
	43	74	5.008013	0.039294	-0.0023595	1	0.0393647	-3.436367	-1.695892E-005	3.500079	11	0.1590484	0.0062609	-327.6853
	44	76	3.945707	0.0396504	-0.00219	1	0.0397108	-3.161365	-4.261092E-005	3.500078	11	0.1589876	0.0063135	-327.6853
	45	80	3.158693	0.0399357	-0.0020248	1	0.039987	-2.902503	-1.846941E-005	3.500063	11	0.1590322	0.0063592	-327.6853
	46	82	2.504006	0.0401903	-0.0018862	1	0.0402345	-2.687044	3.128021E-005	3.50004	11	0.1553667	0.0062251	-327.6853
	47	85	1.998082	0.04041	-0.001774	1	0.0404489	-2.513666	-0.0002177	3.499994	11	0.1614558	0.006511	-327.6853
	48	89	1.584686	0.0406062	-0.0016755	1	0.0406408	-2.362778	-0.0003436	3.499981	11	0.1600153	0.0064899	-327.6853
	49	94	1.266892	0.0407882	-0.0016169	1	0.0408202	-2.270139	0.0002355	3.50001	11	0.1592508	0.0064919	-327.6853
	50	98	0.999041	0.0409777	-0.0015834	1	0.0410083	-2.212767	0.0001966	3.500026	11	0.1590384	0.0065163	-327.6853
	51	103	0.7923428	0.0411733	-0.0015569	1	0.0412027	-2.165493	-4.134103E-005	3.500028	11	0.159195	0.0065557	-327.6853
	52	110	0.6334459	0.0413295	-0.0015724	1	0.0413594	-2.178844	-5.016068E-005	3.499997	11	0.1589825	0.0065731	-327.6853
	53	119	0.5040323	0.0415144	-0.0016117	1	0.0415457	-2.223297	-4.376192E-005	3.499967	11	0.1589819	0.0066035	-327.6853
	54	131	0.400641	0.0416856	-0.001671	1	0.0417191	-2.295584	-4.198437E-005	3.499941	11	0.1589872	0.0066319	-327.6853
	55	142	0.316723	0.0418754	-0.0017671	1	0.0419127	-2.41642	-4.671165E-005	3.49991	11	0.1589888	0.006663	-327.6853
	56	156	0.2520161	0.0420631	-0.0018858	1	0.0421053	-2.567002	-4.173188E-005	3.499868	11	0.1589947	0.0066941	-327.6853
	57	178	0.2003205	0.0422749	-0.0020402	1	0.0423241	-2.762928	-4.57518E-005	3.49982	11	0.158995	0.0067291	-327.6853
	58	199	0.1588983	0.0424999	-0.0022398	1	0.0425589	-3.016832	-4.320002E-005	3.499752	11	0.1589985	0.0067666	-327.6853
	59	231	0.1260081	0.0427593	-0.0024804	1	0.0428312	-3.319918	-4.371202E-005	3.499774	11	0.1589991	0.00681	-327.6853
	60	269	0.1001603	0.0430736	-0.002778	1	0.0431631	-3.690101	-4.386333E-005	3.499936	11	0.1589979	0.0068628	-327.6853
	61	305	0.0794492	0.0434048	-0.0031252	1	0.0435171	-4.11826	-4.406809E-005	3.500111	11	0.1589989	0.0069191	-327.6853
	62	344	0.0631739	0.0436486	-0.0035665	1	0.043794	-4.671264	-4.29732E-005	3.499852	11	0.1590003	0.0069632	-327.6853
	63	393	0.0501337	0.0440032	-0.0040665	1	0.0441907	-5.27997	-4.494068E-005	3.499671	11	0.1590003	0.0070263	-327.6853
	64	455	0.0398258	0.0444025	-0.0046871	1	0.0446492	-6.025806	-4.241485E-005	3.499515	11	0.1590002	0.0070992	-327.6853
	65	532	0.0316296	0.0448537	-0.0053963	1	0.0451771	-6.860191	-4.370703E-005	3.499359	11	0.1589983	0.0071831	-327.6853
	66	628	0.0251206	0.0453667	-0.0062718	1	0.0457982	-7.871085	-4.490748E-005	3.499203	11	0.1590011	0.007282	-327.6853
	67	749	0.0199553	0.0459876	-0.0073074	1	0.0465646	-9.028738	-4.51949E-005	3.499032	11	0.159	0.0074038	-327.6853
	68	901	0.0158522	0.0466879	-0.0085575	1	0.0474657	-10.38656	-4.289547E-005	3.498856	11	0.1589985	0.007547	-327.6853
	69	1092	0.0125907	0.0475633	-0.010018	1	0.0486068	-11.89401	-4.478911E-005	3.498672	11	0.159001	0.0077285	-327.6853
	70	1332	0.0100011	0.0486409	-0.0117522	1	0.0500405	-13.58305	-4.538112E-005	3.498487	11	0.1589988	0.0079564	-327.6853
