EXPLAIN
TAG	GALVEIS
TITLE	LABEL	Galvanostatic EIS	Test Identifier
DATE	LABEL	21.6.2024	Date
TIME	LABEL	22:33:38	Time
NOTES	NOTES	1	Notes...
	
PSTAT	PSTAT	REF600-12055	Potentiostat
FREQINIT	QUANT	1.00000E+005	Initial Freq. (Hz)
FREQFINAL	QUANT	1.00000E-002	Final Freq. (Hz)
PTSPERDEC	QUANT	1.00000E+001	Points/decade
IACREQ	QUANT	1.59000E-001	AC Current (A rms)
IDCREQ	QUANT	0.00000E+000	DC Current (A)
AREA	QUANT	1.00000E+000	Sample Area (cm^2)
SPEED	SELECTOR	1	Optimize for:
DRIFTCOR	SELECTOR	0	Drift Correction
THD	SELECTOR	0	THD
ZGUESS	QUANT	1.00000E-001	Estimated Z (ohms)
EOC	QUANT	4.057844	Open Circuit (V)
SEQUENCER	TOGGLE	TRUE	Run as Sequence
PSTATMODEL	IQUANT	4	Pstat Model
PSTATSECTION	LABEL	REF600-12055	Pstat Section
PSTATSERIALNO	LABEL	12055	Pstat Serial Number
CTRLMODE	IQUANT	0	Control Mode
ELECTROMETER	IQUANT	0	RE=0 or CS=1
IESTAB	IQUANT	0	I/E Stability
CASPEED	IQUANT	4	Control Amp Speed
CONVENTION	IQUANT	1	Current Convention
ICHRANGE	IQUANT	2	Ich Range
ICHRANGEMODE	TOGGLE	F	Ich Auto Range
ICHOFFSETENABLE	TOGGLE	T	Ich Offset Enable
ICHOFFSET	QUANT	0	Ich Offset (V)
ICHFILTER	IQUANT	3	Ich Filter
VCHRANGE	IQUANT	2	Vch Range
VCHRANGEMODE	TOGGLE	F	Vch Auto Range
VCHOFFSETENABLE	TOGGLE	T	Vch Offset Enable
VCHOFFSET	QUANT	0	Vch Offset (V)
VCHFILTER	IQUANT	3	Vch Filter
ACHRANGE	IQUANT	2	Ach Range
ACHOFFSETENABLE	TOGGLE	F	Ach Offset Enable
ACHOFFSET	QUANT	0	Ach Offset (V)
ACHFILTER	IQUANT	1	Ach Filter
IERANGELOWERLIMIT	IQUANT	1	I/E Range Lower Limit
IERANGEMODE	TOGGLE	F	I/E AutoRange
IERANGE	IQUANT	7	I/E Range
POSFEEDENABLE	TOGGLE	F	Positive Feedback IR Comp
POSFEEDRESISTANCE	QUANT	0	Positive Feedback Resistance (ohm)
ACHSELECT	IQUANT	4	Ach Select
SENSECABLEID	IQUANT	14	Sense Cable ID
PWRCABLEID	IQUANT	14	Power Cable ID
DCCALDATE	LABEL	2/12/2024	DC Calibration Date
ACCALDATE	LABEL	2/12/2024	AC Calibration Date
THERMOSELECT	IQUANT	1	Thermo Select
FRAMEWORKVERSION	LABEL	7.10.3	Framework Version
INSTRUMENTVERSION	LABEL	4.91	Instrument Version
COMMVERSION	LABEL	2.24	Communications Version
CPUPLDVERSION	LABEL	0.00	CPU PLD Version
CTRLPLDVERSION	LABEL	0.00	CTRL PLD Version
PSTATPLDVERSION	LABEL	0.00	PSTAT PLD Version
ZCURVE	TABLE
	Pt	Time	Freq	Zreal	Zimag	Zsig	Zmod	Zphz	Idc	Vdc	IERange	Imod	Vmod	Temp
	#	s	Hz	ohm	ohm	V	ohm	°	A	V	#	A	V	°C
	0	5	100078.1	0.0974784	0.2347622	1	0.2541955	67.45071	2.853153E-005	4.058132	11	0.1597215	0.0403049	-327.6853
	1	7	79453.13	0.0825193	0.1945094	1	0.2112897	67.01125	1.253909E-005	4.058121	11	0.1644366	0.0345832	-327.6853
	2	9	63140.62	0.0707063	0.160786	1	0.175646	66.26232	8.821953E-007	4.058105	11	0.1620534	0.0283802	-327.6853
	3	10	50203.12	0.0614957	0.1325878	1	0.1461549	65.1176	-8.750532E-006	4.058094	11	0.1610175	0.0234893	-327.6853
	4	12	39890.62	0.0543785	0.1090377	1	0.1218451	63.49398	-1.20647E-005	4.058087	11	0.1603234	0.0195113	-327.6853
	5	14	31640.63	0.0488662	0.0894432	1	0.1019215	61.35054	-1.058745E-005	4.058088	11	0.159879	0.0162828	-327.6853
	6	15	25171.88	0.0446235	0.0735807	1	0.0860545	58.76503	-1.429045E-005	4.058068	11	0.1595643	0.0137247	-327.6853
	7	17	20015.62	0.0411969	0.0605685	1	0.0732511	55.77761	-1.741643E-005	4.058047	11	0.1593704	0.0116705	-327.6853
	8	19	15890.62	0.0383399	0.04982	1	0.0628648	52.41924	-1.530675E-005	4.058051	11	0.1592422	0.0100088	-327.6853
	9	21	12609.38	0.035918	0.0409071	1	0.054438	48.71558	-1.893903E-005	4.058033	11	0.1591449	0.0086625	-327.6853
	10	22	10078.13	0.0339632	0.0336422	1	0.0478048	44.72794	-2.696223E-005	4.058026	11	0.1590913	0.0076047	-327.6853
	11	24	8015.625	0.0323505	0.0273682	1	0.0423742	40.23092	-3.170455E-005	4.058013	11	0.1590582	0.0067396	-327.6853
	12	25	6328.125	0.0311032	0.0219038	1	0.0380419	35.15437	-3.226846E-005	4.057996	11	0.1590343	0.0060498	-327.6853
	13	27	5015.625	0.0302529	0.0174207	1	0.0349101	29.93485	-1.700222E-005	4.057999	11	0.1590126	0.005551	-327.6853
	14	28	3984.375	0.0297006	0.0137296	1	0.0327204	24.80948	-2.314127E-005	4.057983	11	0.1590146	0.005203	-327.6853
	15	30	3170.956	0.0293755	0.0106892	1	0.0312598	19.99551	-2.233812E-005	4.057963	11	0.159002	0.0049703	-327.6853
	16	32	2527.573	0.0292639	0.0082439	1	0.0304029	15.73305	-2.006395E-005	4.057971	11	0.1590077	0.0048343	-327.6853
	17	33	1976.103	0.0292738	0.0060501	1	0.0298925	11.67705	-1.941563E-005	4.057956	11	0.1590041	0.004753	-327.6853
	18	35	1577.524	0.0293683	0.0044908	1	0.0297097	8.693917	-1.934543E-005	4.057955	11	0.158999	0.0047238	-327.6853
	19	37	1265.625	0.0295284	0.0031281	1	0.0296936	6.047037	-1.911796E-005	4.057942	11	0.158993	0.0047211	-327.6853
	20	38	998.264	0.0297405	0.0020718	1	0.0298126	3.984936	-1.928757E-005	4.057937	11	0.1589987	0.0047402	-327.6853
	21	40	796.875	0.0299815	0.0012503	1	0.0300076	2.387893	-2.103229E-005	4.057916	11	0.1590089	0.0047715	-327.6853
	22	41	627.7902	0.0302584	0.0005245	1	0.0302629	0.99313	-2.218504E-005	4.057913	11	0.1589953	0.0048117	-327.6853
	23	43	505.5147	0.0305258	-5.028497E-007	1	0.0305258	-0.0009438	-2.256525E-005	4.057916	11	0.1576001	0.0047841	-327.6853
	24	44	397.9953	0.030842	-0.0004453	1	0.0308452	-0.8272179	-2.150727E-005	4.057905	11	0.1606007	0.0049334	-327.6853
	25	46	315.5048	0.0311399	-0.0007992	1	0.0311502	-1.470255	-2.309342E-005	4.057899	11	0.1593405	0.0049495	-327.6853
	26	47	252.4038	0.0314297	-0.0010777	1	0.0314482	-1.963876	-1.893542E-005	4.057889	11	0.1589726	0.0049899	-327.6853
	27	49	198.6229	0.0317461	-0.0013321	1	0.031774	-2.402809	-2.262503E-005	4.057878	11	0.1588751	0.005042	-327.6853
	28	50	158.3615	0.0320578	-0.0015308	1	0.0320944	-2.733949	-2.036372E-005	4.057878	11	0.1588874	0.0050954	-327.6853
	29	52	125.558	0.0323808	-0.0017015	1	0.0324255	-3.007844	-2.549554E-005	4.05787	11	0.1589113	0.0051502	-327.6853
	30	53	100.4464	0.0326939	-0.0018398	1	0.0327457	-3.220888	-2.813025E-005	4.057863	11	0.1589432	0.005203	-327.6853
	31	55	79.00281	0.033043	-0.0019655	1	0.0331014	-3.404034	-2.241787E-005	4.057853	11	0.1589589	0.0052607	-327.6853
	32	56	63.3446	0.0333676	-0.002063	1	0.0334313	-3.537849	-2.22011E-005	4.057848	11	0.1589729	0.005314	-327.6853
	33	58	50.22321	0.0337304	-0.0021567	1	0.0337993	-3.658437	-2.63222E-005	4.057839	11	0.1589887	0.0053733	-327.6853
	34	60	38.42213	0.0341535	-0.0022435	1	0.0342271	-3.758315	-2.006575E-005	4.057827	11	0.1589803	0.0054412	-327.6853
	35	61	31.25	0.0344983	-0.0022916	1	0.0345744	-3.800406	-3.342342E-005	4.057828	11	0.1589902	0.0054968	-327.6853
	36	63	24.93351	0.0348753	-0.0023198	1	0.0349524	-3.805522	-2.311729E-005	4.057809	11	0.1590035	0.0055574	-327.6853
	37	64	19.86229	0.0352571	-0.0023532	1	0.0353355	-3.818459	-3.395276E-005	4.057815	11	0.1589909	0.005618	-327.6853
	38	66	15.625	0.0356776	-0.0023367	1	0.0357541	-3.747276	-4.322967E-006	4.057784	11	0.1589856	0.0056843	-327.6853
	39	67	12.40079	0.0360626	-0.0022953	1	0.0361356	-3.641846	-8.075032E-006	4.05778	11	0.159006	0.0057457	-327.6853
	40	69	9.93114	0.0364241	-0.0022338	1	0.0364925	-3.509352	1.166249E-005	4.057786	11	0.1589855	0.0058018	-327.6853
	41	71	7.944915	0.0367744	-0.0021594	1	0.0368377	-3.36058	-3.420166E-005	4.05776	11	0.159	0.0058572	-327.6853
	42	72	6.317385	0.0371055	-0.0020498	1	0.0371621	-3.161974	-1.082911E-005	4.057777	11	0.1589756	0.0059079	-327.6853
	43	74	5.008013	0.0374219	-0.0019456	1	0.0374724	-2.976143	-7.572817E-005	4.057771	11	0.1590131	0.0059586	-327.6853
	44	77	3.945707	0.037697	-0.0018274	1	0.0377413	-2.775259	-5.49606E-005	4.057755	11	0.1590143	0.0060014	-327.6853
	45	80	3.158693	0.0379337	-0.0017341	1	0.0379733	-2.617345	-0.0001379	4.057758	11	0.1589723	0.0060367	-327.6853
	46	82	2.504006	0.0381557	-0.0016133	1	0.0381898	-2.42114	-1.821584E-005	4.057753	11	0.1554713	0.0059127	-327.6853
	47	85	1.998082	0.0383438	-0.0015447	1	0.0383749	-2.306946	-0.0002217	4.057703	11	0.1614122	0.0061755	-327.6853
	48	90	1.584686	0.038533	-0.0014975	1	0.0385621	-2.225559	-8.838467E-005	4.057693	11	0.159808	0.00615	-327.6853
	49	94	1.266892	0.0386843	-0.0014725	1	0.0387123	-2.179831	0.0001015	4.057616	11	0.1593269	0.0061596	-327.6853
	50	101	0.999041	0.0388611	-0.001472	1	0.038889	-2.169235	0.0001399	4.057593	11	0.159124	0.0061828	-327.6853
	51	107	0.7923428	0.0390674	-0.0014738	1	0.0390952	-2.160494	-4.165911E-005	4.057653	11	0.1592528	0.0062226	-327.6853
	52	113	0.6334459	0.0392173	-0.0015205	1	0.0392468	-2.220349	-4.858075E-005	4.057601	11	0.158983	0.0062374	-327.6853
	53	121	0.5040323	0.039395	-0.0015785	1	0.0394267	-2.294524	-4.189418E-005	4.057558	11	0.1589814	0.0062667	-327.6853
	54	131	0.400641	0.0395658	-0.0016746	1	0.0396012	-2.423585	-4.065486E-005	4.057499	11	0.1589873	0.0062952	-327.6853
	55	145	0.316723	0.0397649	-0.0017946	1	0.0398054	-2.583973	-4.405946E-005	4.057426	11	0.1589901	0.0063281	-327.6853
	56	162	0.2520161	0.0399808	-0.0019323	1	0.0400274	-2.767036	-4.114088E-005	4.057353	11	0.1589921	0.0063637	-327.6853
	57	179	0.2003205	0.0402074	-0.002102	1	0.0402623	-2.992574	-4.298704E-005	4.057289	11	0.1589985	0.0064014	-327.6853
	58	201	0.1588983	0.0404595	-0.0023153	1	0.0405256	-3.275242	-4.588991E-005	4.057192	11	0.1589954	0.0064432	-327.6853
	59	226	0.1260081	0.0407692	-0.0025561	1	0.0408493	-3.587501	-4.209313E-005	4.057176	11	0.1589968	0.0064948	-327.6853
	60	256	0.1001603	0.0411059	-0.0028333	1	0.0412034	-3.943043	-4.188592E-005	4.057187	11	0.1590019	0.0065514	-327.6853
	61	302	0.0794492	0.0414775	-0.0031687	1	0.0415984	-4.368708	-3.999376E-005	4.057149	11	0.1589984	0.006614	-327.6853
	62	354	0.0631739	0.0417818	-0.0035538	1	0.0419326	-4.861631	-4.070191E-005	4.056838	11	0.1590003	0.0066673	-327.6853
	63	403	0.0501337	0.0421953	-0.003992	1	0.0423837	-5.404501	-4.314445E-005	4.056597	11	0.1589991	0.006739	-327.6853
	64	465	0.0398258	0.0426571	-0.0044995	1	0.0428938	-6.021378	-4.301895E-005	4.056297	11	0.1590002	0.0068201	-327.6853
	65	567	0.0316296	0.0431835	-0.0050927	1	0.0434828	-6.725952	-4.212694E-005	4.055938	11	0.1590009	0.0069138	-327.6853
	66	695	0.0251206	0.0437597	-0.0057591	1	0.044137	-7.4975	-4.252838E-005	4.055541	11	0.1589986	0.0070177	-327.6853
	67	856	0.0199553	0.0443882	-0.0065402	1	0.0448674	-8.381684	-4.159623E-005	4.055095	11	0.1590016	0.007134	-327.6853
	68	1058	0.0158522	0.0451015	-0.0074318	1	0.0457098	-9.357128	-4.169349E-005	4.054597	11	0.159	0.0072679	-327.6853
	69	1311	0.0125907	0.0459066	-0.0084731	1	0.046682	-10.45759	-4.275029E-005	4.054047	11	0.1589991	0.0074224	-327.6853
	70	1631	0.0100011	0.0468904	-0.0096672	1	0.0478765	-11.64924	-4.370495E-005	4.053432	11	0.1590007	0.0076124	-327.6853
