EXPLAIN
TAG	GALVEIS
TITLE	LABEL	Galvanostatic EIS	Test Identifier
DATE	LABEL	21.6.2024	Date
TIME	LABEL	11:26:36	Time
NOTES	NOTES	1	Notes...
	
PSTAT	PSTAT	REF600-12055	Potentiostat
FREQINIT	QUANT	1.00000E+005	Initial Freq. (Hz)
FREQFINAL	QUANT	1.00000E-002	Final Freq. (Hz)
PTSPERDEC	QUANT	1.00000E+001	Points/decade
IACREQ	QUANT	1.59000E-001	AC Current (A rms)
IDCREQ	QUANT	0.00000E+000	DC Current (A)
AREA	QUANT	1.00000E+000	Sample Area (cm^2)
SPEED	SELECTOR	1	Optimize for:
DRIFTCOR	SELECTOR	0	Drift Correction
THD	SELECTOR	0	THD
ZGUESS	QUANT	1.00000E-001	Estimated Z (ohms)
EOC	QUANT	3.187659	Open Circuit (V)
SEQUENCER	TOGGLE	TRUE	Run as Sequence
PSTATMODEL	IQUANT	4	Pstat Model
PSTATSECTION	LABEL	REF600-12055	Pstat Section
PSTATSERIALNO	LABEL	12055	Pstat Serial Number
CTRLMODE	IQUANT	0	Control Mode
ELECTROMETER	IQUANT	0	RE=0 or CS=1
IESTAB	IQUANT	0	I/E Stability
CASPEED	IQUANT	4	Control Amp Speed
CONVENTION	IQUANT	1	Current Convention
ICHRANGE	IQUANT	2	Ich Range
ICHRANGEMODE	TOGGLE	F	Ich Auto Range
ICHOFFSETENABLE	TOGGLE	T	Ich Offset Enable
ICHOFFSET	QUANT	0	Ich Offset (V)
ICHFILTER	IQUANT	3	Ich Filter
VCHRANGE	IQUANT	2	Vch Range
VCHRANGEMODE	TOGGLE	F	Vch Auto Range
VCHOFFSETENABLE	TOGGLE	T	Vch Offset Enable
VCHOFFSET	QUANT	0	Vch Offset (V)
VCHFILTER	IQUANT	3	Vch Filter
ACHRANGE	IQUANT	2	Ach Range
ACHOFFSETENABLE	TOGGLE	F	Ach Offset Enable
ACHOFFSET	QUANT	0	Ach Offset (V)
ACHFILTER	IQUANT	1	Ach Filter
IERANGELOWERLIMIT	IQUANT	1	I/E Range Lower Limit
IERANGEMODE	TOGGLE	F	I/E AutoRange
IERANGE	IQUANT	7	I/E Range
POSFEEDENABLE	TOGGLE	F	Positive Feedback IR Comp
POSFEEDRESISTANCE	QUANT	0	Positive Feedback Resistance (ohm)
ACHSELECT	IQUANT	4	Ach Select
SENSECABLEID	IQUANT	14	Sense Cable ID
PWRCABLEID	IQUANT	14	Power Cable ID
DCCALDATE	LABEL	2/12/2024	DC Calibration Date
ACCALDATE	LABEL	2/12/2024	AC Calibration Date
THERMOSELECT	IQUANT	1	Thermo Select
FRAMEWORKVERSION	LABEL	7.10.3	Framework Version
INSTRUMENTVERSION	LABEL	4.91	Instrument Version
COMMVERSION	LABEL	2.24	Communications Version
CPUPLDVERSION	LABEL	0.00	CPU PLD Version
CTRLPLDVERSION	LABEL	0.00	CTRL PLD Version
PSTATPLDVERSION	LABEL	0.00	PSTAT PLD Version
ZCURVE	TABLE
	Pt	Time	Freq	Zreal	Zimag	Zsig	Zmod	Zphz	Idc	Vdc	IERange	Imod	Vmod	Temp
	#	s	Hz	ohm	ohm	V	ohm	°	A	V	#	A	V	°C
	0	5	100078.1	0.0978874	0.2363414	1	0.2558109	67.50175	2.758665E-005	3.187774	11	0.1597247	0.0405619	-327.6853
	1	7	79453.13	0.083061	0.1956985	1	0.2125959	67.00199	4.546484E-006	3.187782	11	0.1643578	0.0347803	-327.6853
	2	8	63140.62	0.0713464	0.1617195	1	0.1767583	66.19419	-3.832392E-007	3.187787	11	0.1620822	0.028565	-327.6853
	3	10	50203.12	0.0621913	0.1333087	1	0.1471019	64.98994	-1.176738E-005	3.187812	11	0.1609823	0.0236363	-327.6853
	4	12	39890.62	0.055101	0.1096148	1	0.1226846	63.31232	-8.969218E-006	3.187823	11	0.1603134	0.0196445	-327.6853
	5	13	31640.63	0.0496105	0.0898811	1	0.1026635	61.1032	-2.397012E-005	3.187829	11	0.15987	0.0164004	-327.6853
	6	15	25171.88	0.045375	0.0739332	1	0.0867468	58.46133	-1.973554E-005	3.18783	11	0.1595659	0.0138352	-327.6853
	7	17	20015.62	0.0419646	0.0608333	1	0.0739035	55.40093	-1.939195E-005	3.18784	11	0.1593652	0.0117741	-327.6853
	8	18	15890.62	0.0391051	0.0500174	1	0.0634898	51.98063	-1.588348E-005	3.187867	11	0.1592331	0.0101077	-327.6853
	9	20	12609.38	0.0366922	0.0410488	1	0.0550575	48.20754	-2.33372E-005	3.18787	11	0.1591468	0.0087612	-327.6853
	10	22	10078.13	0.0347336	0.033743	1	0.0484253	44.17117	-1.864263E-005	3.187891	11	0.1590862	0.0077032	-327.6853
	11	23	8015.625	0.0331247	0.0274369	1	0.0430119	39.63468	-2.323627E-005	3.187894	11	0.1590575	0.006841	-327.6853
	12	25	6328.125	0.0318856	0.0219363	1	0.0387026	34.52668	-1.778197E-005	3.187911	11	0.1590338	0.0061548	-327.6853
	13	27	5015.625	0.0310468	0.0174232	1	0.0356016	29.3007	-3.372726E-005	3.187915	11	0.1590172	0.0056612	-327.6853
	14	28	3984.375	0.0304872	0.0136777	1	0.0334148	24.16275	-3.003306E-005	3.18792	11	0.159007	0.0053131	-327.6853
	15	30	3170.956	0.0301932	0.0106143	1	0.0320046	19.36903	-1.932937E-005	3.187936	11	0.1590075	0.0050889	-327.6853
	16	32	2527.573	0.0300698	0.008132	1	0.03115	15.13293	-2.54701E-005	3.187941	11	0.1590059	0.004953	-327.6853
	17	33	1976.103	0.0300831	0.0059228	1	0.0306606	11.13802	-2.25174E-005	3.187952	11	0.158999	0.004875	-327.6853
	18	35	1577.524	0.0302084	0.0042186	1	0.0305016	7.949939	-2.173544E-005	3.18796	11	0.1589976	0.0048497	-327.6853
	19	36	1265.625	0.0303874	0.0029205	1	0.0305274	5.489745	-1.94551E-005	3.187983	11	0.1590033	0.004854	-327.6853
	20	38	998.264	0.0306388	0.0018134	1	0.0306924	3.387214	-2.078142E-005	3.187991	11	0.1589971	0.00488	-327.6853
	21	39	796.875	0.0309035	0.0009005	1	0.0309166	1.669043	-2.07983E-005	3.188002	11	0.1590049	0.0049159	-327.6853
	22	41	627.7902	0.0312377	0.0001152	1	0.0312379	0.2113855	-2.434081E-005	3.18801	11	0.1589958	0.0049667	-327.6853
	23	42	505.5147	0.0315467	-0.0004334	1	0.0315497	-0.787156	-2.026802E-005	3.188031	11	0.1575996	0.0049446	-327.6853
	24	44	397.9953	0.0319254	-0.0009324	1	0.0319391	-1.672897	-2.147222E-005	3.188043	11	0.160605	0.0051085	-327.6853
	25	45	315.5048	0.0323006	-0.0013469	1	0.0323286	-2.387814	-1.907826E-005	3.188053	11	0.159337	0.0051366	-327.6853
	26	47	252.4038	0.0326635	-0.0016944	1	0.0327074	-2.969573	-2.297817E-005	3.188066	11	0.1589692	0.0051896	-327.6853
	27	48	198.6229	0.0330715	-0.0020058	1	0.0331323	-3.47069	-2.004943E-005	3.188069	11	0.1588806	0.0052577	-327.6853
	28	50	158.3615	0.033478	-0.0022737	1	0.0335551	-3.885294	-2.068866E-005	3.188087	11	0.1588863	0.0053273	-327.6853
	29	51	125.558	0.0339101	-0.0025113	1	0.034003	-4.235368	-1.81715E-005	3.188105	11	0.1589147	0.0054009	-327.6853
	30	53	100.4464	0.0343365	-0.0027207	1	0.0344441	-4.530478	-2.249822E-005	3.188106	11	0.1589388	0.0054728	-327.6853
	31	55	79.00281	0.0348066	-0.0029246	1	0.0349293	-4.802961	-2.133672E-005	3.188127	11	0.1589572	0.0055512	-327.6853
	32	56	63.3446	0.0352548	-0.0030965	1	0.0353905	-5.019584	-2.128747E-005	3.188129	11	0.1589758	0.0056255	-327.6853
	33	58	50.22321	0.0357339	-0.003271	1	0.0358832	-5.23013	-1.938897E-005	3.188128	11	0.1589834	0.0057044	-327.6853
	34	60	38.42213	0.0363024	-0.0034855	1	0.0364694	-5.484346	-2.187019E-005	3.188159	11	0.1589844	0.0057978	-327.6853
	35	61	31.25	0.03675	-0.0036456	1	0.0369304	-5.665267	-2.607674E-005	3.188174	11	0.1590039	0.0058719	-327.6853
	36	63	24.93351	0.0372563	-0.0038309	1	0.0374528	-5.870806	-2.286356E-005	3.188159	11	0.1589868	0.0059544	-327.6853
	37	64	19.86229	0.0377695	-0.0040537	1	0.0379864	-6.12598	1.659151E-006	3.188208	11	0.1589831	0.0060391	-327.6853
	38	66	15.625	0.0383512	-0.0043449	1	0.0385965	-6.463634	-4.275003E-006	3.188156	11	0.1589959	0.0061366	-327.6853
	39	67	12.40079	0.0389366	-0.0046078	1	0.0392083	-6.749128	-7.607974E-006	3.188191	11	0.1590078	0.0062344	-327.6853
	40	69	9.93114	0.0395196	-0.0049344	1	0.0398265	-7.117074	-2.100765E-005	3.188217	11	0.159003	0.0063325	-327.6853
	41	70	7.944915	0.0401579	-0.0052962	1	0.0405057	-7.513032	-2.208044E-005	3.188279	11	0.1589797	0.0064396	-327.6853
	42	72	6.317385	0.0409324	-0.0056995	1	0.0413273	-7.927041	1.315901E-006	3.188201	11	0.1589808	0.0065702	-327.6853
	43	74	5.008013	0.0418423	-0.0061857	1	0.042297	-8.409407	3.764173E-005	3.188178	11	0.1590101	0.0067256	-327.6853
	44	76	3.945707	0.0428441	-0.0066158	1	0.0433519	-8.778089	-1.023477E-005	3.188192	11	0.1590188	0.0068938	-327.6853
	45	79	3.158693	0.0439448	-0.0070194	1	0.0445018	-9.075314	7.394829E-005	3.188161	11	0.1589586	0.0070739	-327.6853
	46	81	2.504006	0.0451966	-0.0073007	1	0.0457824	-9.175886	-1.160937E-005	3.188169	11	0.1554789	0.0070886	-327.6853
	47	85	1.998082	0.0464479	-0.0075024	1	0.0470499	-9.175358	0.0001422	3.188231	11	0.1613786	0.00757	-327.6853
	48	90	1.584686	0.0477988	-0.0076134	1	0.0484013	-9.050006	-1.73367E-005	3.188248	11	0.1598334	0.0077204	-327.6853
	49	94	1.266892	0.0490671	-0.0075706	1	0.0496477	-8.770987	-0.000108	3.188421	11	0.1593125	0.0078988	-327.6853
	50	101	0.999041	0.0503756	-0.0074022	1	0.0509166	-8.359205	-0.000159	3.188449	11	0.1591209	0.0080949	-327.6853
	51	106	0.7923428	0.051561	-0.007172	1	0.0520574	-7.918909	-5.474553E-005	3.188514	11	0.1592673	0.0082865	-327.6853
	52	112	0.6334459	0.052582	-0.0069273	1	0.0530364	-7.505101	-4.254453E-005	3.188576	11	0.1589823	0.0084289	-327.6853
	53	120	0.5040323	0.0535098	-0.0066763	1	0.0539247	-7.111969	-4.699864E-005	3.188649	11	0.1589818	0.0085711	-327.6853
	54	132	0.400641	0.054351	-0.0064797	1	0.0547358	-6.798674	-4.618739E-005	3.188751	11	0.1589864	0.008701	-327.6853
	55	146	0.316723	0.055135	-0.0063403	1	0.0554984	-6.559971	-4.853975E-005	3.188879	11	0.1589888	0.0088228	-327.6853
	56	160	0.2520161	0.0558382	-0.0063002	1	0.0561926	-6.437472	-4.352568E-005	3.189018	11	0.158995	0.0089338	-327.6853
	57	177	0.2003205	0.0564902	-0.0063688	1	0.0568481	-6.432482	-4.415635E-005	3.1892	11	0.1589973	0.0090384	-327.6853
	58	199	0.1588983	0.0571347	-0.0065681	1	0.057511	-6.557818	-4.81845E-005	3.189423	11	0.1589954	0.0091438	-327.6853
	59	230	0.1260081	0.0578023	-0.0068713	1	0.0582093	-6.77928	-4.09034E-005	3.190013	11	0.1589985	0.0092551	-327.6853
	60	260	0.1001603	0.0584784	-0.0073101	1	0.0589335	-7.125274	-4.429511E-005	3.190992	11	0.1589994	0.0093703	-327.6853
	61	307	0.0794492	0.0592091	-0.0078907	1	0.0597326	-7.590956	-4.173351E-005	3.192226	11	0.1589993	0.0094974	-327.6853
	62	346	0.0631739	0.0597601	-0.0086836	1	0.0603877	-8.267668	-4.219535E-005	3.192406	11	0.1589998	0.0096016	-327.6853
	63	411	0.0501337	0.0604353	-0.0096584	1	0.0612022	-9.079874	-4.381354E-005	3.192913	11	0.1589995	0.0097311	-327.6853
	64	492	0.0398258	0.0611519	-0.0108729	1	0.062111	-10.08188	-4.274507E-005	3.193548	11	0.1589995	0.0098756	-327.6853
	65	569	0.0316296	0.0618862	-0.0124034	1	0.0631169	-11.33319	-4.08495E-005	3.194267	11	0.1590002	0.0100356	-327.6853
	66	665	0.0251206	0.0626708	-0.0143251	1	0.0642871	-12.87534	-4.139916E-005	3.195145	11	0.1590001	0.0102217	-327.6853
	67	786	0.0199553	0.0635469	-0.0167232	1	0.0657105	-14.74383	-4.29252E-005	3.196202	11	0.1589998	0.0104479	-327.6853
	68	938	0.0158522	0.0645395	-0.0196883	1	0.0674758	-16.96476	-4.132603E-005	3.197615	11	0.1589996	0.0107286	-327.6853
	69	1192	0.0125907	0.0657973	-0.0233085	1	0.0698038	-19.50655	-4.381632E-005	3.199246	11	0.1589987	0.0110987	-327.6853
	70	1432	0.0100011	0.0673793	-0.0276171	1	0.0728195	-22.28752	-4.215057E-005	3.201	11	0.1590008	0.0115784	-327.6853
