EXPLAIN
TAG	GALVEIS
TITLE	LABEL	Galvanostatic EIS	Test Identifier
DATE	LABEL	12.2.2024	Date
TIME	LABEL	21:27:02	Time
NOTES	NOTES	1	Notes...
	
PSTAT	PSTAT	REF600-12055	Potentiostat
FREQINIT	QUANT	1.00000E+005	Initial Freq. (Hz)
FREQFINAL	QUANT	1.00000E-002	Final Freq. (Hz)
PTSPERDEC	QUANT	1.00000E+001	Points/decade
IACREQ	QUANT	1.59000E-001	AC Current (A rms)
IDCREQ	QUANT	0.00000E+000	DC Current (A)
AREA	QUANT	1.00000E+000	Sample Area (cm^2)
SPEED	SELECTOR	1	Optimize for:
DRIFTCOR	SELECTOR	0	Drift Correction
THD	SELECTOR	0	THD
ZGUESS	QUANT	1.00000E-001	Estimated Z (ohms)
EOC	QUANT	3.57318	Open Circuit (V)
SEQUENCER	TOGGLE	TRUE	Run as Sequence
PSTATMODEL	IQUANT	4	Pstat Model
PSTATSECTION	LABEL	REF600-12055	Pstat Section
PSTATSERIALNO	LABEL	12055	Pstat Serial Number
CTRLMODE	IQUANT	0	Control Mode
ELECTROMETER	IQUANT	0	RE=0 or CS=1
IESTAB	IQUANT	0	I/E Stability
CASPEED	IQUANT	4	Control Amp Speed
CONVENTION	IQUANT	1	Current Convention
ICHRANGE	IQUANT	2	Ich Range
ICHRANGEMODE	TOGGLE	F	Ich Auto Range
ICHOFFSETENABLE	TOGGLE	T	Ich Offset Enable
ICHOFFSET	QUANT	0	Ich Offset (V)
ICHFILTER	IQUANT	3	Ich Filter
VCHRANGE	IQUANT	2	Vch Range
VCHRANGEMODE	TOGGLE	F	Vch Auto Range
VCHOFFSETENABLE	TOGGLE	T	Vch Offset Enable
VCHOFFSET	QUANT	0	Vch Offset (V)
VCHFILTER	IQUANT	3	Vch Filter
ACHRANGE	IQUANT	2	Ach Range
ACHOFFSETENABLE	TOGGLE	F	Ach Offset Enable
ACHOFFSET	QUANT	0	Ach Offset (V)
ACHFILTER	IQUANT	1	Ach Filter
IERANGELOWERLIMIT	IQUANT	1	I/E Range Lower Limit
IERANGEMODE	TOGGLE	F	I/E AutoRange
IERANGE	IQUANT	7	I/E Range
POSFEEDENABLE	TOGGLE	F	Positive Feedback IR Comp
POSFEEDRESISTANCE	QUANT	0	Positive Feedback Resistance (ohm)
ACHSELECT	IQUANT	4	Ach Select
SENSECABLEID	IQUANT	14	Sense Cable ID
PWRCABLEID	IQUANT	14	Power Cable ID
DCCALDATE	LABEL	2/12/2024	DC Calibration Date
ACCALDATE	LABEL	2/12/2024	AC Calibration Date
THERMOSELECT	IQUANT	1	Thermo Select
FRAMEWORKVERSION	LABEL	7.10.3	Framework Version
INSTRUMENTVERSION	LABEL	4.91	Instrument Version
COMMVERSION	LABEL	2.24	Communications Version
CPUPLDVERSION	LABEL	0.00	CPU PLD Version
CTRLPLDVERSION	LABEL	0.00	CTRL PLD Version
PSTATPLDVERSION	LABEL	0.00	PSTAT PLD Version
ZCURVE	TABLE
	Pt	Time	Freq	Zreal	Zimag	Zsig	Zmod	Zphz	Idc	Vdc	IERange	Imod	Vmod	Temp
	#	s	Hz	ohm	ohm	V	ohm	°	A	V	#	A	V	°C
	0	5	100078.1	0.1069342	0.2318013	1	0.2552778	65.23527	2.867967E-005	3.572831	11	0.1596849	0.0404673	-327.6853
	1	7	79453.13	0.0891118	0.1940068	1	0.2134936	65.32959	1.352333E-005	3.572823	11	0.1644142	0.0349391	-327.6853
	2	8	63140.62	0.074907	0.161693	1	0.1782013	65.14329	-4.97757E-006	3.572828	11	0.1620282	0.0287886	-327.6853
	3	10	50203.12	0.0638009	0.1341725	1	0.1485692	64.56826	-1.267344E-005	3.572822	11	0.1609712	0.0238704	-327.6853
	4	12	39890.62	0.0552524	0.1108418	1	0.1238496	63.50468	-1.957206E-005	3.572813	11	0.1603059	0.0198301	-327.6853
	5	13	31640.63	0.0487077	0.0911911	1	0.103384	61.89211	-2.026686E-005	3.572808	11	0.1598659	0.0165151	-327.6853
	6	15	25171.88	0.0437546	0.0751561	1	0.086965	59.79276	-2.640777E-005	3.572798	11	0.1595546	0.013869	-327.6853
	7	17	20015.62	0.0398531	0.0619244	1	0.0736404	57.23557	-1.148554E-005	3.572789	11	0.159358	0.0117316	-327.6853
	8	19	15890.62	0.0366613	0.0509552	1	0.0627733	54.26569	-1.311011E-005	3.572781	11	0.1592364	0.0099939	-327.6853
	9	20	12609.38	0.0340301	0.0418226	1	0.0539183	50.86554	-1.289079E-005	3.572783	11	0.1591427	0.0085797	-327.6853
	10	22	10078.13	0.0319234	0.03439	1	0.0469231	47.13019	-1.812528E-005	3.572774	11	0.1590874	0.0074643	-327.6853
	11	23	8015.625	0.0302156	0.0279595	1	0.0411669	42.77915	-1.98296E-005	3.572767	11	0.1590596	0.0065477	-327.6853
	12	25	6328.125	0.0288958	0.0223396	1	0.0365244	37.70796	-1.623726E-005	3.572764	11	0.1590264	0.0058082	-327.6853
	13	26	5015.625	0.0279994	0.0177297	1	0.0331407	32.34261	-2.609543E-005	3.572763	11	0.1590163	0.0052698	-327.6853
	14	28	3984.375	0.0274228	0.0139233	1	0.0307549	26.91822	-2.617313E-005	3.57276	11	0.1590125	0.0048904	-327.6853
	15	29	3170.956	0.0271038	0.0107667	1	0.0291639	21.66495	-1.742237E-005	3.572754	11	0.1590079	0.0046373	-327.6853
	16	31	2527.573	0.0269895	0.0082057	1	0.0282094	16.91098	-1.722033E-005	3.572753	11	0.1590043	0.0044854	-327.6853
	17	32	1976.103	0.0270159	0.0058615	1	0.0276444	12.24137	-1.506333E-005	3.572748	11	0.1589974	0.0043954	-327.6853
	18	34	1577.524	0.0271684	0.0042096	1	0.0274926	8.807595	-3.250288E-005	3.572735	11	0.1590047	0.0043715	-327.6853
	19	35	1265.625	0.0273595	0.0028485	1	0.0275074	5.94392	-1.811027E-005	3.572734	11	0.1590015	0.0043737	-327.6853
	20	37	998.264	0.0276568	0.0016714	1	0.0277073	3.458488	-3.01227E-005	3.572732	11	0.159	0.0044055	-327.6853
	21	38	796.875	0.0279776	0.0007355	1	0.0279873	1.505857	-2.872164E-005	3.572722	11	0.1589987	0.0044499	-327.6853
	22	40	627.7902	0.0283874	-0.0001339	1	0.0283878	-0.2702321	-1.616165E-005	3.572722	11	0.1589974	0.0045136	-327.6853
	23	41	505.5147	0.0287687	-0.0006846	1	0.0287768	-1.363116	-1.911004E-005	3.572726	11	0.1576007	0.0045101	-327.6853
	24	43	397.9953	0.0292386	-0.0011776	1	0.0292623	-2.306302	-1.746381E-005	3.572721	11	0.1605983	0.0046802	-327.6853
	25	44	315.5048	0.0296905	-0.0015557	1	0.0297312	-2.999319	-1.528193E-005	3.57272	11	0.1593378	0.004724	-327.6853
	26	46	252.4038	0.030136	-0.0018349	1	0.0301918	-3.484315	-2.897438E-005	3.572713	11	0.1589703	0.0047905	-327.6853
	27	48	198.6229	0.0306223	-0.0020589	1	0.0306915	-3.846557	-1.993193E-005	3.572707	11	0.1588839	0.0048705	-327.6853
	28	49	158.3615	0.0310785	-0.0022142	1	0.0311572	-4.075163	-1.679186E-005	3.572706	11	0.1588879	0.0049467	-327.6853
	29	51	125.558	0.0315432	-0.0023153	1	0.0316281	-4.197966	-1.707836E-005	3.572699	11	0.1589108	0.0050236	-327.6853
	30	52	100.4464	0.0319807	-0.0023665	1	0.0320681	-4.232017	-1.986977E-005	3.572696	11	0.1589412	0.0050953	-327.6853
	31	54	79.00281	0.0324479	-0.002387	1	0.0325356	-4.20737	-2.868491E-005	3.57269	11	0.158957	0.0051707	-327.6853
	32	55	63.3446	0.0328601	-0.0023648	1	0.0329451	-4.116232	-3.054959E-005	3.572685	11	0.1589777	0.0052369	-327.6853
	33	57	50.22321	0.0332799	-0.0023115	1	0.0333601	-3.973094	-2.047839E-005	3.572679	11	0.1589764	0.005303	-327.6853
	34	59	38.42213	0.033747	-0.0022075	1	0.0338191	-3.742535	-1.613097E-005	3.57267	11	0.1589926	0.0053767	-327.6853
	35	60	31.25	0.0340817	-0.0021032	1	0.0341465	-3.531267	-2.981815E-005	3.572674	11	0.1589933	0.0054289	-327.6853
	36	62	24.93351	0.0344157	-0.0019642	1	0.0344717	-3.266511	-3.170769E-005	3.572664	11	0.1589957	0.0054807	-327.6853
	37	63	19.86229	0.0347163	-0.0018148	1	0.0347637	-2.992354	-6.020896E-005	3.572666	11	0.158977	0.0055266	-327.6853
	38	65	15.625	0.0349851	-0.0016312	1	0.0350231	-2.669536	-2.811942E-005	3.57266	11	0.1590058	0.0055688	-327.6853
	39	66	12.40079	0.0352235	-0.0014655	1	0.0352539	-2.382427	-4.026806E-005	3.572648	11	0.1589896	0.005605	-327.6853
	40	68	9.93114	0.0353989	-0.0013105	1	0.0354232	-2.120225	-5.471543E-005	3.572638	11	0.1590034	0.0056324	-327.6853
	41	69	7.944915	0.0355374	-0.0011685	1	0.0355566	-1.883206	-3.235659E-005	3.572649	11	0.1589926	0.0056532	-327.6853
	42	71	6.317385	0.0356523	-0.0010474	1	0.0356676	-1.682688	5.934027E-005	3.572658	11	0.1590208	0.0056719	-327.6853
	43	73	5.008013	0.0357614	-0.0009313	1	0.0357735	-1.491839	-4.594808E-005	3.572637	11	0.1589963	0.0056878	-327.6853
	44	76	3.945707	0.03585	-0.0008563	1	0.0358602	-1.368279	-5.240552E-005	3.572636	11	0.1589814	0.0057011	-327.6853
	45	78	3.158693	0.035928	-0.0007909	1	0.0359367	-1.261005	-7.478497E-005	3.572634	11	0.1590271	0.0057149	-327.6853
	46	80	2.504006	0.0360032	-0.0007441	1	0.0360108	-1.183944	1.486472E-005	3.572617	11	0.1554076	0.0055731	-327.6853
	47	84	1.998082	0.0360548	-0.0007251	1	0.0360621	-1.152195	-0.0002903	3.572568	11	0.1615246	0.0058074	-327.6853
	48	88	1.584686	0.0361176	-0.000724	1	0.0361248	-1.148439	-0.0002661	3.572566	11	0.1598417	0.0057625	-327.6853
	49	92	1.266892	0.0361811	-0.000748	1	0.0361889	-1.18433	0.0002376	3.572547	11	0.1593157	0.0057577	-327.6853
	50	100	0.999041	0.0362523	-0.0007858	1	0.0362609	-1.24173	0.0002481	3.572559	11	0.1591116	0.0057646	-327.6853
	51	104	0.7923428	0.0363531	-0.0008455	1	0.0363629	-1.332355	-3.544055E-005	3.572588	11	0.1591525	0.0057841	-327.6853
	52	112	0.6334459	0.0364312	-0.0009196	1	0.0364428	-1.446002	-4.047225E-005	3.572557	11	0.1589849	0.0057918	-327.6853
	53	121	0.5040323	0.0365288	-0.0010077	1	0.0365427	-1.580204	-3.313008E-005	3.572533	11	0.1589811	0.0058083	-327.6853
	54	131	0.400641	0.0366407	-0.0011294	1	0.0366581	-1.765544	-3.47138E-005	3.572515	11	0.1589863	0.0058273	-327.6853
	55	142	0.316723	0.0367688	-0.0012665	1	0.0367907	-1.972786	-3.273186E-005	3.572479	11	0.15899	0.0058488	-327.6853
	56	160	0.2520161	0.0369192	-0.0014262	1	0.0369467	-2.212324	-3.999975E-005	3.572438	11	0.1589938	0.005874	-327.6853
	57	181	0.2003205	0.0370836	-0.0015985	1	0.037118	-2.46829	-3.558894E-005	3.572398	11	0.1589952	0.0059014	-327.6853
	58	203	0.1588983	0.0372882	-0.0018102	1	0.0373322	-2.779277	-3.642761E-005	3.572348	11	0.1589982	0.0059356	-327.6853
	59	228	0.1260081	0.037522	-0.0020385	1	0.0375773	-3.109653	-3.671751E-005	3.572361	11	0.1589992	0.0059747	-327.6853
	60	266	0.1001603	0.0378122	-0.0022894	1	0.0378815	-3.464798	-3.519923E-005	3.572463	11	0.1589987	0.006023	-327.6853
	61	302	0.0794492	0.0381118	-0.0025821	1	0.0381992	-3.875836	-3.813994E-005	3.57257	11	0.1590004	0.0060736	-327.6853
	62	342	0.0631739	0.0383521	-0.0029152	1	0.0384627	-4.346787	-3.737306E-005	3.572359	11	0.1589986	0.0061155	-327.6853
	63	391	0.0501337	0.0386608	-0.0033016	1	0.0388015	-4.881169	-3.583212E-005	3.572221	11	0.1590003	0.0061694	-327.6853
	64	452	0.0398258	0.0390092	-0.0037572	1	0.0391897	-5.50153	-3.585021E-005	3.572091	11	0.1589994	0.0062311	-327.6853
	65	529	0.0316296	0.0393926	-0.0043015	1	0.0396268	-6.231769	-3.963898E-005	3.571911	11	0.1590008	0.0063007	-327.6853
	66	657	0.0251206	0.0398337	-0.0049486	1	0.0401399	-7.081666	-3.794436E-005	3.57175	11	0.1589992	0.0063822	-327.6853
	67	778	0.0199553	0.0403487	-0.00571	1	0.0407507	-8.05484	-3.561515E-005	3.57156	11	0.1590004	0.0064794	-327.6853
	68	980	0.0158522	0.0409888	-0.0066285	1	0.0415213	-9.18603	-3.85406E-005	3.571363	11	0.1589998	0.0066019	-327.6853
	69	1171	0.0125907	0.0417375	-0.0076944	1	0.0424408	-10.44538	-3.648388E-005	3.571204	11	0.1589999	0.0067481	-327.6853
	70	1411	0.0100011	0.0426863	-0.0088793	1	0.0436001	-11.75064	-3.848356E-005	3.571023	11	0.1589997	0.0069324	-327.6853
