EXPLAIN
TAG	GALVEIS
TITLE	LABEL	Galvanostatic EIS	Test Identifier
DATE	LABEL	30.3.2024	Date
TIME	LABEL	7:03:20	Time
NOTES	NOTES	1	Notes...
	
PSTAT	PSTAT	REF600-12055	Potentiostat
FREQINIT	QUANT	1.00000E+005	Initial Freq. (Hz)
FREQFINAL	QUANT	1.00000E-002	Final Freq. (Hz)
PTSPERDEC	QUANT	1.00000E+001	Points/decade
IACREQ	QUANT	1.59000E-001	AC Current (A rms)
IDCREQ	QUANT	0.00000E+000	DC Current (A)
AREA	QUANT	1.00000E+000	Sample Area (cm^2)
SPEED	SELECTOR	1	Optimize for:
DRIFTCOR	SELECTOR	0	Drift Correction
THD	SELECTOR	0	THD
ZGUESS	QUANT	1.00000E-001	Estimated Z (ohms)
EOC	QUANT	3.934863	Open Circuit (V)
SEQUENCER	TOGGLE	TRUE	Run as Sequence
PSTATMODEL	IQUANT	4	Pstat Model
PSTATSECTION	LABEL	REF600-12055	Pstat Section
PSTATSERIALNO	LABEL	12055	Pstat Serial Number
CTRLMODE	IQUANT	0	Control Mode
ELECTROMETER	IQUANT	0	RE=0 or CS=1
IESTAB	IQUANT	0	I/E Stability
CASPEED	IQUANT	4	Control Amp Speed
CONVENTION	IQUANT	1	Current Convention
ICHRANGE	IQUANT	2	Ich Range
ICHRANGEMODE	TOGGLE	F	Ich Auto Range
ICHOFFSETENABLE	TOGGLE	T	Ich Offset Enable
ICHOFFSET	QUANT	0	Ich Offset (V)
ICHFILTER	IQUANT	3	Ich Filter
VCHRANGE	IQUANT	2	Vch Range
VCHRANGEMODE	TOGGLE	F	Vch Auto Range
VCHOFFSETENABLE	TOGGLE	T	Vch Offset Enable
VCHOFFSET	QUANT	0	Vch Offset (V)
VCHFILTER	IQUANT	3	Vch Filter
ACHRANGE	IQUANT	2	Ach Range
ACHOFFSETENABLE	TOGGLE	F	Ach Offset Enable
ACHOFFSET	QUANT	0	Ach Offset (V)
ACHFILTER	IQUANT	1	Ach Filter
IERANGELOWERLIMIT	IQUANT	1	I/E Range Lower Limit
IERANGEMODE	TOGGLE	F	I/E AutoRange
IERANGE	IQUANT	7	I/E Range
POSFEEDENABLE	TOGGLE	F	Positive Feedback IR Comp
POSFEEDRESISTANCE	QUANT	0	Positive Feedback Resistance (ohm)
ACHSELECT	IQUANT	4	Ach Select
SENSECABLEID	IQUANT	14	Sense Cable ID
PWRCABLEID	IQUANT	14	Power Cable ID
DCCALDATE	LABEL	2/12/2024	DC Calibration Date
ACCALDATE	LABEL	2/12/2024	AC Calibration Date
THERMOSELECT	IQUANT	1	Thermo Select
FRAMEWORKVERSION	LABEL	7.10.3	Framework Version
INSTRUMENTVERSION	LABEL	4.91	Instrument Version
COMMVERSION	LABEL	2.24	Communications Version
CPUPLDVERSION	LABEL	0.00	CPU PLD Version
CTRLPLDVERSION	LABEL	0.00	CTRL PLD Version
PSTATPLDVERSION	LABEL	0.00	PSTAT PLD Version
ZCURVE	TABLE
	Pt	Time	Freq	Zreal	Zimag	Zsig	Zmod	Zphz	Idc	Vdc	IERange	Imod	Vmod	Temp
	#	s	Hz	ohm	ohm	V	ohm	°	A	V	#	A	V	°C
	0	5	100078.1	0.103921	0.2365007	1	0.2583257	66.27878	3.114087E-005	3.934811	11	0.1596477	0.0409409	-327.6853
	1	6	79453.13	0.0866455	0.1969645	1	0.2151801	66.25511	1.604669E-005	3.934808	11	0.164301	0.0351909	-327.6853
	2	8	63140.62	0.0730973	0.1634524	1	0.1790528	65.90538	3.741239E-006	3.934816	11	0.1619538	0.0289128	-327.6853
	3	10	50203.12	0.0626043	0.1351915	1	0.1489833	65.15216	-4.024012E-006	3.934807	11	0.160912	0.0239282	-327.6853
	4	11	39890.62	0.0545704	0.1114189	1	0.1240649	63.90547	-8.22742E-006	3.934826	11	0.1602678	0.0198599	-327.6853
	5	13	31640.63	0.0484099	0.0915412	1	0.1035534	62.1287	-1.432223E-005	3.934832	11	0.1598406	0.0165395	-327.6853
	6	15	25171.88	0.0437168	0.0754015	1	0.0871582	59.89539	-1.304103E-005	3.934824	11	0.1595348	0.0138981	-327.6853
	7	17	20015.62	0.0399814	0.0621411	1	0.073892	57.24293	-1.408704E-005	3.934825	11	0.1593558	0.0117716	-327.6853
	8	18	15890.62	0.0368898	0.0511673	1	0.063079	54.20973	-1.731445E-005	3.934818	11	0.1592246	0.0100418	-327.6853
	9	20	12609.38	0.0342966	0.0420591	1	0.0542699	50.80487	-1.621048E-005	3.934828	11	0.1591399	0.0086355	-327.6853
	10	22	10078.13	0.032209	0.0346618	1	0.0473166	47.10071	-1.840014E-005	3.934829	11	0.1590868	0.0075269	-327.6853
	11	23	8015.625	0.0304993	0.0282493	1	0.041572	42.80674	-2.065022E-005	3.934839	11	0.1590519	0.0066118	-327.6853
	12	25	6328.125	0.0291634	0.0226791	1	0.0369438	37.8706	-1.748442E-005	3.934845	11	0.1590319	0.0058751	-327.6853
	13	27	5015.625	0.0282312	0.0180925	1	0.0335312	32.65463	-1.697103E-005	3.934845	11	0.1590134	0.0053318	-327.6853
	14	29	3984.375	0.0276184	0.0143228	1	0.0311114	27.41112	-1.741538E-005	3.93483	11	0.1590098	0.004947	-327.6853
	15	30	3170.956	0.0272484	0.0112174	1	0.029467	22.37554	-1.900108E-005	3.934831	11	0.159009	0.0046855	-327.6853
	16	32	2527.573	0.0270802	0.0087298	1	0.0284525	17.86766	-1.700083E-005	3.934846	11	0.1589995	0.0045239	-327.6853
	17	33	1976.103	0.0270306	0.0065146	1	0.0278045	13.55031	-1.503271E-005	3.934846	11	0.1589988	0.0044209	-327.6853
	18	35	1577.524	0.0270918	0.0048967	1	0.0275308	10.24533	-2.052484E-005	3.934855	11	0.1590011	0.0043774	-327.6853
	19	37	1265.625	0.0272191	0.0035559	1	0.0274504	7.442912	-2.058083E-005	3.934838	11	0.1589997	0.0043646	-327.6853
	20	38	998.264	0.0273999	0.0024296	1	0.0275074	5.067283	-1.927081E-005	3.934844	11	0.1590004	0.0043737	-327.6853
	21	40	796.875	0.0275824	0.0016295	1	0.0276304	3.381049	-1.614203E-005	3.934853	11	0.1590042	0.0043934	-327.6853
	22	41	627.7902	0.0278301	0.0008639	1	0.0278435	1.777992	-2.805656E-005	3.934851	11	0.1589982	0.0044271	-327.6853
	23	43	505.5147	0.0280572	0.000356	1	0.0280594	0.726957	-2.7125E-005	3.934866	11	0.1575996	0.0043976	-327.6853
	24	44	397.9953	0.0283343	-8.312549E-005	1	0.0283344	-0.1680905	-2.860732E-005	3.934865	11	0.1605997	0.0045318	-327.6853
	25	46	315.5048	0.0285874	-0.0004243	1	0.0285906	-0.8504307	-1.932903E-005	3.934871	11	0.1593379	0.0045427	-327.6853
	26	47	252.4038	0.0288385	-0.0006875	1	0.0288467	-1.365656	-3.533895E-005	3.934872	11	0.1589724	0.0045772	-327.6853
	27	49	198.6229	0.0291128	-0.0009185	1	0.0291273	-1.807029	-2.444268E-005	3.934875	11	0.158875	0.004622	-327.6853
	28	50	158.3615	0.0293792	-0.0010852	1	0.0293993	-2.115394	-1.800625E-005	3.934871	11	0.1588929	0.0046677	-327.6853
	29	52	125.558	0.0296521	-0.0012135	1	0.0296769	-2.343572	-1.22342E-005	3.934876	11	0.1589084	0.0047136	-327.6853
	30	53	100.4464	0.0299222	-0.0013073	1	0.0299507	-2.501703	-1.693051E-005	3.934882	11	0.1589403	0.0047589	-327.6853
	31	55	79.00281	0.0302101	-0.0013624	1	0.0302408	-2.582237	-1.921528E-005	3.93488	11	0.1589648	0.0048063	-327.6853
	32	56	63.3446	0.0304719	-0.0013878	1	0.0305035	-2.607585	-1.798116E-005	3.934878	11	0.1589724	0.0048486	-327.6853
	33	58	50.22321	0.0307413	-0.0013889	1	0.0307726	-2.586954	-1.63337E-005	3.93488	11	0.1589782	0.0048918	-327.6853
	34	60	38.42213	0.031032	-0.0013497	1	0.0310613	-2.490426	-1.526701E-005	3.93488	11	0.1589921	0.0049383	-327.6853
	35	61	31.25	0.0312526	-0.0012981	1	0.0312795	-2.378533	-1.362074E-005	3.934884	11	0.1589985	0.0049732	-327.6853
	36	63	24.93351	0.031452	-0.0012294	1	0.031476	-2.238444	-1.909153E-005	3.934888	11	0.1589883	0.0050042	-327.6853
	37	65	19.86229	0.0316352	-0.0011575	1	0.0316564	-2.09554	1.107692E-005	3.934887	11	0.1589814	0.0050327	-327.6853
	38	66	15.625	0.0318156	-0.00108	1	0.0318339	-1.944138	-3.504986E-005	3.934902	11	0.1589965	0.0050614	-327.6853
	39	67	12.40079	0.0319609	-0.0009887	1	0.0319762	-1.77181	-3.230409E-005	3.934902	11	0.159002	0.0050843	-327.6853
	40	69	9.93114	0.0320783	-0.0009265	1	0.0320916	-1.654304	-4.946056E-005	3.934888	11	0.1589906	0.0051023	-327.6853
	41	71	7.944915	0.0321614	-0.0008875	1	0.0321737	-1.580616	-3.460445E-006	3.934903	11	0.1590063	0.0051158	-327.6853
	42	72	6.317385	0.0322603	-0.0008442	1	0.0322713	-1.498913	-4.13121E-005	3.934882	11	0.1589752	0.0051303	-327.6853
	43	75	5.008013	0.0323414	-0.0008292	1	0.032352	-1.468737	3.055856E-005	3.934875	11	0.1590129	0.0051444	-327.6853
	44	77	3.945707	0.0324339	-0.0008299	1	0.0324445	-1.465817	-5.531986E-005	3.934904	11	0.1590004	0.0051587	-327.6853
	45	80	3.158693	0.0325225	-0.0008403	1	0.0325334	-1.480124	-8.086406E-005	3.934919	11	0.1590225	0.0051735	-327.6853
	46	82	2.504006	0.0326125	-0.0008672	1	0.032624	-1.523254	2.089725E-005	3.934912	11	0.1554122	0.0050491	-327.6853
	47	85	1.998082	0.0327032	-0.0009213	1	0.0327162	-1.613719	-0.0002919	3.934879	11	0.1615188	0.0052684	-327.6853
	48	90	1.584686	0.0328102	-0.0009849	1	0.032825	-1.719336	-0.0002648	3.9349	11	0.1598471	0.0052363	-327.6853
	49	94	1.266892	0.0329223	-0.0010621	1	0.0329394	-1.847825	0.0002342	3.934892	11	0.1593272	0.0052411	-327.6853
	50	100	0.999041	0.0330562	-0.0011534	1	0.0330763	-1.998385	0.000247	3.934928	11	0.1591034	0.005258	-327.6853
	51	105	0.7923428	0.0332203	-0.0012594	1	0.0332442	-2.171021	-3.646035E-005	3.934993	11	0.1591208	0.0052869	-327.6853
	52	111	0.6334459	0.0333743	-0.0013823	1	0.0334029	-2.3717	-3.89638E-005	3.934985	11	0.1589827	0.0053086	-327.6853
	53	121	0.5040323	0.0335623	-0.0015184	1	0.0335966	-2.590281	-3.808475E-005	3.934999	11	0.1589829	0.0053401	-327.6853
	54	130	0.400641	0.033752	-0.0016684	1	0.0337932	-2.829876	-3.844401E-005	3.935017	11	0.1589861	0.0053719	-327.6853
	55	142	0.316723	0.0339605	-0.0018371	1	0.0340102	-3.096374	-3.881184E-005	3.93504	11	0.1589886	0.0054067	-327.6853
	56	159	0.2520161	0.0342009	-0.0020228	1	0.0342606	-3.384851	-3.941888E-005	3.935063	11	0.1589949	0.005447	-327.6853
	57	180	0.2003205	0.0344456	-0.002239	1	0.0345183	-3.719024	-3.818372E-005	3.935091	11	0.158996	0.0054881	-327.6853
	58	207	0.1588983	0.034733	-0.0024694	1	0.0348207	-4.066706	-3.725891E-005	3.935126	11	0.1589969	0.0055363	-327.6853
	59	238	0.1260081	0.0350625	-0.0027304	1	0.0351687	-4.452691	-3.976961E-005	3.935261	11	0.1589995	0.0055917	-327.6853
	60	276	0.1001603	0.0354327	-0.0030176	1	0.035561	-4.86781	-4.180415E-005	3.935476	11	0.1589977	0.0056541	-327.6853
	61	323	0.0794492	0.0358408	-0.0033426	1	0.0359964	-5.328132	-3.708895E-005	3.935693	11	0.1589997	0.0057234	-327.6853
	62	375	0.0631739	0.0361692	-0.0037351	1	0.0363615	-5.895834	-3.812374E-005	3.935587	11	0.159	0.0057815	-327.6853
	63	440	0.0501337	0.0366035	-0.0041709	1	0.0368403	-6.500652	-3.887561E-005	3.935587	11	0.1589992	0.0058576	-327.6853
	64	521	0.0398258	0.0370638	-0.0046829	1	0.0373584	-7.201041	-3.907937E-005	3.935633	11	0.1590001	0.00594	-327.6853
	65	623	0.0316296	0.0375935	-0.005272	1	0.0379614	-7.982886	-4.058991E-005	3.935706	11	0.1589999	0.0060358	-327.6853
	66	719	0.0251206	0.0381821	-0.0059548	1	0.0386437	-8.864327	-4.040528E-005	3.935786	11	0.1589995	0.0061443	-327.6853
	67	840	0.0199553	0.038821	-0.0067757	1	0.0394078	-9.90049	-3.950409E-005	3.935877	11	0.1590007	0.0062659	-327.6853
	68	992	0.0158522	0.0395583	-0.007751	1	0.0403105	-11.08602	-4.019274E-005	3.935988	11	0.1589987	0.0064093	-327.6853
	69	1246	0.0125907	0.0404673	-0.0089029	1	0.041435	-12.40756	-3.97849E-005	3.936133	11	0.1590006	0.0065882	-327.6853
	70	1486	0.0100011	0.0415193	-0.0102072	1	0.0427556	-13.81181	-4.113336E-005	3.936267	11	0.1589994	0.0067981	-327.6853
