EXPLAIN
TAG	GALVEIS
TITLE	LABEL	Galvanostatic EIS	Test Identifier
DATE	LABEL	30.3.2024	Date
TIME	LABEL	5:41:41	Time
NOTES	NOTES	1	Notes...
	
PSTAT	PSTAT	REF600-12055	Potentiostat
FREQINIT	QUANT	1.00000E+005	Initial Freq. (Hz)
FREQFINAL	QUANT	1.00000E-002	Final Freq. (Hz)
PTSPERDEC	QUANT	1.00000E+001	Points/decade
IACREQ	QUANT	1.59000E-001	AC Current (A rms)
IDCREQ	QUANT	0.00000E+000	DC Current (A)
AREA	QUANT	1.00000E+000	Sample Area (cm^2)
SPEED	SELECTOR	1	Optimize for:
DRIFTCOR	SELECTOR	0	Drift Correction
THD	SELECTOR	0	THD
ZGUESS	QUANT	1.00000E-001	Estimated Z (ohms)
EOC	QUANT	4.03334	Open Circuit (V)
SEQUENCER	TOGGLE	TRUE	Run as Sequence
PSTATMODEL	IQUANT	4	Pstat Model
PSTATSECTION	LABEL	REF600-12055	Pstat Section
PSTATSERIALNO	LABEL	12055	Pstat Serial Number
CTRLMODE	IQUANT	0	Control Mode
ELECTROMETER	IQUANT	0	RE=0 or CS=1
IESTAB	IQUANT	0	I/E Stability
CASPEED	IQUANT	4	Control Amp Speed
CONVENTION	IQUANT	1	Current Convention
ICHRANGE	IQUANT	2	Ich Range
ICHRANGEMODE	TOGGLE	F	Ich Auto Range
ICHOFFSETENABLE	TOGGLE	T	Ich Offset Enable
ICHOFFSET	QUANT	0	Ich Offset (V)
ICHFILTER	IQUANT	3	Ich Filter
VCHRANGE	IQUANT	2	Vch Range
VCHRANGEMODE	TOGGLE	F	Vch Auto Range
VCHOFFSETENABLE	TOGGLE	T	Vch Offset Enable
VCHOFFSET	QUANT	0	Vch Offset (V)
VCHFILTER	IQUANT	3	Vch Filter
ACHRANGE	IQUANT	2	Ach Range
ACHOFFSETENABLE	TOGGLE	F	Ach Offset Enable
ACHOFFSET	QUANT	0	Ach Offset (V)
ACHFILTER	IQUANT	1	Ach Filter
IERANGELOWERLIMIT	IQUANT	1	I/E Range Lower Limit
IERANGEMODE	TOGGLE	F	I/E AutoRange
IERANGE	IQUANT	7	I/E Range
POSFEEDENABLE	TOGGLE	F	Positive Feedback IR Comp
POSFEEDRESISTANCE	QUANT	0	Positive Feedback Resistance (ohm)
ACHSELECT	IQUANT	4	Ach Select
SENSECABLEID	IQUANT	14	Sense Cable ID
PWRCABLEID	IQUANT	14	Power Cable ID
DCCALDATE	LABEL	2/12/2024	DC Calibration Date
ACCALDATE	LABEL	2/12/2024	AC Calibration Date
THERMOSELECT	IQUANT	1	Thermo Select
FRAMEWORKVERSION	LABEL	7.10.3	Framework Version
INSTRUMENTVERSION	LABEL	4.91	Instrument Version
COMMVERSION	LABEL	2.24	Communications Version
CPUPLDVERSION	LABEL	0.00	CPU PLD Version
CTRLPLDVERSION	LABEL	0.00	CTRL PLD Version
PSTATPLDVERSION	LABEL	0.00	PSTAT PLD Version
ZCURVE	TABLE
	Pt	Time	Freq	Zreal	Zimag	Zsig	Zmod	Zphz	Idc	Vdc	IERange	Imod	Vmod	Temp
	#	s	Hz	ohm	ohm	V	ohm	°	A	V	#	A	V	°C
	0	5	100078.1	0.1039758	0.2364426	1	0.2582945	66.26247	3.284367E-005	4.033257	11	0.159647	0.0409358	-327.6853
	1	7	79453.13	0.0866614	0.1969278	1	0.2151528	66.2473	7.507391E-006	4.033265	11	0.164284	0.0351828	-327.6853
	2	8	63140.62	0.07309	0.1634382	1	0.1790368	65.90568	7.210881E-006	4.033266	11	0.1619633	0.028912	-327.6853
	3	10	50203.12	0.0625978	0.1351686	1	0.1489598	65.15071	-1.419667E-005	4.033256	11	0.1609082	0.0239238	-327.6853
	4	12	39890.62	0.0545507	0.1113935	1	0.1240334	63.90849	-5.274895E-006	4.033261	11	0.1602684	0.0198549	-327.6853
	5	14	31640.63	0.0483872	0.0915149	1	0.1035196	62.13302	-7.579161E-006	4.033277	11	0.1598328	0.0165333	-327.6853
	6	15	25171.88	0.0436978	0.0753805	1	0.0871304	59.8993	-1.164305E-005	4.033264	11	0.1595412	0.0138942	-327.6853
	7	17	20015.62	0.0399679	0.0621204	1	0.0738673	57.24297	-1.236139E-005	4.03327	11	0.159351	0.0117673	-327.6853
	8	19	15890.62	0.0368826	0.0511511	1	0.0630616	54.20647	-1.401734E-005	4.033264	11	0.1592208	0.0100388	-327.6853
	9	20	12609.38	0.0342897	0.0420501	1	0.0542586	50.80451	-1.822098E-005	4.033267	11	0.1591423	0.0086338	-327.6853
	10	22	10078.13	0.0322001	0.0346504	1	0.0473022	47.09916	-1.88842E-005	4.03327	11	0.1590835	0.0075244	-327.6853
	11	23	8015.625	0.0304824	0.0282406	1	0.0415537	42.81376	-1.62354E-005	4.033266	11	0.1590535	0.0066089	-327.6853
	12	25	6328.125	0.0291485	0.0226638	1	0.0369226	37.86612	-2.589263E-005	4.033274	11	0.1590328	0.0058717	-327.6853
	13	26	5015.625	0.0282199	0.0180857	1	0.0335179	32.65517	-2.52123E-005	4.033274	11	0.1590161	0.0053298	-327.6853
	14	28	3984.375	0.0276051	0.0143204	1	0.0310985	27.41845	-2.394698E-005	4.033278	11	0.1590038	0.0049447	-327.6853
	15	30	3170.956	0.027239	0.01122	1	0.0294593	22.38717	-2.785376E-005	4.03328	11	0.1590095	0.0046843	-327.6853
	16	32	2527.573	0.0270682	0.0086664	1	0.0284217	17.75344	-2.604001E-005	4.033287	11	0.1589985	0.004519	-327.6853
	17	33	1976.103	0.0270354	0.0064534	1	0.027795	13.42536	-3.066659E-005	4.033272	11	0.1590019	0.0044194	-327.6853
	18	35	1577.524	0.0270827	0.0048509	1	0.0275137	10.15481	-2.622794E-005	4.033292	11	0.1590019	0.0043747	-327.6853
	19	37	1265.625	0.0271988	0.0035904	1	0.0274347	7.519914	-1.854799E-005	4.033281	11	0.1590036	0.0043622	-327.6853
	20	38	998.264	0.0273818	0.0024129	1	0.0274879	5.03591	-1.855884E-005	4.033278	11	0.1589947	0.0043704	-327.6853
	21	40	796.875	0.027573	0.0015579	1	0.027617	3.233884	-1.789234E-005	4.033278	11	0.1589998	0.0043911	-327.6853
	22	41	627.7902	0.0278087	0.0008757	1	0.0278224	1.803681	-1.927104E-005	4.033294	11	0.1590031	0.0044239	-327.6853
	23	43	505.5147	0.0280414	0.000344	1	0.0280435	0.702788	-1.892482E-005	4.033297	11	0.1576025	0.0043952	-327.6853
	24	44	397.9953	0.0283155	-0.0000959	1	0.0283156	-0.1941086	-1.782743E-005	4.033298	11	0.1606022	0.0045289	-327.6853
	25	46	315.5048	0.0285695	-0.0004462	1	0.028573	-0.8947002	-2.000097E-005	4.033297	11	0.1593355	0.0045399	-327.6853
	26	47	252.4038	0.0288214	-0.0007094	1	0.0288302	-1.410051	-1.633819E-005	4.033301	11	0.1589737	0.0045746	-327.6853
	27	49	198.6229	0.0290909	-0.000947	1	0.0291063	-1.864486	-1.815101E-005	4.033304	11	0.1588774	0.0046188	-327.6853
	28	50	158.3615	0.0293515	-0.0011254	1	0.029373	-2.195773	-1.803925E-005	4.03331	11	0.1588822	0.0046632	-327.6853
	29	52	125.558	0.0296225	-0.0012709	1	0.0296498	-2.456655	-2.013176E-005	4.033311	11	0.1589197	0.0047096	-327.6853
	30	53	100.4464	0.0298947	-0.0013814	1	0.0299266	-2.64561	-1.810672E-005	4.033309	11	0.1589358	0.0047549	-327.6853
	31	55	79.00281	0.0301931	-0.0014609	1	0.0302284	-2.770116	-1.966202E-005	4.03331	11	0.1589604	0.0048042	-327.6853
	32	56	63.3446	0.0304698	-0.0015074	1	0.0305071	-2.832144	-1.838244E-005	4.033312	11	0.1589732	0.0048492	-327.6853
	33	58	50.22321	0.0307564	-0.0015412	1	0.030795	-2.868733	-1.764418E-005	4.033314	11	0.1589787	0.0048954	-327.6853
	34	60	38.42213	0.0310759	-0.0015415	1	0.0311141	-2.83976	-1.829164E-005	4.033314	11	0.1589975	0.0049468	-327.6853
	35	61	31.25	0.0313387	-0.0015156	1	0.0313753	-2.768825	-1.070043E-005	4.033314	11	0.1589933	0.0049883	-327.6853
	36	63	24.93351	0.0315817	-0.0014603	1	0.0316155	-2.647313	-1.680781E-005	4.033322	11	0.1589918	0.0050265	-327.6853
	37	64	19.86229	0.0318186	-0.0014007	1	0.0318494	-2.520617	6.206334E-006	4.033314	11	0.1589845	0.0050635	-327.6853
	38	66	15.625	0.0320289	-0.0013028	1	0.0320554	-2.329317	-3.186427E-005	4.033342	11	0.1589934	0.0050966	-327.6853
	39	67	12.40079	0.0322427	-0.0012356	1	0.0322664	-2.194686	-2.771342E-005	4.033343	11	0.1590104	0.0051307	-327.6853
	40	69	9.93114	0.0323878	-0.0011608	1	0.0324086	-2.052592	-9.962649E-006	4.033342	11	0.159002	0.005153	-327.6853
	41	70	7.944915	0.032533	-0.0010899	1	0.0325513	-1.918772	-2.107487E-005	4.03333	11	0.1589788	0.005175	-327.6853
	42	72	6.317385	0.0326639	-0.0010338	1	0.0326803	-1.812708	-0.0001085	4.033326	11	0.1590394	0.0051974	-327.6853
	43	74	5.008013	0.0327789	-0.0009899	1	0.0327938	-1.729828	2.585317E-005	4.033321	11	0.1589577	0.0052128	-327.6853
	44	77	3.945707	0.032885	-0.0009653	1	0.0328991	-1.681434	-2.81459E-005	4.033319	11	0.159022	0.0052317	-327.6853
	45	79	3.158693	0.0329823	-0.0009673	1	0.0329965	-1.679893	5.827029E-005	4.033307	11	0.1589893	0.0052461	-327.6853
	46	82	2.504006	0.0330973	-0.0009822	1	0.0331119	-1.699755	2.717297E-005	4.033289	11	0.1554147	0.0051247	-327.6853
	47	85	1.998082	0.033214	-0.0010115	1	0.0332294	-1.744268	-7.084711E-005	4.033276	11	0.1613501	0.0053454	-327.6853
	48	89	1.584686	0.0333144	-0.0010712	1	0.0333316	-1.841691	-0.0002609	4.033289	11	0.160011	0.0053226	-327.6853
	49	94	1.266892	0.033436	-0.0011328	1	0.0334552	-1.940373	0.0001366	4.033365	11	0.1592424	0.0053203	-327.6853
	50	99	0.999041	0.0335853	-0.0012157	1	0.0336073	-2.07311	7.856055E-005	4.033385	11	0.1590386	0.0053403	-327.6853
	51	104	0.7923428	0.0337407	-0.0013007	1	0.0337658	-2.207713	-3.752424E-005	4.0334	11	0.1592776	0.0053752	-327.6853
	52	111	0.6334459	0.0339019	-0.0014111	1	0.0339313	-2.383486	-3.738719E-005	4.033401	11	0.1589828	0.0053926	-327.6853
	53	119	0.5040323	0.0340757	-0.001541	1	0.0341105	-2.589262	-3.793871E-005	4.033405	11	0.1589824	0.0054217	-327.6853
	54	130	0.400641	0.0342692	-0.0016773	1	0.0343102	-2.802135	-3.726363E-005	4.033421	11	0.1589867	0.0054541	-327.6853
	55	142	0.316723	0.0344922	-0.0018408	1	0.0345413	-3.054879	-4.160218E-005	4.033443	11	0.1589894	0.0054912	-327.6853
	56	156	0.2520161	0.0347225	-0.0020153	1	0.0347809	-3.321749	-3.750554E-005	4.033461	11	0.1589936	0.0055296	-327.6853
	57	177	0.2003205	0.0349634	-0.0022197	1	0.0350338	-3.632569	-3.760301E-005	4.033489	11	0.1589962	0.00557	-327.6853
	58	204	0.1588983	0.0352424	-0.0024431	1	0.035327	-3.965603	-3.80049E-005	4.033531	11	0.1589978	0.0056168	-327.6853
	59	235	0.1260081	0.0355715	-0.0026965	1	0.0356735	-4.334987	-4.229061E-005	4.033652	11	0.1589972	0.0056719	-327.6853
	60	273	0.1001603	0.0359385	-0.0029666	1	0.0360607	-4.718871	-3.591698E-005	4.033843	11	0.159	0.0057336	-327.6853
	61	320	0.0794492	0.0363581	-0.0032789	1	0.0365057	-5.15322	-3.734189E-005	4.03407	11	0.1589989	0.0058043	-327.6853
	62	359	0.0631739	0.0366708	-0.0036595	1	0.0368529	-5.698857	-3.861873E-005	4.033966	11	0.1589996	0.0058596	-327.6853
	63	408	0.0501337	0.0370751	-0.0040766	1	0.0372985	-6.27484	-4.03669E-005	4.033966	11	0.1589985	0.0059304	-327.6853
	64	469	0.0398258	0.0375329	-0.0045541	1	0.0378082	-6.91819	-3.934099E-005	4.034007	11	0.1590023	0.0060116	-327.6853
	65	546	0.0316296	0.0380509	-0.0050969	1	0.0383907	-7.629373	-3.835088E-005	4.034075	11	0.158999	0.0061041	-327.6853
	66	643	0.0251206	0.0386214	-0.0057386	1	0.0390454	-8.451509	-3.936851E-005	4.034172	11	0.158999	0.0062082	-327.6853
	67	764	0.0199553	0.0392522	-0.0064899	1	0.0397851	-9.388205	-3.868882E-005	4.034265	11	0.1590015	0.0063259	-327.6853
	68	916	0.0158522	0.0399586	-0.0073678	1	0.0406322	-10.44715	-4.025609E-005	4.034389	11	0.1589985	0.0064604	-327.6853
	69	1169	0.0125907	0.0408052	-0.0083769	1	0.0416562	-11.60111	-3.94713E-005	4.03454	11	0.1590012	0.0066234	-327.6853
	70	1409	0.0100011	0.0418451	-0.0095582	1	0.0429229	-12.86664	-3.843634E-005	4.034695	11	0.1589996	0.0068247	-327.6853
