EXPLAIN
TAG	GALVEIS
TITLE	LABEL	Galvanostatic EIS	Test Identifier
DATE	LABEL	30.3.2024	Date
TIME	LABEL	13:51:00	Time
NOTES	NOTES	1	Notes...
	
PSTAT	PSTAT	REF600-12055	Potentiostat
FREQINIT	QUANT	1.00000E+005	Initial Freq. (Hz)
FREQFINAL	QUANT	1.00000E-002	Final Freq. (Hz)
PTSPERDEC	QUANT	1.00000E+001	Points/decade
IACREQ	QUANT	1.59000E-001	AC Current (A rms)
IDCREQ	QUANT	0.00000E+000	DC Current (A)
AREA	QUANT	1.00000E+000	Sample Area (cm^2)
SPEED	SELECTOR	1	Optimize for:
DRIFTCOR	SELECTOR	0	Drift Correction
THD	SELECTOR	0	THD
ZGUESS	QUANT	1.00000E-001	Estimated Z (ohms)
EOC	QUANT	3.529266	Open Circuit (V)
SEQUENCER	TOGGLE	TRUE	Run as Sequence
PSTATMODEL	IQUANT	4	Pstat Model
PSTATSECTION	LABEL	REF600-12055	Pstat Section
PSTATSERIALNO	LABEL	12055	Pstat Serial Number
CTRLMODE	IQUANT	0	Control Mode
ELECTROMETER	IQUANT	0	RE=0 or CS=1
IESTAB	IQUANT	0	I/E Stability
CASPEED	IQUANT	4	Control Amp Speed
CONVENTION	IQUANT	1	Current Convention
ICHRANGE	IQUANT	2	Ich Range
ICHRANGEMODE	TOGGLE	F	Ich Auto Range
ICHOFFSETENABLE	TOGGLE	T	Ich Offset Enable
ICHOFFSET	QUANT	0	Ich Offset (V)
ICHFILTER	IQUANT	3	Ich Filter
VCHRANGE	IQUANT	2	Vch Range
VCHRANGEMODE	TOGGLE	F	Vch Auto Range
VCHOFFSETENABLE	TOGGLE	T	Vch Offset Enable
VCHOFFSET	QUANT	0	Vch Offset (V)
VCHFILTER	IQUANT	3	Vch Filter
ACHRANGE	IQUANT	2	Ach Range
ACHOFFSETENABLE	TOGGLE	F	Ach Offset Enable
ACHOFFSET	QUANT	0	Ach Offset (V)
ACHFILTER	IQUANT	1	Ach Filter
IERANGELOWERLIMIT	IQUANT	1	I/E Range Lower Limit
IERANGEMODE	TOGGLE	F	I/E AutoRange
IERANGE	IQUANT	7	I/E Range
POSFEEDENABLE	TOGGLE	F	Positive Feedback IR Comp
POSFEEDRESISTANCE	QUANT	0	Positive Feedback Resistance (ohm)
ACHSELECT	IQUANT	4	Ach Select
SENSECABLEID	IQUANT	14	Sense Cable ID
PWRCABLEID	IQUANT	14	Power Cable ID
DCCALDATE	LABEL	2/12/2024	DC Calibration Date
ACCALDATE	LABEL	2/12/2024	AC Calibration Date
THERMOSELECT	IQUANT	1	Thermo Select
FRAMEWORKVERSION	LABEL	7.10.3	Framework Version
INSTRUMENTVERSION	LABEL	4.91	Instrument Version
COMMVERSION	LABEL	2.24	Communications Version
CPUPLDVERSION	LABEL	0.00	CPU PLD Version
CTRLPLDVERSION	LABEL	0.00	CTRL PLD Version
PSTATPLDVERSION	LABEL	0.00	PSTAT PLD Version
ZCURVE	TABLE
	Pt	Time	Freq	Zreal	Zimag	Zsig	Zmod	Zphz	Idc	Vdc	IERange	Imod	Vmod	Temp
	#	s	Hz	ohm	ohm	V	ohm	°	A	V	#	A	V	°C
	0	5	100078.1	0.1036079	0.2371114	1	0.2587594	66.39666	3.084512E-005	3.529213	11	0.1596473	0.0410095	-327.6853
	1	6	79453.13	0.0864397	0.1973961	1	0.2154925	66.35141	1.317868E-005	3.529217	11	0.1642914	0.0352399	-327.6853
	2	8	63140.62	0.0729733	0.1637712	1	0.1792933	65.98316	-8.267467E-006	3.529233	11	0.1619707	0.0289547	-327.6853
	3	10	50203.12	0.0625438	0.1354133	1	0.1491593	65.20902	-1.717394E-005	3.529227	11	0.1608976	0.0239543	-327.6853
	4	12	39890.62	0.054549	0.1115852	1	0.1242049	63.94807	-1.136062E-005	3.529228	11	0.1602757	0.0198832	-327.6853
	5	13	31640.63	0.0484153	0.0916718	1	0.1036714	62.1598	-1.147133E-005	3.529237	11	0.1598344	0.0165577	-327.6853
	6	15	25171.88	0.0437346	0.0754956	1	0.0872485	59.91626	-1.573516E-005	3.529232	11	0.1595425	0.0139132	-327.6853
	7	17	20015.62	0.0400101	0.0622167	1	0.0739711	57.25591	-1.868873E-005	3.52922	11	0.1593478	0.0117836	-327.6853
	8	18	15890.62	0.0369255	0.0512237	1	0.0631455	54.21336	-1.625053E-005	3.529236	11	0.1592252	0.0100524	-327.6853
	9	20	12609.38	0.0343384	0.0421025	1	0.05433	50.79962	-1.686075E-005	3.529237	11	0.1591456	0.0086453	-327.6853
	10	22	10078.13	0.0322603	0.0346841	1	0.0473678	47.07355	-1.732202E-005	3.529224	11	0.1590825	0.0075348	-327.6853
	11	23	8015.625	0.0305382	0.028267	1	0.0416126	42.78817	-1.576648E-005	3.529243	11	0.159052	0.0066182	-327.6853
	12	25	6328.125	0.0292116	0.0226841	1	0.0369849	37.83093	-1.515797E-005	3.529239	11	0.159032	0.0058816	-327.6853
	13	26	5015.625	0.0282943	0.0180946	1	0.0335854	32.59956	-1.801789E-005	3.529245	11	0.1590162	0.0053405	-327.6853
	14	28	3984.375	0.0276732	0.0143074	1	0.0311529	27.33957	-1.559616E-005	3.529248	11	0.1590103	0.0049536	-327.6853
	15	30	3170.956	0.0273205	0.011204	1	0.0295286	22.29827	-1.972809E-005	3.52925	11	0.1590029	0.0046951	-327.6853
	16	31	2527.573	0.0271288	0.008681	1	0.0284839	17.74418	-1.572759E-005	3.529248	11	0.159006	0.0045291	-327.6853
	17	33	1976.103	0.0271179	0.0064339	1	0.0278707	13.34694	-2.050115E-005	3.529242	11	0.1590024	0.0044315	-327.6853
	18	35	1577.524	0.0271672	0.004786	1	0.0275856	9.99121	-2.023543E-005	3.529253	11	0.1589944	0.0043859	-327.6853
	19	37	1265.625	0.0272951	0.0034641	1	0.027514	7.232811	-2.001697E-005	3.529247	11	0.1590022	0.0043748	-327.6853
	20	38	998.264	0.0274746	0.0023973	1	0.027579	4.986707	-1.9531E-005	3.529248	11	0.159007	0.0043852	-327.6853
	21	40	796.875	0.0276964	0.0014708	1	0.0277354	3.039758	-1.893824E-005	3.529254	11	0.1589939	0.0044098	-327.6853
	22	41	627.7902	0.0279396	0.0007942	1	0.0279508	1.628161	-1.78472E-005	3.52927	11	0.1589996	0.0044442	-327.6853
	23	43	505.5147	0.0281906	0.0002455	1	0.0281917	0.4989414	-1.667456E-005	3.529272	11	0.1576005	0.0044183	-327.6853
	24	44	397.9953	0.0284786	-0.0001964	1	0.0284793	-0.3951088	-2.987625E-005	3.529271	11	0.1606013	0.004555	-327.6853
	25	46	315.5048	0.0287637	-0.0005486	1	0.0287689	-1.092697	-1.898722E-005	3.529274	11	0.15934	0.0045711	-327.6853
	26	47	252.4038	0.0290353	-0.0008186	1	0.0290469	-1.614879	-1.864298E-005	3.529277	11	0.1589656	0.0046087	-327.6853
	27	49	198.6229	0.0293238	-0.0010489	1	0.0293426	-2.048475	-1.913111E-005	3.529279	11	0.1588829	0.0046564	-327.6853
	28	50	158.3615	0.0296109	-0.0012214	1	0.0296361	-2.362037	-1.960053E-005	3.52928	11	0.158887	0.0047051	-327.6853
	29	52	125.558	0.0299063	-0.0013528	1	0.0299369	-2.589892	-1.257972E-005	3.529281	11	0.1589086	0.0047549	-327.6853
	30	53	100.4464	0.0301904	-0.0014443	1	0.0302249	-2.738943	-1.692772E-005	3.529285	11	0.1589423	0.0048025	-327.6853
	31	55	79.00281	0.0305003	-0.0015126	1	0.0305378	-2.839162	-1.955568E-005	3.529282	11	0.1589582	0.0048533	-327.6853
	32	57	63.3446	0.0307803	-0.0015449	1	0.0308191	-2.873276	-2.524757E-005	3.529285	11	0.1589794	0.004899	-327.6853
	33	58	50.22321	0.0310813	-0.0015538	1	0.0311201	-2.861885	-1.544436E-005	3.529289	11	0.1589811	0.0049471	-327.6853
	34	60	38.42213	0.0314044	-0.0015185	1	0.0314411	-2.768322	-2.128852E-005	3.529299	11	0.1589878	0.0049985	-327.6853
	35	61	31.25	0.0316472	-0.0014776	1	0.0316817	-2.673146	-5.775946E-006	3.529297	11	0.1589921	0.005037	-327.6853
	36	63	24.93351	0.0318945	-0.0014081	1	0.0319256	-2.52793	-1.638487E-005	3.529301	11	0.1589963	0.0050759	-327.6853
	37	64	19.86229	0.0321089	-0.0013359	1	0.0321367	-2.382486	-6.000046E-006	3.529293	11	0.1589888	0.0051093	-327.6853
	38	66	15.625	0.0323264	-0.0012274	1	0.0323497	-2.174366	-2.183317E-005	3.529309	11	0.1589961	0.0051434	-327.6853
	39	67	12.40079	0.0325003	-0.0011417	1	0.0325203	-2.01198	-3.359118E-005	3.529303	11	0.1589974	0.0051706	-327.6853
	40	69	9.93114	0.0326429	-0.0010339	1	0.0326593	-1.814183	-2.708884E-005	3.529304	11	0.1590081	0.0051931	-327.6853
	41	70	7.944915	0.0327651	-0.000963	1	0.0327793	-1.683504	-2.722881E-005	3.529298	11	0.1589771	0.0052111	-327.6853
	42	72	6.317385	0.0328729	-0.0008868	1	0.0328848	-1.545294	-4.944141E-005	3.529317	11	0.1589819	0.0052281	-327.6853
	43	74	5.008013	0.0329762	-0.0008419	1	0.0329869	-1.462391	-7.095514E-005	3.52933	11	0.1590104	0.0052453	-327.6853
	44	77	3.945707	0.0330669	-0.0007941	1	0.0330764	-1.375714	6.615766E-006	3.529326	11	0.1590181	0.0052597	-327.6853
	45	79	3.158693	0.0331401	-0.0007713	1	0.033149	-1.333262	-2.157091E-005	3.529333	11	0.1590357	0.0052719	-327.6853
	46	82	2.504006	0.0332199	-0.0007605	1	0.0332286	-1.311447	-6.990111E-005	3.529342	11	0.155362	0.005141	-327.6853
	47	86	1.998082	0.0333009	-0.0007781	1	0.03331	-1.338547	0.000209	3.529375	11	0.1614886	0.005363	-327.6853
	48	90	1.584686	0.0333869	-0.0008098	1	0.0333967	-1.389442	0.0003047	3.529381	11	0.1599956	0.0053325	-327.6853
	49	94	1.266892	0.0334775	-0.0008484	1	0.0334882	-1.451678	-0.0002971	3.529356	11	0.1592628	0.0053262	-327.6853
	50	99	0.999041	0.0335818	-0.000904	1	0.033594	-1.542021	-0.000256	3.529335	11	0.1590474	0.0053384	-327.6853
	51	104	0.7923428	0.0337063	-0.0009623	1	0.0337201	-1.635281	-3.847707E-005	3.529396	11	0.1591496	0.0053636	-327.6853
	52	112	0.6334459	0.0338172	-0.0010279	1	0.0338328	-1.741059	-3.985944E-005	3.529401	11	0.1589836	0.005377	-327.6853
	53	121	0.5040323	0.0339481	-0.0011068	1	0.0339662	-1.86735	-3.670788E-005	3.529411	11	0.1589825	0.0053988	-327.6853
	54	132	0.400641	0.0340842	-0.0011951	1	0.0341052	-2.008159	-3.849107E-005	3.529427	11	0.1589864	0.0054215	-327.6853
	55	144	0.316723	0.0342354	-0.0013012	1	0.0342602	-2.176638	-4.13831E-005	3.529437	11	0.1589908	0.0054466	-327.6853
	56	161	0.2520161	0.0343854	-0.0014245	1	0.0344149	-2.372191	-5.025268E-005	3.529463	11	0.1589932	0.0054714	-327.6853
	57	183	0.2003205	0.0345641	-0.0015546	1	0.0345991	-2.575216	-3.881741E-005	3.529495	11	0.1589954	0.0055009	-327.6853
	58	204	0.1588983	0.0347311	-0.0017206	1	0.0347737	-2.836186	-4.118468E-005	3.529525	11	0.1589966	0.0055288	-327.6853
	59	236	0.1260081	0.034941	-0.001905	1	0.0349929	-3.120672	-4.535823E-005	3.529666	11	0.1589992	0.0055638	-327.6853
	60	266	0.1001603	0.0351897	-0.0021245	1	0.0352538	-3.454946	-3.9028E-005	3.52989	11	0.1589991	0.0056053	-327.6853
	61	302	0.0794492	0.0354281	-0.0023752	1	0.0355076	-3.835481	-3.917606E-005	3.530092	11	0.1589991	0.0056457	-327.6853
	62	354	0.0631739	0.0356064	-0.0027011	1	0.0357087	-4.33813	-4.052175E-005	3.530032	11	0.1589984	0.0056776	-327.6853
	63	419	0.0501337	0.0358566	-0.0030671	1	0.0359876	-4.888983	-3.98522E-005	3.530059	11	0.1590005	0.005722	-327.6853
	64	500	0.0398258	0.0361336	-0.0035062	1	0.0363033	-5.542297	-3.918873E-005	3.530138	11	0.1590006	0.0057722	-327.6853
	65	602	0.0316296	0.0364626	-0.0040326	1	0.0366849	-6.311024	-4.042994E-005	3.530233	11	0.1589998	0.0058329	-327.6853
	66	730	0.0251206	0.0368388	-0.0046752	1	0.0371343	-7.23267	-4.597091E-005	3.530358	11	0.1590002	0.0059044	-327.6853
	67	891	0.0199553	0.0372677	-0.0054241	1	0.0376603	-8.280962	-3.933799E-005	3.530508	11	0.1590005	0.005988	-327.6853
	68	1093	0.0158522	0.0377891	-0.006357	1	0.0383201	-9.54906	-4.004962E-005	3.530687	11	0.1589986	0.0060928	-327.6853
	69	1347	0.0125907	0.0384441	-0.0074224	1	0.039154	-10.9276	-4.065067E-005	3.530894	11	0.1590007	0.0062255	-327.6853
	70	1587	0.0100011	0.0392428	-0.0086791	1	0.0401911	-12.47105	-4.058972E-005	3.531113	11	0.1589998	0.0063904	-327.6853
