EXPLAIN
TAG	GALVEIS
TITLE	LABEL	Galvanostatic EIS	Test Identifier
DATE	LABEL	30.3.2024	Date
TIME	LABEL	9:42:35	Time
NOTES	NOTES	1	Notes...
	
PSTAT	PSTAT	REF600-12055	Potentiostat
FREQINIT	QUANT	1.00000E+005	Initial Freq. (Hz)
FREQFINAL	QUANT	1.00000E-002	Final Freq. (Hz)
PTSPERDEC	QUANT	1.00000E+001	Points/decade
IACREQ	QUANT	1.59000E-001	AC Current (A rms)
IDCREQ	QUANT	0.00000E+000	DC Current (A)
AREA	QUANT	1.00000E+000	Sample Area (cm^2)
SPEED	SELECTOR	1	Optimize for:
DRIFTCOR	SELECTOR	0	Drift Correction
THD	SELECTOR	0	THD
ZGUESS	QUANT	1.00000E-001	Estimated Z (ohms)
EOC	QUANT	3.749099	Open Circuit (V)
SEQUENCER	TOGGLE	TRUE	Run as Sequence
PSTATMODEL	IQUANT	4	Pstat Model
PSTATSECTION	LABEL	REF600-12055	Pstat Section
PSTATSERIALNO	LABEL	12055	Pstat Serial Number
CTRLMODE	IQUANT	0	Control Mode
ELECTROMETER	IQUANT	0	RE=0 or CS=1
IESTAB	IQUANT	0	I/E Stability
CASPEED	IQUANT	4	Control Amp Speed
CONVENTION	IQUANT	1	Current Convention
ICHRANGE	IQUANT	2	Ich Range
ICHRANGEMODE	TOGGLE	F	Ich Auto Range
ICHOFFSETENABLE	TOGGLE	T	Ich Offset Enable
ICHOFFSET	QUANT	0	Ich Offset (V)
ICHFILTER	IQUANT	3	Ich Filter
VCHRANGE	IQUANT	2	Vch Range
VCHRANGEMODE	TOGGLE	F	Vch Auto Range
VCHOFFSETENABLE	TOGGLE	T	Vch Offset Enable
VCHOFFSET	QUANT	0	Vch Offset (V)
VCHFILTER	IQUANT	3	Vch Filter
ACHRANGE	IQUANT	2	Ach Range
ACHOFFSETENABLE	TOGGLE	F	Ach Offset Enable
ACHOFFSET	QUANT	0	Ach Offset (V)
ACHFILTER	IQUANT	1	Ach Filter
IERANGELOWERLIMIT	IQUANT	1	I/E Range Lower Limit
IERANGEMODE	TOGGLE	F	I/E AutoRange
IERANGE	IQUANT	7	I/E Range
POSFEEDENABLE	TOGGLE	F	Positive Feedback IR Comp
POSFEEDRESISTANCE	QUANT	0	Positive Feedback Resistance (ohm)
ACHSELECT	IQUANT	4	Ach Select
SENSECABLEID	IQUANT	14	Sense Cable ID
PWRCABLEID	IQUANT	14	Power Cable ID
DCCALDATE	LABEL	2/12/2024	DC Calibration Date
ACCALDATE	LABEL	2/12/2024	AC Calibration Date
THERMOSELECT	IQUANT	1	Thermo Select
FRAMEWORKVERSION	LABEL	7.10.3	Framework Version
INSTRUMENTVERSION	LABEL	4.91	Instrument Version
COMMVERSION	LABEL	2.24	Communications Version
CPUPLDVERSION	LABEL	0.00	CPU PLD Version
CTRLPLDVERSION	LABEL	0.00	CTRL PLD Version
PSTATPLDVERSION	LABEL	0.00	PSTAT PLD Version
ZCURVE	TABLE
	Pt	Time	Freq	Zreal	Zimag	Zsig	Zmod	Zphz	Idc	Vdc	IERange	Imod	Vmod	Temp
	#	s	Hz	ohm	ohm	V	ohm	°	A	V	#	A	V	°C
	0	5	100078.1	0.1038466	0.2366969	1	0.2584755	66.31139	2.222646E-005	3.749124	11	0.1596318	0.0409605	-327.6853
	1	7	79453.13	0.0866013	0.1971019	1	0.215288	66.28059	1.297577E-005	3.749117	11	0.1643084	0.0352101	-327.6853
	2	9	63140.62	0.0730773	0.1635783	1	0.1791596	65.92768	5.08612E-006	3.749135	11	0.1619574	0.0289307	-327.6853
	3	10	50203.12	0.062609	0.1352747	1	0.1490609	65.16395	-1.257192E-005	3.749147	11	0.1609053	0.0239396	-327.6853
	4	12	39890.62	0.0545713	0.1114905	1	0.1241295	63.91962	-1.205644E-005	3.749154	11	0.1602741	0.019871	-327.6853
	5	14	31640.63	0.0484144	0.0915941	1	0.1036023	62.14015	-8.227049E-006	3.749165	11	0.1598328	0.0165465	-327.6853
	6	16	25171.88	0.043726	0.0754523	1	0.0872067	59.9069	-1.490081E-005	3.749145	11	0.1595401	0.0139063	-327.6853
	7	17	20015.62	0.0399928	0.0621773	1	0.0739286	57.25067	-1.493946E-005	3.749149	11	0.1593528	0.0117772	-327.6853
	8	19	15890.62	0.0368989	0.0511945	1	0.0631063	54.21747	-1.600076E-005	3.749153	11	0.1592282	0.0100464	-327.6853
	9	20	12609.38	0.0343059	0.0420847	1	0.0542957	50.81433	-1.52518E-005	3.749168	11	0.1591378	0.0086395	-327.6853
	10	22	10078.13	0.0322234	0.0346748	1	0.0473359	47.09858	-1.458771E-005	3.74916	11	0.1590859	0.0075299	-327.6853
	11	24	8015.625	0.0304988	0.0282614	1	0.0415799	42.81942	-1.534517E-005	3.749163	11	0.1590547	0.0066131	-327.6853
	12	25	6328.125	0.0291685	0.0226758	1	0.0369459	37.86176	-2.717366E-005	3.749177	11	0.1590302	0.0058753	-327.6853
	13	27	5015.625	0.0282425	0.0180908	1	0.0335397	32.64162	-1.902535E-005	3.749168	11	0.1590126	0.0053331	-327.6853
	14	28	3984.375	0.0276305	0.0143108	1	0.0311165	27.38118	-1.696998E-005	3.749179	11	0.1590051	0.0049476	-327.6853
	15	30	3170.956	0.0272729	0.0112011	1	0.0294835	22.32814	-1.872075E-005	3.749182	11	0.1590121	0.0046882	-327.6853
	16	31	2527.573	0.0270959	0.0086782	1	0.0284517	17.75914	-1.47199E-005	3.749195	11	0.1590037	0.0045239	-327.6853
	17	33	1976.103	0.0270555	0.0064449	1	0.0278125	13.3987	-1.607172E-005	3.749202	11	0.1589977	0.0044221	-327.6853
	18	35	1577.524	0.0271191	0.0048032	1	0.0275412	10.0438	-1.536019E-005	3.749203	11	0.1590031	0.0043791	-327.6853
	19	36	1265.625	0.0272489	0.0035258	1	0.0274761	7.372679	-1.889095E-005	3.749208	11	0.158999	0.0043687	-327.6853
	20	38	998.264	0.0274289	0.0024041	1	0.027534	5.009047	-1.67877E-005	3.749206	11	0.1589971	0.0043778	-327.6853
	21	40	796.875	0.0276413	0.0015722	1	0.027686	3.255331	-1.954834E-005	3.749216	11	0.1590075	0.0044023	-327.6853
	22	41	627.7902	0.0278721	0.0008557	1	0.0278852	1.758538	-2.142423E-005	3.749208	11	0.1589992	0.0044337	-327.6853
	23	43	505.5147	0.0280982	0.0003371	1	0.0281002	0.6872634	-1.812656E-005	3.749222	11	0.1575985	0.0044039	-327.6853
	24	44	397.9953	0.0283759	-9.488103E-005	1	0.028376	-0.1915805	-2.430181E-005	3.749225	11	0.1605995	0.0045385	-327.6853
	25	45	315.5048	0.0286379	-0.0004393	1	0.0286412	-0.8789041	-1.675592E-005	3.749228	11	0.1593376	0.0045508	-327.6853
	26	47	252.4038	0.0288957	-0.0006939	1	0.028904	-1.375558	-1.958013E-005	3.749239	11	0.158968	0.0045861	-327.6853
	27	49	198.6229	0.0291766	-0.0009146	1	0.0291909	-1.795494	-3.598339E-005	3.749243	11	0.1588793	0.0046322	-327.6853
	28	50	158.3615	0.0294393	-0.0010779	1	0.0294591	-2.096936	-2.955622E-005	3.749248	11	0.1588913	0.0046771	-327.6853
	29	52	125.558	0.0297141	-0.0011958	1	0.0297381	-2.304485	-2.522263E-005	3.749256	11	0.1589156	0.0047235	-327.6853
	30	53	100.4464	0.0299801	-0.0012692	1	0.0300069	-2.424128	-2.556306E-005	3.749258	11	0.1589402	0.0047678	-327.6853
	31	55	79.00281	0.0302648	-0.0013162	1	0.0302934	-2.490137	-2.733641E-005	3.749264	11	0.1589549	0.0048143	-327.6853
	32	56	63.3446	0.0305196	-0.0013265	1	0.0305485	-2.48875	-1.804938E-005	3.74927	11	0.158974	0.0048558	-327.6853
	33	58	50.22321	0.0307745	-0.0013094	1	0.0308023	-2.436424	-1.878379E-005	3.749274	11	0.1589835	0.0048967	-327.6853
	34	60	38.42213	0.031048	-0.0012585	1	0.0310735	-2.321148	-1.730412E-005	3.749277	11	0.1589818	0.0049399	-327.6853
	35	61	31.25	0.0312476	-0.0012025	1	0.0312708	-2.203888	-1.948619E-005	3.749284	11	0.1590031	0.004972	-327.6853
	36	63	24.93351	0.0314383	-0.0011258	1	0.0314585	-2.050802	-2.550706E-005	3.749288	11	0.1589946	0.0050016	-327.6853
	37	65	19.86229	0.0315974	-0.0010457	1	0.0316147	-1.895421	-1.975508E-005	3.7493	11	0.1589969	0.0050266	-327.6853
	38	66	15.625	0.0317497	-0.0009529	1	0.031764	-1.71907	-5.089096E-006	3.749292	11	0.1589754	0.0050497	-327.6853
	39	68	12.40079	0.0318704	-0.0008836	1	0.0318826	-1.588099	-5.733455E-007	3.749302	11	0.1590014	0.0050694	-327.6853
	40	69	9.93114	0.0319728	-0.0008168	1	0.0319833	-1.463358	-6.317801E-006	3.749306	11	0.1590106	0.0050857	-327.6853
	41	71	7.944915	0.0320535	-0.0007616	1	0.0320626	-1.361064	-4.357245E-005	3.749321	11	0.1589844	0.0050974	-327.6853
	42	73	6.317385	0.0321388	-0.0007221	1	0.0321469	-1.287099	4.906289E-005	3.749334	11	0.1590185	0.0051119	-327.6853
	43	75	5.008013	0.0322063	-0.0007009	1	0.0322139	-1.246782	-6.741786E-005	3.749348	11	0.1589914	0.0051217	-327.6853
	44	77	3.945707	0.0322802	-0.0006909	1	0.0322876	-1.226173	-2.761828E-005	3.74935	11	0.1590092	0.005134	-327.6853
	45	79	3.158693	0.0323466	-0.000701	1	0.0323542	-1.24157	-0.0000986	3.749367	11	0.1589803	0.0051437	-327.6853
	46	82	2.504006	0.0324339	-0.0007232	1	0.032442	-1.277364	-6.122212E-005	3.749389	11	0.1554174	0.0050211	-327.6853
	47	86	1.998082	0.0325142	-0.0007548	1	0.032523	-1.329786	2.529593E-005	3.749407	11	0.1613363	0.0052313	-327.6853
	48	91	1.584686	0.0326004	-0.0008117	1	0.0326105	-1.426275	0.0002069	3.749424	11	0.1600116	0.0052074	-327.6853
	49	95	1.266892	0.0327019	-0.0008701	1	0.0327135	-1.52405	-0.0001558	3.749378	11	0.1592327	0.005202	-327.6853
	50	101	0.999041	0.0328164	-0.0009469	1	0.03283	-1.652767	-9.43545E-005	3.74938	11	0.1590596	0.0052174	-327.6853
	51	106	0.7923428	0.0329378	-0.001015	1	0.0329534	-1.764979	-3.857669E-005	3.749467	11	0.1592868	0.0052462	-327.6853
	52	114	0.6334459	0.0330596	-0.0011087	1	0.0330782	-1.920857	-4.205012E-005	3.749479	11	0.1589821	0.005257	-327.6853
	53	121	0.5040323	0.0331981	-0.0012092	1	0.0332201	-2.085938	-3.874055E-005	3.749496	11	0.1589835	0.0052803	-327.6853
	54	133	0.400641	0.0333596	-0.0013226	1	0.0333858	-2.270486	-3.855626E-005	3.749527	11	0.158986	0.0053071	-327.6853
	55	144	0.316723	0.0335245	-0.0014523	1	0.033556	-2.480535	-3.935691E-005	3.749563	11	0.15899	0.0053346	-327.6853
	56	162	0.2520161	0.0337105	-0.001598	1	0.0337483	-2.714075	-3.800521E-005	3.749608	11	0.1589936	0.0053655	-327.6853
	57	179	0.2003205	0.0338948	-0.0017571	1	0.0339403	-2.9676	-3.758751E-005	3.749656	11	0.1589962	0.0053962	-327.6853
	58	201	0.1588983	0.0341121	-0.0019416	1	0.0341673	-3.257611	-3.970238E-005	3.749719	11	0.1589969	0.0054324	-327.6853
	59	226	0.1260081	0.0343735	-0.0021564	1	0.034441	-3.58964	-4.213926E-005	3.749868	11	0.1589989	0.005476	-327.6853
	60	256	0.1001603	0.0346477	-0.0024003	1	0.0347307	-3.96289	-3.92165E-005	3.75009	11	0.1589974	0.005522	-327.6853
	61	302	0.0794492	0.0349725	-0.0026778	1	0.0350749	-4.37855	-3.824818E-005	3.750356	11	0.1589993	0.0055768	-327.6853
	62	342	0.0631739	0.0352129	-0.0030197	1	0.0353422	-4.901382	-3.999241E-005	3.750326	11	0.159001	0.0056194	-327.6853
	63	406	0.0501337	0.0355314	-0.0034055	1	0.0356942	-5.474761	-3.854383E-005	3.750419	11	0.1589998	0.0056754	-327.6853
	64	468	0.0398258	0.0358882	-0.0038697	1	0.0360962	-6.154245	-3.826415E-005	3.750536	11	0.1589984	0.0057392	-327.6853
	65	545	0.0316296	0.0362949	-0.004413	1	0.0365622	-6.93234	-4.031954E-005	3.750674	11	0.1590003	0.0058134	-327.6853
	66	641	0.0251206	0.0367814	-0.005075	1	0.0371299	-7.855904	-4.013172E-005	3.750841	11	0.1590006	0.0059037	-327.6853
	67	802	0.0199553	0.0373179	-0.0058883	1	0.0377796	-8.966656	-4.019175E-005	3.751065	11	0.1589991	0.0060069	-327.6853
	68	1004	0.0158522	0.0379745	-0.0068351	1	0.0385847	-10.20347	-3.880374E-005	3.751281	11	0.1589999	0.006135	-327.6853
	69	1195	0.0125907	0.0387375	-0.0079826	1	0.0395514	-11.64388	-3.959158E-005	3.751512	11	0.1590001	0.0062887	-327.6853
	70	1514	0.0100011	0.0397224	-0.0092908	1	0.0407944	-13.16441	-4.033218E-005	3.751775	11	0.1589995	0.0064863	-327.6853
