EXPLAIN
TAG	GALVEIS
TITLE	LABEL	Galvanostatic EIS	Test Identifier
DATE	LABEL	30.3.2024	Date
TIME	LABEL	16:24:02	Time
NOTES	NOTES	1	Notes...
	
PSTAT	PSTAT	REF600-12055	Potentiostat
FREQINIT	QUANT	1.00000E+005	Initial Freq. (Hz)
FREQFINAL	QUANT	1.00000E-002	Final Freq. (Hz)
PTSPERDEC	QUANT	1.00000E+001	Points/decade
IACREQ	QUANT	1.59000E-001	AC Current (A rms)
IDCREQ	QUANT	0.00000E+000	DC Current (A)
AREA	QUANT	1.00000E+000	Sample Area (cm^2)
SPEED	SELECTOR	1	Optimize for:
DRIFTCOR	SELECTOR	0	Drift Correction
THD	SELECTOR	0	THD
ZGUESS	QUANT	1.00000E-001	Estimated Z (ohms)
EOC	QUANT	3.230368	Open Circuit (V)
SEQUENCER	TOGGLE	TRUE	Run as Sequence
PSTATMODEL	IQUANT	4	Pstat Model
PSTATSECTION	LABEL	REF600-12055	Pstat Section
PSTATSERIALNO	LABEL	12055	Pstat Serial Number
CTRLMODE	IQUANT	0	Control Mode
ELECTROMETER	IQUANT	0	RE=0 or CS=1
IESTAB	IQUANT	0	I/E Stability
CASPEED	IQUANT	4	Control Amp Speed
CONVENTION	IQUANT	1	Current Convention
ICHRANGE	IQUANT	2	Ich Range
ICHRANGEMODE	TOGGLE	F	Ich Auto Range
ICHOFFSETENABLE	TOGGLE	T	Ich Offset Enable
ICHOFFSET	QUANT	0	Ich Offset (V)
ICHFILTER	IQUANT	3	Ich Filter
VCHRANGE	IQUANT	2	Vch Range
VCHRANGEMODE	TOGGLE	F	Vch Auto Range
VCHOFFSETENABLE	TOGGLE	T	Vch Offset Enable
VCHOFFSET	QUANT	0	Vch Offset (V)
VCHFILTER	IQUANT	3	Vch Filter
ACHRANGE	IQUANT	2	Ach Range
ACHOFFSETENABLE	TOGGLE	F	Ach Offset Enable
ACHOFFSET	QUANT	0	Ach Offset (V)
ACHFILTER	IQUANT	1	Ach Filter
IERANGELOWERLIMIT	IQUANT	1	I/E Range Lower Limit
IERANGEMODE	TOGGLE	F	I/E AutoRange
IERANGE	IQUANT	7	I/E Range
POSFEEDENABLE	TOGGLE	F	Positive Feedback IR Comp
POSFEEDRESISTANCE	QUANT	0	Positive Feedback Resistance (ohm)
ACHSELECT	IQUANT	4	Ach Select
SENSECABLEID	IQUANT	14	Sense Cable ID
PWRCABLEID	IQUANT	14	Power Cable ID
DCCALDATE	LABEL	2/12/2024	DC Calibration Date
ACCALDATE	LABEL	2/12/2024	AC Calibration Date
THERMOSELECT	IQUANT	1	Thermo Select
FRAMEWORKVERSION	LABEL	7.10.3	Framework Version
INSTRUMENTVERSION	LABEL	4.91	Instrument Version
COMMVERSION	LABEL	2.24	Communications Version
CPUPLDVERSION	LABEL	0.00	CPU PLD Version
CTRLPLDVERSION	LABEL	0.00	CTRL PLD Version
PSTATPLDVERSION	LABEL	0.00	PSTAT PLD Version
ZCURVE	TABLE
	Pt	Time	Freq	Zreal	Zimag	Zsig	Zmod	Zphz	Idc	Vdc	IERange	Imod	Vmod	Temp
	#	s	Hz	ohm	ohm	V	ohm	°	A	V	#	A	V	°C
	0	5	100078.1	0.1034917	0.2385019	1	0.2599878	66.54282	2.807879E-005	3.230476	11	0.159691	0.0412155	-327.6853
	1	6	79453.13	0.0864731	0.1984254	1	0.2164492	66.45259	8.366304E-006	3.230511	11	0.1642019	0.0353771	-327.6853
	2	8	63140.62	0.0731085	0.1645505	1	0.1800603	66.04479	4.515052E-006	3.230528	11	0.1619591	0.0290765	-327.6853
	3	10	50203.12	0.0627528	0.1360184	1	0.1497963	65.23353	-5.641428E-006	3.230532	11	0.1609157	0.0240593	-327.6853
	4	12	39890.62	0.0548196	0.1120482	1	0.1247397	63.92978	-1.00793E-005	3.23057	11	0.1602532	0.019966	-327.6853
	5	13	31640.63	0.0487169	0.0920312	1	0.1041301	62.10543	-1.100893E-005	3.230596	11	0.1598303	0.0166306	-327.6853
	6	15	25171.88	0.0440677	0.0757833	1	0.0876645	59.82218	-1.539325E-005	3.2306	11	0.1595417	0.0139794	-327.6853
	7	17	20015.62	0.0403485	0.0624291	1	0.0743331	57.12504	-1.517369E-005	3.230621	11	0.1593459	0.0118411	-327.6853
	8	18	15890.62	0.0372829	0.0513963	1	0.0634948	54.04283	-1.30327E-005	3.230654	11	0.1592285	0.0101083	-327.6853
	9	20	12609.38	0.0347078	0.0422347	1	0.0546663	50.58713	-1.532317E-005	3.230677	11	0.1591364	0.0086983	-327.6853
	10	22	10078.13	0.0326148	0.0347812	1	0.0476808	46.84108	-1.670409E-005	3.230698	11	0.1590826	0.0075846	-327.6853
	11	23	8015.625	0.0309077	0.0283557	1	0.0419444	42.53426	-1.868897E-005	3.230704	11	0.1590525	0.006671	-327.6853
	12	25	6328.125	0.0295819	0.0227419	1	0.0373133	37.5523	-1.44853E-005	3.230732	11	0.1590329	0.0059339	-327.6853
	13	26	5015.625	0.0286614	0.0181365	1	0.0339177	32.32497	-1.88216E-005	3.230743	11	0.159014	0.0053933	-327.6853
	14	28	3984.375	0.0280385	0.0143269	1	0.0314868	27.06584	-1.881382E-005	3.230769	11	0.1590093	0.0050066	-327.6853
	15	30	3170.956	0.0276843	0.0112397	1	0.0298789	22.09694	-2.881454E-005	3.230794	11	0.1590087	0.004751	-327.6853
	16	31	2527.573	0.0275068	0.0086904	1	0.028847	17.53329	-3.183098E-005	3.23081	11	0.1590004	0.0045867	-327.6853
	17	33	1976.103	0.0274772	0.0063985	1	0.0282124	13.10862	-1.614151E-005	3.230831	11	0.1589981	0.0044857	-327.6853
	18	34	1577.524	0.0275396	0.0048218	1	0.0279585	9.93097	-2.106372E-005	3.230849	11	0.159003	0.0044455	-327.6853
	19	36	1265.625	0.0276746	0.0034381	1	0.0278873	7.081648	-1.964392E-005	3.230857	11	0.1589988	0.0044341	-327.6853
	20	37	998.264	0.0278746	0.0022712	1	0.027967	4.658125	-2.088537E-005	3.230868	11	0.1589991	0.0044467	-327.6853
	21	39	796.875	0.0280956	0.0014174	1	0.0281313	2.888056	-2.07352E-005	3.230901	11	0.1590006	0.0044729	-327.6853
	22	40	627.7902	0.0283487	0.0006643	1	0.0283565	1.342341	-2.206618E-005	3.23091	11	0.1589999	0.0045087	-327.6853
	23	42	505.5147	0.0285973	0.0001111	1	0.0285975	0.2226156	-1.85183E-005	3.230938	11	0.157599	0.0044819	-327.6853
	24	43	397.9953	0.0289027	-0.0003669	1	0.0289051	-0.7273125	-1.914566E-005	3.230961	11	0.1606062	0.0046233	-327.6853
	25	45	315.5048	0.0291995	-0.0007536	1	0.0292092	-1.478389	-1.947116E-005	3.23098	11	0.1593387	0.0046411	-327.6853
	26	46	252.4038	0.0294878	-0.0010603	1	0.0295069	-2.059239	-2.16678E-005	3.230995	11	0.1589638	0.0046817	-327.6853
	27	48	198.6229	0.0298055	-0.0013355	1	0.0298354	-2.565503	-1.901237E-005	3.23101	11	0.1588813	0.0047346	-327.6853
	28	49	158.3615	0.0301174	-0.0015553	1	0.0301576	-2.956158	-1.89766E-005	3.231032	11	0.1588847	0.0047878	-327.6853
	29	51	125.558	0.0304429	-0.0017475	1	0.030493	-3.285292	-1.584052E-005	3.231044	11	0.1589191	0.0048435	-327.6853
	30	52	100.4464	0.0307585	-0.0019088	1	0.0308177	-3.551148	-1.583254E-005	3.231069	11	0.1589402	0.0048966	-327.6853
	31	54	79.00281	0.0311098	-0.0020667	1	0.0311784	-3.800747	-2.495025E-005	3.231081	11	0.1589583	0.0049551	-327.6853
	32	55	63.3446	0.0314387	-0.0021925	1	0.031515	-3.989259	-1.961156E-005	3.231105	11	0.1589706	0.0050093	-327.6853
	33	57	50.22321	0.0317955	-0.0023188	1	0.0318799	-4.171164	-2.424372E-005	3.231127	11	0.158986	0.0050681	-327.6853
	34	59	38.42213	0.0322032	-0.002465	1	0.0322974	-4.377141	-2.359942E-005	3.231136	11	0.1589865	0.0051346	-327.6853
	35	61	31.25	0.0325312	-0.0025715	1	0.0326327	-4.519698	-4.054699E-005	3.231166	11	0.1589939	0.0051882	-327.6853
	36	62	24.93351	0.0328954	-0.0027073	1	0.0330066	-4.704885	-3.018021E-005	3.23117	11	0.1589954	0.0052478	-327.6853
	37	64	19.86229	0.0332486	-0.0028635	1	0.0333717	-4.922377	-3.629734E-005	3.231227	11	0.158997	0.0053059	-327.6853
	38	65	15.625	0.0337135	-0.0030391	1	0.0338502	-5.150995	-8.683186E-006	3.231183	11	0.1589839	0.0053816	-327.6853
	39	67	12.40079	0.0341595	-0.0031951	1	0.0343086	-5.34367	-2.195771E-005	3.231198	11	0.1590106	0.0054554	-327.6853
	40	68	9.93114	0.0346124	-0.0033919	1	0.0347782	-5.596853	-4.44717E-005	3.231215	11	0.1589849	0.0055292	-327.6853
	41	70	7.944915	0.0351006	-0.0035932	1	0.035284	-5.844942	-3.347214E-005	3.23128	11	0.1589918	0.0056099	-327.6853
	42	72	6.317385	0.035693	-0.0037827	1	0.0358929	-6.049623	5.98093E-005	3.231319	11	0.159028	0.005708	-327.6853
	43	74	5.008013	0.0363323	-0.0039424	1	0.0365455	-6.192966	-4.831469E-005	3.231323	11	0.1589907	0.0058104	-327.6853
	44	76	3.945707	0.0370452	-0.0040747	1	0.0372686	-6.276819	-6.808166E-005	3.23136	11	0.158984	0.0059251	-327.6853
	45	78	3.158693	0.0377245	-0.0041327	1	0.0379502	-6.25173	-6.495108E-005	3.231396	11	0.1590306	0.0060352	-327.6853
	46	82	2.504006	0.0384317	-0.0041366	1	0.0386537	-6.143383	2.991233E-005	3.231409	11	0.1553857	0.0059813	-327.6853
	47	85	1.998082	0.0391107	-0.0040916	1	0.0393242	-5.972267	-0.0002791	3.231381	11	0.1615191	0.0063325	-327.6853
	48	89	1.584686	0.0397613	-0.0039889	1	0.0399609	-5.72877	-0.0003262	3.231443	11	0.1599178	0.0063775	-327.6853
	49	95	1.266892	0.04035	-0.003849	1	0.0405332	-5.448983	0.0002542	3.231532	11	0.1593032	0.0064483	-327.6853
	50	101	0.999041	0.0409172	-0.0037273	1	0.0410866	-5.204891	0.0002494	3.231644	11	0.1590768	0.0065303	-327.6853
	51	105	0.7923428	0.0414361	-0.0036186	1	0.0415938	-4.990947	-3.799429E-005	3.231783	11	0.1591059	0.0066142	-327.6853
	52	112	0.6334459	0.0418622	-0.0035432	1	0.0420119	-4.837908	-3.832093E-005	3.231862	11	0.1589834	0.0066768	-327.6853
	53	121	0.5040323	0.0422698	-0.0034989	1	0.0424144	-4.731903	-4.431864E-005	3.231973	11	0.158983	0.0067417	-327.6853
	54	133	0.400641	0.0426627	-0.0035123	1	0.042807	-4.706411	-4.030597E-005	3.232127	11	0.1589849	0.0068047	-327.6853
	55	147	0.316723	0.0430581	-0.0035606	1	0.0432051	-4.727138	-4.093166E-005	3.232296	11	0.1589903	0.0068686	-327.6853
	56	161	0.2520161	0.0434246	-0.0036842	1	0.0435806	-4.849376	-4.410374E-005	3.232493	11	0.1589954	0.0069287	-327.6853
	57	179	0.2003205	0.0437937	-0.0038767	1	0.043965	-5.058679	-3.940624E-005	3.232722	11	0.1589943	0.0069899	-327.6853
	58	200	0.1588983	0.0441747	-0.0041408	1	0.0443684	-5.355099	-4.589064E-005	3.233027	11	0.158997	0.0070543	-327.6853
	59	231	0.1260081	0.0446001	-0.0044789	1	0.0448245	-5.734552	-4.193193E-005	3.233624	11	0.1589953	0.0071268	-327.6853
	60	262	0.1001603	0.0450665	-0.0048938	1	0.0453314	-6.197448	-3.897586E-005	3.234502	11	0.1590015	0.0072077	-327.6853
	61	298	0.0794492	0.0455123	-0.005419	1	0.0458338	-6.790085	-3.976822E-005	3.235565	11	0.159001	0.0072876	-327.6853
	62	350	0.0631739	0.045866	-0.0060811	1	0.0462674	-7.552464	-4.157072E-005	3.235978	11	0.1589974	0.0073564	-327.6853
	63	415	0.0501337	0.0463376	-0.0068736	1	0.0468447	-8.437636	-3.803959E-005	3.236562	11	0.1590015	0.0074484	-327.6853
	64	476	0.0398258	0.046823	-0.0078443	1	0.0474756	-9.51044	-3.785636E-005	3.237222	11	0.1590008	0.0075486	-327.6853
	65	553	0.0316296	0.0473247	-0.0090552	1	0.0481833	-10.83213	-4.647984E-005	3.238023	11	0.1589996	0.0076611	-327.6853
	66	649	0.0251206	0.0478959	-0.0105648	1	0.0490472	-12.43902	-3.894793E-005	3.239106	11	0.1589986	0.0077984	-327.6853
	67	810	0.0199553	0.0485921	-0.012439	1	0.0501589	-14.35876	-4.175117E-005	3.240505	11	0.1589999	0.0079753	-327.6853
	68	1012	0.0158522	0.0495065	-0.0147442	1	0.0516554	-16.58479	-4.672974E-005	3.241973	11	0.1590016	0.0082133	-327.6853
	69	1203	0.0125907	0.0506306	-0.0175497	1	0.0535859	-19.1175	-4.694638E-005	3.243514	11	0.1589982	0.0085201	-327.6853
	70	1443	0.0100011	0.052084	-0.0208564	1	0.0561046	-21.823	-4.66309E-005	3.245496	11	0.1589998	0.0089206	-327.6853
