EXPLAIN
TAG	GALVEIS
TITLE	LABEL	Galvanostatic EIS	Test Identifier
DATE	LABEL	30.3.2024	Date
TIME	LABEL	4:26:36	Time
NOTES	NOTES	1	Notes...
	
PSTAT	PSTAT	REF600-12055	Potentiostat
FREQINIT	QUANT	1.00000E+005	Initial Freq. (Hz)
FREQFINAL	QUANT	1.00000E-002	Final Freq. (Hz)
PTSPERDEC	QUANT	1.00000E+001	Points/decade
IACREQ	QUANT	1.59000E-001	AC Current (A rms)
IDCREQ	QUANT	0.00000E+000	DC Current (A)
AREA	QUANT	1.00000E+000	Sample Area (cm^2)
SPEED	SELECTOR	1	Optimize for:
DRIFTCOR	SELECTOR	0	Drift Correction
THD	SELECTOR	0	THD
ZGUESS	QUANT	1.00000E-001	Estimated Z (ohms)
EOC	QUANT	4.088392	Open Circuit (V)
SEQUENCER	TOGGLE	TRUE	Run as Sequence
PSTATMODEL	IQUANT	4	Pstat Model
PSTATSECTION	LABEL	REF600-12055	Pstat Section
PSTATSERIALNO	LABEL	12055	Pstat Serial Number
CTRLMODE	IQUANT	0	Control Mode
ELECTROMETER	IQUANT	0	RE=0 or CS=1
IESTAB	IQUANT	0	I/E Stability
CASPEED	IQUANT	4	Control Amp Speed
CONVENTION	IQUANT	1	Current Convention
ICHRANGE	IQUANT	2	Ich Range
ICHRANGEMODE	TOGGLE	F	Ich Auto Range
ICHOFFSETENABLE	TOGGLE	T	Ich Offset Enable
ICHOFFSET	QUANT	0	Ich Offset (V)
ICHFILTER	IQUANT	3	Ich Filter
VCHRANGE	IQUANT	2	Vch Range
VCHRANGEMODE	TOGGLE	F	Vch Auto Range
VCHOFFSETENABLE	TOGGLE	T	Vch Offset Enable
VCHOFFSET	QUANT	0	Vch Offset (V)
VCHFILTER	IQUANT	3	Vch Filter
ACHRANGE	IQUANT	2	Ach Range
ACHOFFSETENABLE	TOGGLE	F	Ach Offset Enable
ACHOFFSET	QUANT	0	Ach Offset (V)
ACHFILTER	IQUANT	1	Ach Filter
IERANGELOWERLIMIT	IQUANT	1	I/E Range Lower Limit
IERANGEMODE	TOGGLE	F	I/E AutoRange
IERANGE	IQUANT	7	I/E Range
POSFEEDENABLE	TOGGLE	F	Positive Feedback IR Comp
POSFEEDRESISTANCE	QUANT	0	Positive Feedback Resistance (ohm)
ACHSELECT	IQUANT	4	Ach Select
SENSECABLEID	IQUANT	14	Sense Cable ID
PWRCABLEID	IQUANT	14	Power Cable ID
DCCALDATE	LABEL	2/12/2024	DC Calibration Date
ACCALDATE	LABEL	2/12/2024	AC Calibration Date
THERMOSELECT	IQUANT	1	Thermo Select
FRAMEWORKVERSION	LABEL	7.10.3	Framework Version
INSTRUMENTVERSION	LABEL	4.91	Instrument Version
COMMVERSION	LABEL	2.24	Communications Version
CPUPLDVERSION	LABEL	0.00	CPU PLD Version
CTRLPLDVERSION	LABEL	0.00	CTRL PLD Version
PSTATPLDVERSION	LABEL	0.00	PSTAT PLD Version
ZCURVE	TABLE
	Pt	Time	Freq	Zreal	Zimag	Zsig	Zmod	Zphz	Idc	Vdc	IERange	Imod	Vmod	Temp
	#	s	Hz	ohm	ohm	V	ohm	°	A	V	#	A	V	°C
	0	5	100078.1	0.1039849	0.2364902	1	0.2583417	66.26488	2.878136E-005	4.088477	11	0.1596628	0.0409473	-327.6853
	1	7	79453.13	0.0866727	0.1969631	1	0.2151898	66.24832	1.366425E-005	4.088482	11	0.1642872	0.0351895	-327.6853
	2	8	63140.62	0.0730965	0.1634736	1	0.1790718	65.90839	4.343572E-006	4.088503	11	0.1619547	0.0289161	-327.6853
	3	10	50203.12	0.0625918	0.1351918	1	0.1489784	65.15656	-1.92225E-006	4.088503	11	0.1609261	0.0239295	-327.6853
	4	12	39890.62	0.0545492	0.1114171	1	0.1240539	63.9139	-9.321608E-006	4.088487	11	0.1602668	0.019858	-327.6853
	5	13	31640.63	0.0483896	0.0915345	1	0.103538	62.13691	-1.654809E-005	4.088509	11	0.1598359	0.0165366	-327.6853
	6	15	25171.88	0.0436961	0.0753972	1	0.0871441	59.90575	-1.55716E-005	4.0885	11	0.1595419	0.0138965	-327.6853
	7	17	20015.62	0.0399668	0.0621288	1	0.0738738	57.24726	-1.293089E-005	4.088493	11	0.159356	0.0117687	-327.6853
	8	19	15890.62	0.0368759	0.0511488	1	0.0630558	54.21016	-1.750048E-005	4.088491	11	0.15922	0.0100378	-327.6853
	9	20	12609.38	0.0342854	0.0420454	1	0.0542522	50.80484	-1.596916E-005	4.088508	11	0.1591412	0.0086327	-327.6853
	10	22	10078.13	0.0321958	0.0346311	1	0.0472852	47.08706	-1.966674E-005	4.088497	11	0.1590819	0.0075216	-327.6853
	11	24	8015.625	0.0304866	0.0282281	1	0.0415483	42.79709	-1.921284E-005	4.0885	11	0.159058	0.0066083	-327.6853
	12	25	6328.125	0.0291575	0.0226477	1	0.0369198	37.8378	-1.632923E-005	4.088512	11	0.159032	0.0058713	-327.6853
	13	27	5015.625	0.0282326	0.018057	1	0.0335132	32.60214	-2.111873E-005	4.0885	11	0.1590147	0.005329	-327.6853
	14	29	3984.375	0.0276277	0.0142941	1	0.0311065	27.35617	-2.036011E-005	4.08851	11	0.1590102	0.0049462	-327.6853
	15	30	3170.956	0.0272776	0.011184	1	0.0294814	22.29387	-1.848591E-005	4.088516	11	0.1590025	0.0046876	-327.6853
	16	32	2527.573	0.0270845	0.0086509	1	0.0284325	17.71375	-1.676724E-005	4.088511	11	0.1590055	0.0045209	-327.6853
	17	33	1976.103	0.0270561	0.0064188	1	0.0278071	13.34608	-2.003252E-005	4.088507	11	0.1590003	0.0044213	-327.6853
	18	35	1577.524	0.0271248	0.004805	1	0.0275471	10.04546	-2.280693E-005	4.088525	11	0.1590023	0.00438	-327.6853
	19	37	1265.625	0.0272355	0.0035593	1	0.027467	7.445554	-1.94849E-005	4.088519	11	0.1589979	0.0043672	-327.6853
	20	38	998.264	0.0274266	0.0023675	1	0.0275286	4.933567	-1.963472E-005	4.088515	11	0.1590026	0.0043771	-327.6853
	21	40	796.875	0.0276316	0.0015282	1	0.0276738	3.165682	-1.828291E-005	4.088533	11	0.1589929	0.0043999	-327.6853
	22	41	627.7902	0.0278862	0.0008237	1	0.0278984	1.691903	-1.927151E-005	4.088519	11	0.1590026	0.0044359	-327.6853
	23	43	505.5147	0.0281087	0.0003076	1	0.0281104	0.6270571	-1.547066E-005	4.088532	11	0.1576014	0.0044056	-327.6853
	24	44	397.9953	0.0283781	-0.0001359	1	0.0283784	-0.2744517	-1.916452E-005	4.088535	11	0.1606015	0.0045389	-327.6853
	25	46	315.5048	0.0286381	-0.0004845	1	0.0286422	-0.969183	-1.730025E-005	4.088538	11	0.1593411	0.004551	-327.6853
	26	47	252.4038	0.0288922	-0.0007651	1	0.0289023	-1.516815	-1.867936E-005	4.088538	11	0.1589683	0.0045859	-327.6853
	27	49	198.6229	0.0291587	-0.0010062	1	0.0291761	-1.976338	-1.889667E-005	4.088544	11	0.1588765	0.0046298	-327.6853
	28	50	158.3615	0.0294244	-0.0011936	1	0.0294486	-2.322942	-1.822883E-005	4.088546	11	0.1588884	0.0046754	-327.6853
	29	52	125.558	0.0296934	-0.0013554	1	0.0297243	-2.61359	-1.527939E-005	4.088544	11	0.1589103	0.0047212	-327.6853
	30	53	100.4464	0.029963	-0.0014855	1	0.0299998	-2.838323	-2.524024E-005	4.088544	11	0.1589443	0.0047668	-327.6853
	31	55	79.00281	0.030261	-0.0015983	1	0.0303032	-3.023319	-1.992901E-005	4.088542	11	0.1589601	0.004816	-327.6853
	32	57	63.3446	0.0305392	-0.0016865	1	0.0305858	-3.160839	-2.973783E-005	4.088551	11	0.1589743	0.0048617	-327.6853
	33	58	50.22321	0.030836	-0.0017622	1	0.0308863	-3.270679	-2.026267E-005	4.088552	11	0.1589804	0.0049099	-327.6853
	34	60	38.42213	0.0311856	-0.0018348	1	0.0312395	-3.367025	-1.635682E-005	4.08855	11	0.1589884	0.0049665	-327.6853
	35	62	31.25	0.0314692	-0.0018741	1	0.031525	-3.408212	-3.278744E-005	4.088557	11	0.1589952	0.0050122	-327.6853
	36	63	24.93351	0.0317737	-0.0019045	1	0.0318308	-3.430248	-3.271946E-005	4.088549	11	0.1589976	0.0050609	-327.6853
	37	65	19.86229	0.0320901	-0.0018994	1	0.0321463	-3.38732	-3.793841E-005	4.088566	11	0.1589931	0.005111	-327.6853
	38	66	15.625	0.0324272	-0.0019104	1	0.0324834	-3.371547	-9.576906E-006	4.088546	11	0.1589881	0.0051644	-327.6853
	39	68	12.40079	0.0327538	-0.00188	1	0.0328077	-3.285037	-2.630847E-005	4.08854	11	0.1590037	0.0052165	-327.6853
	40	69	9.93114	0.0330543	-0.0018206	1	0.0331044	-3.152633	-4.507636E-005	4.088541	11	0.1589883	0.0052632	-327.6853
	41	71	7.944915	0.033338	-0.0017604	1	0.0333844	-3.022757	2.733781E-006	4.088552	11	0.1590021	0.0053082	-327.6853
	42	73	6.317385	0.0336021	-0.0016717	1	0.0336436	-2.848122	4.663621E-005	4.088553	11	0.159003	0.0053494	-327.6853
	43	75	5.008013	0.0338423	-0.0015859	1	0.0338795	-2.682962	1.771527E-005	4.08854	11	0.1589969	0.0053867	-327.6853
	44	77	3.945707	0.0340558	-0.0015026	1	0.034089	-2.526351	-2.095629E-005	4.088554	11	0.1590132	0.0054206	-327.6853
	45	79	3.158693	0.0342336	-0.0014278	1	0.0342634	-2.3883	5.506119E-005	4.088544	11	0.1589876	0.0054475	-327.6853
	46	82	2.504006	0.0344179	-0.0013744	1	0.0344454	-2.286739	2.03799E-005	4.088531	11	0.1554114	0.0053309	-327.6853
	47	85	1.998082	0.0345861	-0.0013421	1	0.0346121	-2.22215	-7.392636E-005	4.088517	11	0.1613471	0.0055677	-327.6853
	48	89	1.584686	0.0347473	-0.0013443	1	0.0347733	-2.215625	-0.0002535	4.088522	11	0.1600078	0.0055527	-327.6853
	49	93	1.266892	0.0348886	-0.0013492	1	0.0349147	-2.214628	0.0001227	4.088589	11	0.1592429	0.0055524	-327.6853
	50	98	0.999041	0.0350631	-0.0013751	1	0.0350901	-2.245823	6.812561E-005	4.088609	11	0.1590476	0.0055762	-327.6853
	51	102	0.7923428	0.0352425	-0.001409	1	0.0352707	-2.289445	-4.08089E-005	4.088619	11	0.1592819	0.0056149	-327.6853
	52	110	0.6334459	0.035423	-0.0014631	1	0.0354532	-2.365164	-4.083241E-005	4.088625	11	0.158984	0.0056345	-327.6853
	53	119	0.5040323	0.0356074	-0.0015345	1	0.0356405	-2.467573	-4.095232E-005	4.088635	11	0.1589814	0.0056649	-327.6853
	54	129	0.400641	0.0358068	-0.0016195	1	0.0358434	-2.589714	-4.018168E-005	4.088648	11	0.1589861	0.0056978	-327.6853
	55	143	0.316723	0.0360144	-0.0017214	1	0.0360556	-2.736538	-3.811129E-005	4.088671	11	0.1589894	0.0057319	-327.6853
	56	160	0.2520161	0.0362389	-0.00184	1	0.0362856	-2.906662	-3.915197E-005	4.088697	11	0.1589937	0.0057689	-327.6853
	57	182	0.2003205	0.0364852	-0.0019685	1	0.0365383	-3.08832	-3.831444E-005	4.088721	11	0.158996	0.0058092	-327.6853
	58	208	0.1588983	0.0367441	-0.0021266	1	0.0368056	-3.312423	-4.145303E-005	4.088749	11	0.1589959	0.0058518	-327.6853
	59	240	0.1260081	0.0370306	-0.0023047	1	0.0371023	-3.561355	-4.056376E-005	4.088855	11	0.158999	0.0058991	-327.6853
	60	278	0.1001603	0.0373739	-0.0024946	1	0.0374571	-3.818594	-3.731191E-005	4.089012	11	0.1589995	0.0059556	-327.6853
	61	314	0.0794492	0.0377164	-0.0027297	1	0.0378151	-4.139494	-3.866445E-005	4.089138	11	0.1590002	0.0060126	-327.6853
	62	366	0.0631739	0.0380091	-0.0030026	1	0.0381275	-4.516832	-4.063109E-005	4.089052	11	0.1589985	0.0060622	-327.6853
	63	431	0.0501337	0.0383746	-0.003319	1	0.0385179	-4.943115	-4.006055E-005	4.089076	11	0.1590009	0.0061244	-327.6853
	64	492	0.0398258	0.0388041	-0.0036677	1	0.038977	-5.399437	-3.955136E-005	4.089123	11	0.1590004	0.0061974	-327.6853
	65	569	0.0316296	0.0392724	-0.0040843	1	0.0394842	-5.937429	-4.152656E-005	4.089175	11	0.1589993	0.006278	-327.6853
	66	697	0.0251206	0.0398155	-0.0045604	1	0.0400758	-6.534067	-4.231679E-005	4.089249	11	0.1589986	0.006372	-327.6853
	67	818	0.0199553	0.0403936	-0.0051018	1	0.0407146	-7.198464	-4.019121E-005	4.08932	11	0.1589993	0.0064736	-327.6853
	68	1020	0.0158522	0.0410301	-0.0057336	1	0.0414288	-7.955101	-4.043175E-005	4.089403	11	0.1590016	0.0065872	-327.6853
	69	1211	0.0125907	0.0416868	-0.0064447	1	0.042182	-8.788284	-3.962783E-005	4.089501	11	0.1589997	0.0067069	-327.6853
	70	1451	0.0100011	0.042476	-0.0072276	1	0.0430866	-9.65682	-3.605802E-005	4.089603	11	0.1590006	0.0068508	-327.6853
