EXPLAIN
TAG	GALVEIS
TITLE	LABEL	Galvanostatic EIS	Test Identifier
DATE	LABEL	30.3.2024	Date
TIME	LABEL	12:34:36	Time
NOTES	NOTES	1	Notes...
	
PSTAT	PSTAT	REF600-12055	Potentiostat
FREQINIT	QUANT	1.00000E+005	Initial Freq. (Hz)
FREQFINAL	QUANT	1.00000E-002	Final Freq. (Hz)
PTSPERDEC	QUANT	1.00000E+001	Points/decade
IACREQ	QUANT	1.59000E-001	AC Current (A rms)
IDCREQ	QUANT	0.00000E+000	DC Current (A)
AREA	QUANT	1.00000E+000	Sample Area (cm^2)
SPEED	SELECTOR	1	Optimize for:
DRIFTCOR	SELECTOR	0	Drift Correction
THD	SELECTOR	0	THD
ZGUESS	QUANT	1.00000E-001	Estimated Z (ohms)
EOC	QUANT	3.601786	Open Circuit (V)
SEQUENCER	TOGGLE	TRUE	Run as Sequence
PSTATMODEL	IQUANT	4	Pstat Model
PSTATSECTION	LABEL	REF600-12055	Pstat Section
PSTATSERIALNO	LABEL	12055	Pstat Serial Number
CTRLMODE	IQUANT	0	Control Mode
ELECTROMETER	IQUANT	0	RE=0 or CS=1
IESTAB	IQUANT	0	I/E Stability
CASPEED	IQUANT	4	Control Amp Speed
CONVENTION	IQUANT	1	Current Convention
ICHRANGE	IQUANT	2	Ich Range
ICHRANGEMODE	TOGGLE	F	Ich Auto Range
ICHOFFSETENABLE	TOGGLE	T	Ich Offset Enable
ICHOFFSET	QUANT	0	Ich Offset (V)
ICHFILTER	IQUANT	3	Ich Filter
VCHRANGE	IQUANT	2	Vch Range
VCHRANGEMODE	TOGGLE	F	Vch Auto Range
VCHOFFSETENABLE	TOGGLE	T	Vch Offset Enable
VCHOFFSET	QUANT	0	Vch Offset (V)
VCHFILTER	IQUANT	3	Vch Filter
ACHRANGE	IQUANT	2	Ach Range
ACHOFFSETENABLE	TOGGLE	F	Ach Offset Enable
ACHOFFSET	QUANT	0	Ach Offset (V)
ACHFILTER	IQUANT	1	Ach Filter
IERANGELOWERLIMIT	IQUANT	1	I/E Range Lower Limit
IERANGEMODE	TOGGLE	F	I/E AutoRange
IERANGE	IQUANT	7	I/E Range
POSFEEDENABLE	TOGGLE	F	Positive Feedback IR Comp
POSFEEDRESISTANCE	QUANT	0	Positive Feedback Resistance (ohm)
ACHSELECT	IQUANT	4	Ach Select
SENSECABLEID	IQUANT	14	Sense Cable ID
PWRCABLEID	IQUANT	14	Power Cable ID
DCCALDATE	LABEL	2/12/2024	DC Calibration Date
ACCALDATE	LABEL	2/12/2024	AC Calibration Date
THERMOSELECT	IQUANT	1	Thermo Select
FRAMEWORKVERSION	LABEL	7.10.3	Framework Version
INSTRUMENTVERSION	LABEL	4.91	Instrument Version
COMMVERSION	LABEL	2.24	Communications Version
CPUPLDVERSION	LABEL	0.00	CPU PLD Version
CTRLPLDVERSION	LABEL	0.00	CTRL PLD Version
PSTATPLDVERSION	LABEL	0.00	PSTAT PLD Version
ZCURVE	TABLE
	Pt	Time	Freq	Zreal	Zimag	Zsig	Zmod	Zphz	Idc	Vdc	IERange	Imod	Vmod	Temp
	#	s	Hz	ohm	ohm	V	ohm	°	A	V	#	A	V	°C
	0	5	100078.1	0.1037003	0.2368713	1	0.2585764	66.35658	2.783677E-005	3.601776	11	0.1596729	0.0409871	-327.6853
	1	7	79453.13	0.0865194	0.1972141	1	0.2153578	66.31256	1.29909E-005	3.601789	11	0.1642699	0.0352133	-327.6853
	2	9	63140.62	0.0730346	0.1636297	1	0.1791891	65.94686	4.945323E-006	3.601804	11	0.1619508	0.0289343	-327.6853
	3	10	50203.12	0.0625889	0.1353128	1	0.149087	65.17711	-4.141359E-006	3.601804	11	0.1609325	0.0239478	-327.6853
	4	12	39890.62	0.0545714	0.1115109	1	0.124148	63.92374	-5.249749E-006	3.601817	11	0.16027	0.0198734	-327.6853
	5	14	31640.63	0.0484333	0.0916191	1	0.1036332	62.1374	-1.341477E-005	3.601825	11	0.1598398	0.0165522	-327.6853
	6	16	25171.88	0.0437584	0.0754658	1	0.0872346	59.89294	-1.586106E-005	3.601825	11	0.1595434	0.013911	-327.6853
	7	17	20015.62	0.0400265	0.0621836	1	0.0739522	57.23137	-1.620327E-005	3.601827	11	0.1593499	0.0117807	-327.6853
	8	19	15890.62	0.0369472	0.0511957	1	0.0631355	54.18256	-1.832994E-005	3.601825	11	0.1592277	0.010051	-327.6853
	9	21	12609.38	0.0343521	0.0420861	1	0.0543259	50.77748	-3.039162E-005	3.601834	11	0.1591428	0.0086445	-327.6853
	10	22	10078.13	0.0322642	0.0346718	1	0.0473615	47.05995	-2.675224E-005	3.601857	11	0.1590848	0.0075339	-327.6853
	11	24	8015.625	0.0305494	0.0282578	1	0.0416145	42.76837	-3.195537E-005	3.601847	11	0.1590552	0.0066187	-327.6853
	12	25	6328.125	0.0292213	0.0226717	1	0.036985	37.80663	-1.832796E-005	3.601864	11	0.1590281	0.0058815	-327.6853
	13	27	5015.625	0.0282944	0.0180876	1	0.0335818	32.58942	-2.101739E-005	3.60186	11	0.1590185	0.00534	-327.6853
	14	29	3984.375	0.027685	0.0142991	1	0.0311597	27.31599	-1.958793E-005	3.601872	11	0.1590071	0.0049545	-327.6853
	15	30	3170.956	0.0273259	0.0111934	1	0.0295296	22.27526	-2.362637E-005	3.601883	11	0.1590094	0.0046955	-327.6853
	16	32	2527.573	0.0271513	0.0086425	1	0.0284936	17.6568	-1.552427E-005	3.601889	11	0.1589961	0.0045303	-327.6853
	17	34	1976.103	0.0271055	0.0064664	1	0.0278662	13.41797	-1.993927E-005	3.601893	11	0.1590044	0.0044308	-327.6853
	18	35	1577.524	0.0271956	0.0048342	1	0.0276219	10.07945	-1.899397E-005	3.601903	11	0.1590044	0.004392	-327.6853
	19	37	1265.625	0.0273042	0.0035742	1	0.0275372	7.457719	-1.896953E-005	3.601911	11	0.1590054	0.0043786	-327.6853
	20	38	998.264	0.0274839	0.0024263	1	0.0275907	5.044986	-2.194452E-005	3.601902	11	0.1589969	0.0043868	-327.6853
	21	40	796.875	0.0277186	0.0015281	1	0.0277606	3.155438	-2.225244E-005	3.601912	11	0.1589951	0.0044138	-327.6853
	22	41	627.7902	0.0279662	0.0008317	1	0.0279786	1.703455	-1.941121E-005	3.601923	11	0.1590071	0.0044488	-327.6853
	23	43	505.5147	0.0281935	0.0002846	1	0.0281949	0.578451	-1.90484E-005	3.601933	11	0.1575918	0.0044186	-327.6853
	24	44	397.9953	0.0284794	-0.000152	1	0.0284798	-0.3057236	-1.838023E-005	3.601938	11	0.1606057	0.0045553	-327.6853
	25	46	315.5048	0.0287526	-0.0005017	1	0.0287569	-0.999707	-1.831388E-005	3.601944	11	0.1593379	0.0045692	-327.6853
	26	47	252.4038	0.0290228	-0.0007591	1	0.0290327	-1.498152	-2.260669E-005	3.601952	11	0.1589624	0.0046064	-327.6853
	27	49	198.6229	0.029312	-0.0009857	1	0.0293286	-1.926075	-2.543745E-005	3.601956	11	0.1588825	0.0046542	-327.6853
	28	50	158.3615	0.0295913	-0.00114	1	0.0296132	-2.206241	-2.055094E-005	3.601966	11	0.158886	0.0047015	-327.6853
	29	52	125.558	0.029878	-0.001257	1	0.0299044	-2.409132	-1.989014E-005	3.601974	11	0.1589147	0.0047499	-327.6853
	30	54	100.4464	0.0301511	-0.0013351	1	0.0301806	-2.535398	-2.203824E-005	3.601976	11	0.1589417	0.0047954	-327.6853
	31	55	79.00281	0.0304487	-0.0013746	1	0.0304797	-2.584818	-1.98487E-005	3.601981	11	0.1589568	0.004844	-327.6853
	32	57	63.3446	0.0307113	-0.001386	1	0.0307426	-2.583957	-1.993554E-005	3.601987	11	0.1589767	0.0048867	-327.6853
	33	58	50.22321	0.0309827	-0.0013703	1	0.031013	-2.532365	-1.734984E-005	3.601994	11	0.158979	0.00493	-327.6853
	34	60	38.42213	0.0312646	-0.0013144	1	0.0312922	-2.407375	-2.32117E-005	3.601996	11	0.158993	0.004975	-327.6853
	35	61	31.25	0.0314701	-0.0012489	1	0.0314948	-2.272587	-2.395647E-005	3.602002	11	0.1589966	0.0050074	-327.6853
	36	63	24.93351	0.0316723	-0.0011638	1	0.0316937	-2.104371	-2.995867E-005	3.602011	11	0.1589889	0.0050388	-327.6853
	37	65	19.86229	0.0318414	-0.0010778	1	0.0318597	-1.938734	-1.730121E-005	3.602011	11	0.1589984	0.0050656	-327.6853
	38	66	15.625	0.0320075	-0.0009866	1	0.0320227	-1.765535	-3.107009E-005	3.602024	11	0.1589816	0.005091	-327.6853
	39	68	12.40079	0.032123	-0.0008892	1	0.0321353	-1.585544	-4.13903E-005	3.602021	11	0.1589959	0.0051094	-327.6853
	40	69	9.93114	0.032228	-0.0008231	1	0.0322385	-1.462986	-5.250413E-005	3.602016	11	0.158997	0.0051258	-327.6853
	41	71	7.944915	0.0323172	-0.0007676	1	0.0323263	-1.360724	-1.198638E-005	3.60204	11	0.1589962	0.0051398	-327.6853
	42	73	6.317385	0.0323942	-0.000717	1	0.0324021	-1.267906	-1.398053E-005	3.602033	11	0.1589788	0.0051512	-327.6853
	43	75	5.008013	0.0324646	-0.0006895	1	0.0324719	-1.216679	3.603345E-005	3.602031	11	0.1590116	0.0051634	-327.6853
	44	77	3.945707	0.0325351	-0.0006782	1	0.0325421	-1.194098	2.93972E-006	3.602044	11	0.1590208	0.0051749	-327.6853
	45	79	3.158693	0.0325947	-0.0006836	1	0.0326019	-1.201535	8.74704E-005	3.602042	11	0.1589612	0.0051824	-327.6853
	46	82	2.504006	0.0326757	-0.0006816	1	0.0326828	-1.194901	-3.396417E-007	3.602044	11	0.1554705	0.0050601	-327.6853
	47	86	1.998082	0.0327559	-0.0007062	1	0.0327635	-1.235146	0.0001094	3.602059	11	0.1613597	0.0052708	-327.6853
	48	89	1.584686	0.032842	-0.0007522	1	0.0328506	-1.312059	-6.87493E-005	3.602064	11	0.1598666	0.005241	-327.6853
	49	93	1.266892	0.0329284	-0.0007959	1	0.032938	-1.384562	-4.202522E-005	3.602127	11	0.1592965	0.0052398	-327.6853
	50	98	0.999041	0.0330238	-0.0008607	1	0.033035	-1.492936	-0.0001051	3.602143	11	0.1590979	0.0052513	-327.6853
	51	102	0.7923428	0.0331441	-0.0009168	1	0.0331568	-1.584439	-4.208571E-005	3.60217	11	0.1592858	0.0052785	-327.6853
	52	110	0.6334459	0.0332518	-0.0009892	1	0.0332665	-1.703948	-3.954931E-005	3.602203	11	0.1589836	0.005287	-327.6853
	53	120	0.5040323	0.0333818	-0.0010629	1	0.0333987	-1.823673	-3.825643E-005	3.60225	11	0.1589814	0.0053086	-327.6853
	54	129	0.400641	0.0335129	-0.0011519	1	0.0335326	-1.968594	-4.364006E-005	3.602288	11	0.1589852	0.0053304	-327.6853
	55	141	0.316723	0.0336629	-0.0012545	1	0.0336863	-2.134213	-3.96526E-005	3.602335	11	0.1589904	0.0053553	-327.6853
	56	158	0.2520161	0.0338046	-0.001362	1	0.033832	-2.307233	-4.131293E-005	3.602405	11	0.1589954	0.0053788	-327.6853
	57	179	0.2003205	0.0339682	-0.0014883	1	0.0340008	-2.508822	-3.928348E-005	3.602477	11	0.158995	0.0054058	-327.6853
	58	201	0.1588983	0.0341438	-0.0016423	1	0.0341833	-2.753816	-4.044057E-005	3.602549	11	0.1589989	0.005435	-327.6853
	59	226	0.1260081	0.0343367	-0.0018121	1	0.0343845	-3.020944	-3.889789E-005	3.602709	11	0.1589975	0.005467	-327.6853
	60	264	0.1001603	0.034568	-0.0020103	1	0.0346264	-3.328305	-4.244613E-005	3.60297	11	0.1589997	0.0055055	-327.6853
	61	311	0.0794492	0.0348005	-0.0022379	1	0.0348724	-3.67941	-4.549393E-005	3.603233	11	0.1589998	0.0055447	-327.6853
	62	362	0.0631739	0.0349869	-0.0025135	1	0.0350771	-4.109176	-4.106796E-005	3.603268	11	0.159	0.0055772	-327.6853
	63	411	0.0501337	0.0352342	-0.0028401	1	0.0353485	-4.608367	-4.041744E-005	3.603376	11	0.1589993	0.0056204	-327.6853
	64	473	0.0398258	0.0355064	-0.0032192	1	0.0356521	-5.18063	-3.893328E-005	3.603529	11	0.1589992	0.0056686	-327.6853
	65	575	0.0316296	0.0358262	-0.0036808	1	0.0360148	-5.866075	-3.79789E-005	3.603734	11	0.159	0.0057264	-327.6853
	66	703	0.0251206	0.0361931	-0.0042285	1	0.0364393	-6.663817	-3.897091E-005	3.603955	11	0.1589999	0.0057938	-327.6853
	67	824	0.0199553	0.0366261	-0.0048855	1	0.0369505	-7.597798	-4.086453E-005	3.604179	11	0.1590001	0.0058751	-327.6853
	68	1026	0.0158522	0.0371878	-0.005675	1	0.0376183	-8.676563	-4.045532E-005	3.604439	11	0.1589994	0.0059813	-327.6853
	69	1217	0.0125907	0.0378334	-0.0065986	1	0.0384045	-9.89352	-3.572442E-005	3.60467	11	0.1589995	0.0061063	-327.6853
	70	1456	0.0100011	0.0386441	-0.0076743	1	0.0393987	-11.23225	-3.939624E-005	3.604921	11	0.1589999	0.0062644	-327.6853
