EXPLAIN
TAG	GALVEIS
TITLE	LABEL	Galvanostatic EIS	Test Identifier
DATE	LABEL	30.3.2024	Date
TIME	LABEL	15:11:51	Time
NOTES	NOTES	1	Notes...
	
PSTAT	PSTAT	REF600-12055	Potentiostat
FREQINIT	QUANT	1.00000E+005	Initial Freq. (Hz)
FREQFINAL	QUANT	1.00000E-002	Final Freq. (Hz)
PTSPERDEC	QUANT	1.00000E+001	Points/decade
IACREQ	QUANT	1.59000E-001	AC Current (A rms)
IDCREQ	QUANT	0.00000E+000	DC Current (A)
AREA	QUANT	1.00000E+000	Sample Area (cm^2)
SPEED	SELECTOR	1	Optimize for:
DRIFTCOR	SELECTOR	0	Drift Correction
THD	SELECTOR	0	THD
ZGUESS	QUANT	1.00000E-001	Estimated Z (ohms)
EOC	QUANT	3.431731	Open Circuit (V)
SEQUENCER	TOGGLE	TRUE	Run as Sequence
PSTATMODEL	IQUANT	4	Pstat Model
PSTATSECTION	LABEL	REF600-12055	Pstat Section
PSTATSERIALNO	LABEL	12055	Pstat Serial Number
CTRLMODE	IQUANT	0	Control Mode
ELECTROMETER	IQUANT	0	RE=0 or CS=1
IESTAB	IQUANT	0	I/E Stability
CASPEED	IQUANT	4	Control Amp Speed
CONVENTION	IQUANT	1	Current Convention
ICHRANGE	IQUANT	2	Ich Range
ICHRANGEMODE	TOGGLE	F	Ich Auto Range
ICHOFFSETENABLE	TOGGLE	T	Ich Offset Enable
ICHOFFSET	QUANT	0	Ich Offset (V)
ICHFILTER	IQUANT	3	Ich Filter
VCHRANGE	IQUANT	2	Vch Range
VCHRANGEMODE	TOGGLE	F	Vch Auto Range
VCHOFFSETENABLE	TOGGLE	T	Vch Offset Enable
VCHOFFSET	QUANT	0	Vch Offset (V)
VCHFILTER	IQUANT	3	Vch Filter
ACHRANGE	IQUANT	2	Ach Range
ACHOFFSETENABLE	TOGGLE	F	Ach Offset Enable
ACHOFFSET	QUANT	0	Ach Offset (V)
ACHFILTER	IQUANT	1	Ach Filter
IERANGELOWERLIMIT	IQUANT	1	I/E Range Lower Limit
IERANGEMODE	TOGGLE	F	I/E AutoRange
IERANGE	IQUANT	7	I/E Range
POSFEEDENABLE	TOGGLE	F	Positive Feedback IR Comp
POSFEEDRESISTANCE	QUANT	0	Positive Feedback Resistance (ohm)
ACHSELECT	IQUANT	4	Ach Select
SENSECABLEID	IQUANT	14	Sense Cable ID
PWRCABLEID	IQUANT	14	Power Cable ID
DCCALDATE	LABEL	2/12/2024	DC Calibration Date
ACCALDATE	LABEL	2/12/2024	AC Calibration Date
THERMOSELECT	IQUANT	1	Thermo Select
FRAMEWORKVERSION	LABEL	7.10.3	Framework Version
INSTRUMENTVERSION	LABEL	4.91	Instrument Version
COMMVERSION	LABEL	2.24	Communications Version
CPUPLDVERSION	LABEL	0.00	CPU PLD Version
CTRLPLDVERSION	LABEL	0.00	CTRL PLD Version
PSTATPLDVERSION	LABEL	0.00	PSTAT PLD Version
ZCURVE	TABLE
	Pt	Time	Freq	Zreal	Zimag	Zsig	Zmod	Zphz	Idc	Vdc	IERange	Imod	Vmod	Temp
	#	s	Hz	ohm	ohm	V	ohm	°	A	V	#	A	V	°C
	0	4	100078.1	0.1035893	0.2373704	1	0.2589893	66.42338	2.914073E-005	3.431615	11	0.1596422	0.0410446	-327.6853
	1	6	79453.13	0.0864265	0.1975797	1	0.2156555	66.37418	1.122616E-005	3.431638	11	0.1642989	0.0352682	-327.6853
	2	8	63140.62	0.0729622	0.1639172	1	0.1794222	66.00536	1.272652E-006	3.431628	11	0.1619591	0.0289734	-327.6853
	3	10	50203.12	0.0625549	0.1355155	1	0.1492567	65.22164	-6.047951E-006	3.431629	11	0.160905	0.023971	-327.6853
	4	11	39890.62	0.0545651	0.1116703	1	0.1242884	63.95864	-1.191557E-005	3.431637	11	0.1602771	0.0198968	-327.6853
	5	13	31640.63	0.0484261	0.0917366	1	0.1037338	62.17122	-1.131384E-005	3.431646	11	0.1598362	0.0165679	-327.6853
	6	15	25171.88	0.0437565	0.0755461	1	0.0873032	59.92048	-1.449324E-005	3.431637	11	0.1595375	0.0139214	-327.6853
	7	16	20015.62	0.0400394	0.0622497	1	0.0740147	57.25063	-2.317419E-005	3.431633	11	0.1593567	0.0117912	-327.6853
	8	18	15890.62	0.0369575	0.0512566	1	0.0631909	54.20728	-2.754899E-005	3.431643	11	0.1592198	0.0100593	-327.6853
	9	20	12609.38	0.0343713	0.0421273	1	0.05437	50.78933	-1.772842E-005	3.431645	11	0.1591419	0.0086515	-327.6853
	10	22	10078.13	0.0322863	0.0347115	1	0.0474057	47.07312	-2.051721E-005	3.431645	11	0.1590841	0.0075409	-327.6853
	11	23	8015.625	0.0305672	0.0282881	1	0.0416482	42.78238	-1.579814E-005	3.431653	11	0.1590531	0.006624	-327.6853
	12	25	6328.125	0.0292374	0.0227017	1	0.0370161	37.82788	-2.357911E-005	3.431659	11	0.1590333	0.0058866	-327.6853
	13	26	5015.625	0.02831	0.0181184	1	0.0336115	32.61934	-1.719675E-005	3.431657	11	0.1590169	0.0053447	-327.6853
	14	28	3984.375	0.0276875	0.0143269	1	0.0311746	27.35938	-2.029841E-005	3.431651	11	0.1590051	0.0049569	-327.6853
	15	29	3170.956	0.0273298	0.0112523	1	0.0295556	22.37813	-2.004928E-005	3.431666	11	0.1590054	0.0046995	-327.6853
	16	31	2527.573	0.0271477	0.0086572	1	0.0284947	17.68711	-1.829874E-005	3.431669	11	0.1590057	0.0045308	-327.6853
	17	32	1976.103	0.0271094	0.0064749	1	0.027872	13.43301	-1.984474E-005	3.43166	11	0.159002	0.0044317	-327.6853
	18	34	1577.524	0.0271633	0.0048624	1	0.0275951	10.14872	-2.017332E-005	3.43167	11	0.1589987	0.0043876	-327.6853
	19	35	1265.625	0.0272946	0.0034774	1	0.0275153	7.260488	-2.003973E-005	3.431673	11	0.1590023	0.004375	-327.6853
	20	37	998.264	0.0274892	0.0023516	1	0.0275896	4.889513	-2.088665E-005	3.431669	11	0.1589972	0.0043867	-327.6853
	21	39	796.875	0.0277064	0.0014873	1	0.0277462	3.072685	-3.056403E-005	3.431675	11	0.1590048	0.0044118	-327.6853
	22	40	627.7902	0.0279303	0.0007934	1	0.0279416	1.627177	-2.907997E-005	3.431675	11	0.1589984	0.0044427	-327.6853
	23	42	505.5147	0.0281866	0.0002313	1	0.0281876	0.4701577	-2.456456E-005	3.431696	11	0.1575979	0.0044176	-327.6853
	24	43	397.9953	0.0284779	-0.0002222	1	0.0284788	-0.4470279	-2.968439E-005	3.431697	11	0.1606034	0.004555	-327.6853
	25	45	315.5048	0.0287546	-0.0005846	1	0.0287605	-1.164695	-2.912642E-005	3.431698	11	0.159336	0.0045697	-327.6853
	26	46	252.4038	0.0290249	-0.0008712	1	0.029038	-1.719206	-1.846382E-005	3.431705	11	0.1589743	0.0046076	-327.6853
	27	48	198.6229	0.0293253	-0.0011228	1	0.0293468	-2.192669	-1.936563E-005	3.431706	11	0.158871	0.0046567	-327.6853
	28	49	158.3615	0.0296066	-0.0013099	1	0.0296356	-2.533404	-3.131491E-005	3.43171	11	0.1588901	0.0047051	-327.6853
	29	51	125.558	0.0299051	-0.0014737	1	0.0299414	-2.821158	-2.38705E-005	3.431715	11	0.1589099	0.0047556	-327.6853
	30	52	100.4464	0.0301931	-0.001599	1	0.0302354	-3.031545	-1.534389E-005	3.431721	11	0.1589451	0.0048042	-327.6853
	31	54	79.00281	0.0305096	-0.0017052	1	0.0305572	-3.199032	-2.038723E-005	3.431725	11	0.1589606	0.0048564	-327.6853
	32	56	63.3446	0.030815	-0.0017845	1	0.0308666	-3.31438	-2.004346E-005	3.431728	11	0.1589732	0.0049063	-327.6853
	33	57	50.22321	0.0311301	-0.0018552	1	0.0311853	-3.410455	-2.172217E-005	3.431728	11	0.1589808	0.0049575	-327.6853
	34	59	38.42213	0.0315054	-0.0019038	1	0.0315629	-3.458131	-2.813536E-005	3.431731	11	0.1589863	0.0050178	-327.6853
	35	60	31.25	0.0317941	-0.0019294	1	0.0318526	-3.472683	-3.465218E-005	3.431734	11	0.1589996	0.0050644	-327.6853
	36	62	24.93351	0.0321164	-0.0019394	1	0.0321749	-3.455761	-1.943269E-005	3.431736	11	0.1589906	0.0051154	-327.6853
	37	64	19.86229	0.0324479	-0.0019356	1	0.0325056	-3.413863	-1.909721E-005	3.431741	11	0.1589983	0.0051683	-327.6853
	38	65	15.625	0.0327828	-0.001898	1	0.0328377	-3.313464	-1.873972E-005	3.431741	11	0.1589888	0.0052208	-327.6853
	39	67	12.40079	0.0330936	-0.0018482	1	0.0331452	-3.19656	-9.685173E-006	3.431757	11	0.15899	0.0052697	-327.6853
	40	68	9.93114	0.0333829	-0.001768	1	0.0334297	-3.031671	3.199093E-006	3.431763	11	0.1590022	0.0053154	-327.6853
	41	70	7.944915	0.0336632	-0.0016877	1	0.0337055	-2.870045	-4.611956E-005	3.431761	11	0.1590044	0.0053593	-327.6853
	42	72	6.317385	0.0339043	-0.0015777	1	0.0339409	-2.664201	-7.340446E-005	3.43177	11	0.1589853	0.0053961	-327.6853
	43	74	5.008013	0.0341344	-0.0014789	1	0.0341664	-2.480895	-6.580504E-005	3.431785	11	0.1589998	0.0054324	-327.6853
	44	77	3.945707	0.0343355	-0.0013752	1	0.034363	-2.293507	-1.632085E-006	3.431786	11	0.1590133	0.0054642	-327.6853
	45	79	3.158693	0.0344956	-0.0012933	1	0.0345199	-2.14713	-5.180109E-005	3.431796	11	0.1590243	0.0054895	-327.6853
	46	82	2.504006	0.0346515	-0.0012224	1	0.0346731	-2.020342	-8.325337E-005	3.431817	11	0.1553776	0.005365	-327.6853
	47	85	1.998082	0.0347821	-0.0011722	1	0.0348018	-1.930277	0.0001205	3.431846	11	0.1613984	0.0056	-327.6853
	48	90	1.584686	0.0349111	-0.0011423	1	0.0349298	-1.874107	0.0002834	3.431853	11	0.1600337	0.0055786	-327.6853
	49	96	1.266892	0.0350368	-0.0011425	1	0.0350554	-1.867707	-0.0002437	3.431819	11	0.1592389	0.0055746	-327.6853
	50	103	0.999041	0.035171	-0.0011608	1	0.0351902	-1.890354	-0.000193	3.43181	11	0.1590437	0.005592	-327.6853
	51	109	0.7923428	0.035314	-0.0011836	1	0.0353338	-1.919674	-3.877969E-005	3.431894	11	0.1592208	0.0056228	-327.6853
	52	117	0.6334459	0.0354401	-0.0012265	1	0.0354614	-1.982035	-4.390863E-005	3.431901	11	0.1589809	0.0056357	-327.6853
	53	124	0.5040323	0.0355892	-0.001292	1	0.0356127	-2.079068	-3.773655E-005	3.431913	11	0.1589846	0.0056606	-327.6853
	54	136	0.400641	0.0357272	-0.0013647	1	0.0357533	-2.187561	-4.17033E-005	3.431937	11	0.1589862	0.0056835	-327.6853
	55	150	0.316723	0.0358887	-0.0014581	1	0.0359183	-2.326574	-3.747646E-005	3.431961	11	0.1589902	0.0057102	-327.6853
	56	167	0.2520161	0.0360525	-0.0015748	1	0.0360869	-2.501142	-3.858304E-005	3.432005	11	0.1589934	0.0057373	-327.6853
	57	189	0.2003205	0.036218	-0.0017139	1	0.0362586	-2.709343	-3.944282E-005	3.432049	11	0.1589966	0.0057648	-327.6853
	58	215	0.1588983	0.0363903	-0.0018898	1	0.0364393	-2.972845	-4.028463E-005	3.432109	11	0.1589967	0.0057936	-327.6853
	59	247	0.1260081	0.0365968	-0.0020999	1	0.036657	-3.284055	-4.060044E-005	3.432268	11	0.1589973	0.0058283	-327.6853
	60	277	0.1001603	0.0368462	-0.0023524	1	0.0369212	-3.65303	-3.88449E-005	3.432535	11	0.1590003	0.0058704	-327.6853
	61	313	0.0794492	0.0370864	-0.0026626	1	0.0371818	-4.106537	-3.95649E-005	3.432789	11	0.158998	0.0059118	-327.6853
	62	365	0.0631739	0.0372602	-0.0030468	1	0.0373846	-4.674766	-4.530961E-005	3.432751	11	0.1590013	0.0059442	-327.6853
	63	414	0.0501337	0.0375302	-0.0035053	1	0.0376936	-5.335952	-3.955913E-005	3.432801	11	0.1590007	0.0059933	-327.6853
	64	495	0.0398258	0.0378365	-0.0040507	1	0.0380527	-6.110701	-3.920655E-005	3.432925	11	0.1589973	0.0060503	-327.6853
	65	597	0.0316296	0.0382033	-0.0046898	1	0.0384901	-6.998589	-3.994007E-005	3.433076	11	0.1590012	0.00612	-327.6853
	66	725	0.0251206	0.0386169	-0.005471	1	0.0390025	-8.063708	-3.909968E-005	3.433273	11	0.1590002	0.0062014	-327.6853
	67	886	0.0199553	0.0391128	-0.0064021	1	0.0396333	-9.295957	-4.166769E-005	3.433496	11	0.158999	0.0063017	-327.6853
	68	1088	0.0158522	0.0397141	-0.0074962	1	0.0404154	-10.6891	-4.113487E-005	3.43373	11	0.1589999	0.006426	-327.6853
	69	1279	0.0125907	0.0404455	-0.0087985	1	0.0413914	-12.27285	-4.196961E-005	3.434007	11	0.159	0.0065812	-327.6853
	70	1598	0.0100011	0.0413892	-0.010286	1	0.0426482	-13.95634	-4.195485E-005	3.43432	11	0.1590003	0.0067811	-327.6853
