EXPLAIN
TAG	GALVEIS
TITLE	LABEL	Galvanostatic EIS	Test Identifier
DATE	LABEL	30.3.2024	Date
TIME	LABEL	8:27:24	Time
NOTES	NOTES	1	Notes...
	
PSTAT	PSTAT	REF600-12055	Potentiostat
FREQINIT	QUANT	1.00000E+005	Initial Freq. (Hz)
FREQFINAL	QUANT	1.00000E-002	Final Freq. (Hz)
PTSPERDEC	QUANT	1.00000E+001	Points/decade
IACREQ	QUANT	1.61000E-001	AC Current (A rms)
IDCREQ	QUANT	0.00000E+000	DC Current (A)
AREA	QUANT	1.00000E+000	Sample Area (cm^2)
SPEED	SELECTOR	1	Optimize for:
DRIFTCOR	SELECTOR	0	Drift Correction
THD	SELECTOR	0	THD
ZGUESS	QUANT	1.00000E-001	Estimated Z (ohms)
EOC	QUANT	3.857408	Open Circuit (V)
SEQUENCER	TOGGLE	TRUE	Run as Sequence
PSTATMODEL	IQUANT	4	Pstat Model
PSTATSECTION	LABEL	REF600-12055	Pstat Section
PSTATSERIALNO	LABEL	12055	Pstat Serial Number
CTRLMODE	IQUANT	0	Control Mode
ELECTROMETER	IQUANT	0	RE=0 or CS=1
IESTAB	IQUANT	0	I/E Stability
CASPEED	IQUANT	4	Control Amp Speed
CONVENTION	IQUANT	1	Current Convention
ICHRANGE	IQUANT	2	Ich Range
ICHRANGEMODE	TOGGLE	F	Ich Auto Range
ICHOFFSETENABLE	TOGGLE	T	Ich Offset Enable
ICHOFFSET	QUANT	0	Ich Offset (V)
ICHFILTER	IQUANT	3	Ich Filter
VCHRANGE	IQUANT	2	Vch Range
VCHRANGEMODE	TOGGLE	F	Vch Auto Range
VCHOFFSETENABLE	TOGGLE	T	Vch Offset Enable
VCHOFFSET	QUANT	0	Vch Offset (V)
VCHFILTER	IQUANT	3	Vch Filter
ACHRANGE	IQUANT	2	Ach Range
ACHOFFSETENABLE	TOGGLE	F	Ach Offset Enable
ACHOFFSET	QUANT	0	Ach Offset (V)
ACHFILTER	IQUANT	1	Ach Filter
IERANGELOWERLIMIT	IQUANT	1	I/E Range Lower Limit
IERANGEMODE	TOGGLE	F	I/E AutoRange
IERANGE	IQUANT	7	I/E Range
POSFEEDENABLE	TOGGLE	F	Positive Feedback IR Comp
POSFEEDRESISTANCE	QUANT	0	Positive Feedback Resistance (ohm)
ACHSELECT	IQUANT	4	Ach Select
SENSECABLEID	IQUANT	14	Sense Cable ID
PWRCABLEID	IQUANT	14	Power Cable ID
DCCALDATE	LABEL	2/12/2024	DC Calibration Date
ACCALDATE	LABEL	2/12/2024	AC Calibration Date
THERMOSELECT	IQUANT	1	Thermo Select
FRAMEWORKVERSION	LABEL	7.10.3	Framework Version
INSTRUMENTVERSION	LABEL	4.91	Instrument Version
COMMVERSION	LABEL	2.24	Communications Version
CPUPLDVERSION	LABEL	0.00	CPU PLD Version
CTRLPLDVERSION	LABEL	0.00	CTRL PLD Version
PSTATPLDVERSION	LABEL	0.00	PSTAT PLD Version
ZCURVE	TABLE
	Pt	Time	Freq	Zreal	Zimag	Zsig	Zmod	Zphz	Idc	Vdc	IERange	Imod	Vmod	Temp
	#	s	Hz	ohm	ohm	V	ohm	°	A	V	#	A	V	°C
	0	5	100078.1	0.1038497	0.2365706	1	0.258361	66.29949	1.989829E-005	3.857487	11	0.1616263	0.041454	-327.6853
	1	7	79453.13	0.0865944	0.1970184	1	0.2152088	66.27333	2.554269E-006	3.857489	11	0.1663319	0.0356306	-327.6853
	2	9	63140.62	0.0730649	0.1634987	1	0.1790818	65.92091	-6.415212E-006	3.857507	11	0.1639804	0.0292794	-327.6853
	3	10	50203.12	0.0625923	0.1352246	1	0.1490084	65.16167	-3.110777E-006	3.857515	11	0.1629427	0.0242342	-327.6853
	4	12	39890.62	0.0545572	0.111439	1	0.1240772	63.91503	-2.032891E-005	3.857512	11	0.1622797	0.0201111	-327.6853
	5	14	31640.63	0.0484074	0.091568	1	0.103576	62.13684	-1.243036E-005	3.857516	11	0.1618414	0.0167502	-327.6853
	6	16	25171.88	0.0437136	0.0754232	1	0.0871753	59.90438	-1.627477E-005	3.857519	11	0.1615399	0.0140755	-327.6853
	7	17	20015.62	0.0399768	0.0621554	1	0.0739016	57.25193	-1.59464E-005	3.85752	11	0.1613567	0.0119209	-327.6853
	8	19	15890.62	0.0368872	0.0511733	1	0.0630823	54.2148	-1.735298E-005	3.857538	11	0.1612291	0.0101687	-327.6853
	9	21	12609.38	0.0342949	0.0420667	1	0.0542747	50.81136	-1.312671E-005	3.857536	11	0.1611449	0.008745	-327.6853
	10	22	10078.13	0.0322097	0.034659	1	0.047315	47.09768	-1.715799E-005	3.857551	11	0.161081	0.007621	-327.6853
	11	24	8015.625	0.0304904	0.0282577	1	0.0415711	42.82354	-1.656276E-005	3.857555	11	0.1610557	0.0066949	-327.6853
	12	25	6328.125	0.0291574	0.0226633	1	0.0369294	37.85701	-1.718919E-005	3.857563	11	0.1610315	0.0059466	-327.6853
	13	27	5015.625	0.0282256	0.0180837	1	0.0335217	32.64707	-2.114917E-005	3.857554	11	0.1610137	0.0053973	-327.6853
	14	29	3984.375	0.0276164	0.0143055	1	0.0311016	27.38446	-2.150971E-005	3.857579	11	0.1610083	0.0050076	-327.6853
	15	30	3170.956	0.0272623	0.0112053	1	0.0294753	22.34354	-1.754868E-005	3.857585	11	0.1610095	0.0047458	-327.6853
	16	32	2527.573	0.0270834	0.0086659	1	0.0284361	17.7431	-1.492293E-005	3.857587	11	0.160998	0.0045781	-327.6853
	17	34	1976.103	0.0270439	0.006446	1	0.0278015	13.40654	-1.754879E-005	3.857601	11	0.1610057	0.0044762	-327.6853
	18	35	1577.524	0.0271198	0.004868	1	0.0275533	10.17621	-2.147813E-005	3.857592	11	0.161009	0.0044363	-327.6853
	19	37	1265.625	0.0272233	0.0035875	1	0.0274586	7.507133	-1.683692E-005	3.857612	11	0.1609935	0.0044207	-327.6853
	20	39	998.264	0.0274209	0.0024066	1	0.0275263	5.015771	-1.798593E-005	3.857612	11	0.1609966	0.0044316	-327.6853
	21	40	796.875	0.0276295	0.0016171	1	0.0276767	3.349504	-1.867267E-005	3.857619	11	0.1610123	0.0044563	-327.6853
	22	42	627.7902	0.0278634	0.0008557	1	0.0278766	1.759	-2.116279E-005	3.857624	11	0.1609894	0.0044878	-327.6853
	23	43	505.5147	0.0280893	0.000332	1	0.0280912	0.6771954	-1.798582E-005	3.857635	11	0.1595826	0.004458	-327.6853
	24	45	397.9953	0.0283576	-0.000105	1	0.0283578	-0.2121887	-1.992669E-005	3.857641	11	0.1626228	0.0045927	-327.6853
	25	46	315.5048	0.0286263	-0.0004457	1	0.0286298	-0.892072	-1.706511E-005	3.857647	11	0.1613412	0.0046062	-327.6853
	26	48	252.4038	0.0288812	-0.0007111	1	0.02889	-1.410443	-1.660909E-005	3.85765	11	0.160965	0.0046415	-327.6853
	27	49	198.6229	0.0291629	-0.0009288	1	0.0291777	-1.824154	-1.764626E-005	3.857656	11	0.1608774	0.0046884	-327.6853
	28	51	158.3615	0.0294275	-0.001097	1	0.0294479	-2.134858	-2.165535E-005	3.857662	11	0.160891	0.0047342	-327.6853
	29	52	125.558	0.0297013	-0.0012192	1	0.0297263	-2.350577	-2.366176E-005	3.857671	11	0.1609111	0.0047809	-327.6853
	30	54	100.4464	0.0299747	-0.0013001	1	0.0300028	-2.483625	-2.069434E-005	3.857681	11	0.1609379	0.0048271	-327.6853
	31	55	79.00281	0.0302574	-0.0013523	1	0.0302876	-2.558938	-1.799327E-005	3.857684	11	0.1609613	0.0048742	-327.6853
	32	57	63.3446	0.0305281	-0.0013726	1	0.030559	-2.574462	-1.985964E-005	3.857691	11	0.1609731	0.0049185	-327.6853
	33	59	50.22321	0.0307893	-0.0013596	1	0.0308193	-2.528408	-3.155005E-005	3.857702	11	0.16098	0.0049609	-327.6853
	34	61	38.42213	0.0310729	-0.001312	1	0.0311006	-2.417768	-3.078784E-005	3.857702	11	0.1609875	0.0050066	-327.6853
	35	62	31.25	0.031278	-0.0012573	1	0.0313032	-2.301925	-2.899102E-005	3.857706	11	0.161001	0.0050397	-327.6853
	36	64	24.93351	0.0314783	-0.0011921	1	0.0315008	-2.168797	-2.573559E-005	3.857715	11	0.1609909	0.0050712	-327.6853
	37	65	19.86229	0.0316481	-0.0011141	1	0.0316677	-2.016056	-1.191755E-005	3.857709	11	0.1609925	0.0050982	-327.6853
	38	67	15.625	0.0318139	-0.0010171	1	0.0318302	-1.831137	-3.227766E-005	3.857735	11	0.1609896	0.0051243	-327.6853
	39	68	12.40079	0.0319532	-0.0009477	1	0.0319672	-1.698906	-1.857923E-005	3.857743	11	0.1610059	0.0051469	-327.6853
	40	70	9.93114	0.0320582	-0.0008922	1	0.0320706	-1.594207	-1.33866E-006	3.857752	11	0.1609928	0.0051631	-327.6853
	41	71	7.944915	0.0321477	-0.0008447	1	0.0321588	-1.505055	2.11515E-006	3.857738	11	0.160992	0.0051773	-327.6853
	42	73	6.317385	0.032231	-0.0008118	1	0.0322412	-1.442731	-8.88739E-005	3.857732	11	0.1610118	0.0051912	-327.6853
	43	76	5.008013	0.0323199	-0.0008035	1	0.0323299	-1.424204	3.343122E-005	3.857729	11	0.1609787	0.0052044	-327.6853
	44	78	3.945707	0.0323909	-0.0008045	1	0.0324009	-1.4228	-2.059311E-005	3.857741	11	0.1610233	0.0052173	-327.6853
	45	80	3.158693	0.032474	-0.0008257	1	0.0324845	-1.456547	6.277545E-005	3.857735	11	0.1609595	0.0052287	-327.6853
	46	83	2.504006	0.032579	-0.0008606	1	0.0325904	-1.51309	4.125643E-006	3.857723	11	0.1574115	0.0051088	-327.6853
	47	86	1.998082	0.0326722	-0.0008983	1	0.0326846	-1.574844	3.083627E-005	3.857738	11	0.1633621	0.0053233	-327.6853
	48	90	1.584686	0.0327696	-0.0009771	1	0.0327842	-1.70785	-0.0001551	3.857746	11	0.161941	0.0052983	-327.6853
	49	94	1.266892	0.0328822	-0.0010518	1	0.032899	-1.832039	3.263308E-005	3.85784	11	0.1612725	0.0052985	-327.6853
	50	99	0.999041	0.0330121	-0.0011557	1	0.0330323	-2.005006	-2.699473E-005	3.857869	11	0.1610772	0.0053162	-327.6853
	51	105	0.7923428	0.0331612	-0.001264	1	0.0331853	-2.182834	-4.016163E-005	3.857897	11	0.1613071	0.0053501	-327.6853
	52	111	0.6334459	0.0333207	-0.0013864	1	0.0333496	-2.382502	-4.275219E-005	3.857915	11	0.1609857	0.0053669	-327.6853
	53	119	0.5040323	0.033483	-0.0015269	1	0.0335178	-2.610983	-4.281884E-005	3.857947	11	0.1609799	0.0053945	-327.6853
	54	129	0.400641	0.033675	-0.0016766	1	0.0337167	-2.850312	-4.226898E-005	3.857991	11	0.1609886	0.0054272	-327.6853
	55	143	0.316723	0.0338797	-0.0018549	1	0.0339304	-3.133844	-3.976285E-005	3.858053	11	0.1609889	0.0054619	-327.6853
	56	160	0.2520161	0.0341165	-0.0020454	1	0.0341778	-3.430922	-4.195193E-005	3.858116	11	0.1609919	0.005502	-327.6853
	57	181	0.2003205	0.0343626	-0.0022668	1	0.0344372	-3.774191	-3.888377E-005	3.858199	11	0.1609969	0.0055441	-327.6853
	58	208	0.1588983	0.0346426	-0.002514	1	0.0347337	-4.150657	-3.947104E-005	3.858281	11	0.160997	0.0055919	-327.6853
	59	233	0.1260081	0.0349543	-0.0027873	1	0.0350652	-4.559151	-3.873841E-005	3.858484	11	0.1609985	0.0056454	-327.6853
	60	271	0.1001603	0.0353396	-0.0030761	1	0.0354733	-4.974672	-4.076441E-005	3.858807	11	0.1609992	0.0057111	-327.6853
	61	307	0.0794492	0.0357452	-0.0034153	1	0.035908	-5.457779	-4.643448E-005	3.859139	11	0.1609992	0.0057811	-327.6853
	62	347	0.0631739	0.036036	-0.0038241	1	0.0362383	-6.05752	-3.983567E-005	3.859074	11	0.161	0.0058343	-327.6853
	63	412	0.0501337	0.0364363	-0.0042862	1	0.0366875	-6.709117	-3.911972E-005	3.859155	11	0.1609996	0.0059067	-327.6853
	64	473	0.0398258	0.0368788	-0.0048156	1	0.0371919	-7.439464	-3.955192E-005	3.85927	11	0.1609994	0.0059879	-327.6853
	65	550	0.0316296	0.0373483	-0.0054369	1	0.037742	-8.282545	-4.072478E-005	3.859429	11	0.1609994	0.0060764	-327.6853
	66	678	0.0251206	0.0379076	-0.0061725	1	0.0384068	-9.248343	-3.968323E-005	3.859618	11	0.1610006	0.0061835	-327.6853
	67	799	0.0199553	0.0385014	-0.0070448	1	0.0391406	-10.36897	-3.882646E-005	3.859818	11	0.1610005	0.0063017	-327.6853
	68	1001	0.0158522	0.0392015	-0.0080785	1	0.0400253	-11.64426	-3.963439E-005	3.860061	11	0.1609996	0.0064441	-327.6853
	69	1255	0.0125907	0.040055	-0.00929	1	0.0411182	-13.05776	-3.910537E-005	3.860307	11	0.1609994	0.00662	-327.6853
	70	1495	0.0100011	0.0411079	-0.0106919	1	0.0424756	-14.57929	-3.790179E-005	3.860536	11	0.1610008	0.0068386	-327.6853
