EXPLAIN
TAG	GALVEIS
TITLE	LABEL	Galvanostatic EIS	Test Identifier
DATE	LABEL	30.3.2024	Date
TIME	LABEL	11:07:04	Time
NOTES	NOTES	1	Notes...
	
PSTAT	PSTAT	REF600-12055	Potentiostat
FREQINIT	QUANT	1.00000E+005	Initial Freq. (Hz)
FREQFINAL	QUANT	1.00000E-002	Final Freq. (Hz)
PTSPERDEC	QUANT	1.00000E+001	Points/decade
IACREQ	QUANT	1.59000E-001	AC Current (A rms)
IDCREQ	QUANT	0.00000E+000	DC Current (A)
AREA	QUANT	1.00000E+000	Sample Area (cm^2)
SPEED	SELECTOR	1	Optimize for:
DRIFTCOR	SELECTOR	0	Drift Correction
THD	SELECTOR	0	THD
ZGUESS	QUANT	1.00000E-001	Estimated Z (ohms)
EOC	QUANT	3.661958	Open Circuit (V)
SEQUENCER	TOGGLE	TRUE	Run as Sequence
PSTATMODEL	IQUANT	4	Pstat Model
PSTATSECTION	LABEL	REF600-12055	Pstat Section
PSTATSERIALNO	LABEL	12055	Pstat Serial Number
CTRLMODE	IQUANT	0	Control Mode
ELECTROMETER	IQUANT	0	RE=0 or CS=1
IESTAB	IQUANT	0	I/E Stability
CASPEED	IQUANT	4	Control Amp Speed
CONVENTION	IQUANT	1	Current Convention
ICHRANGE	IQUANT	2	Ich Range
ICHRANGEMODE	TOGGLE	F	Ich Auto Range
ICHOFFSETENABLE	TOGGLE	T	Ich Offset Enable
ICHOFFSET	QUANT	0	Ich Offset (V)
ICHFILTER	IQUANT	3	Ich Filter
VCHRANGE	IQUANT	2	Vch Range
VCHRANGEMODE	TOGGLE	F	Vch Auto Range
VCHOFFSETENABLE	TOGGLE	T	Vch Offset Enable
VCHOFFSET	QUANT	0	Vch Offset (V)
VCHFILTER	IQUANT	3	Vch Filter
ACHRANGE	IQUANT	2	Ach Range
ACHOFFSETENABLE	TOGGLE	F	Ach Offset Enable
ACHOFFSET	QUANT	0	Ach Offset (V)
ACHFILTER	IQUANT	1	Ach Filter
IERANGELOWERLIMIT	IQUANT	1	I/E Range Lower Limit
IERANGEMODE	TOGGLE	F	I/E AutoRange
IERANGE	IQUANT	7	I/E Range
POSFEEDENABLE	TOGGLE	F	Positive Feedback IR Comp
POSFEEDRESISTANCE	QUANT	0	Positive Feedback Resistance (ohm)
ACHSELECT	IQUANT	4	Ach Select
SENSECABLEID	IQUANT	14	Sense Cable ID
PWRCABLEID	IQUANT	14	Power Cable ID
DCCALDATE	LABEL	2/12/2024	DC Calibration Date
ACCALDATE	LABEL	2/12/2024	AC Calibration Date
THERMOSELECT	IQUANT	1	Thermo Select
FRAMEWORKVERSION	LABEL	7.10.3	Framework Version
INSTRUMENTVERSION	LABEL	4.91	Instrument Version
COMMVERSION	LABEL	2.24	Communications Version
CPUPLDVERSION	LABEL	0.00	CPU PLD Version
CTRLPLDVERSION	LABEL	0.00	CTRL PLD Version
PSTATPLDVERSION	LABEL	0.00	PSTAT PLD Version
ZCURVE	TABLE
	Pt	Time	Freq	Zreal	Zimag	Zsig	Zmod	Zphz	Idc	Vdc	IERange	Imod	Vmod	Temp
	#	s	Hz	ohm	ohm	V	ohm	°	A	V	#	A	V	°C
	0	5	100078.1	0.1037375	0.236725	1	0.2584573	66.33604	3.128161E-005	3.661906	11	0.1596565	0.040964	-327.6853
	1	7	79453.13	0.0865298	0.1971112	1	0.2152678	66.29902	1.138228E-005	3.66191	11	0.1642874	0.0352023	-327.6853
	2	9	63140.62	0.0730304	0.1635548	1	0.179119	65.93829	-9.54733E-007	3.661911	11	0.1619683	0.0289261	-327.6853
	3	10	50203.12	0.0625783	0.1352709	1	0.1490445	65.17405	-1.256395E-005	3.66193	11	0.1609009	0.0239363	-327.6853
	4	12	39890.62	0.0545679	0.1114731	1	0.1241125	63.91749	-7.672701E-006	3.661936	11	0.1602765	0.0198686	-327.6853
	5	14	31640.63	0.0484241	0.0915882	1	0.1036016	62.13388	-1.008702E-005	3.661935	11	0.1598372	0.0165469	-327.6853
	6	15	25171.88	0.0437284	0.0754376	1	0.0871952	59.90072	-1.362665E-005	3.661938	11	0.1595417	0.0139046	-327.6853
	7	17	20015.62	0.0400068	0.0621598	1	0.0739214	57.2342	-1.609651E-005	3.661935	11	0.1593556	0.0117762	-327.6853
	8	19	15890.62	0.0369191	0.0511807	1	0.0631069	54.19526	-2.173579E-005	3.661936	11	0.1592191	0.0100459	-327.6853
	9	21	12609.38	0.0343363	0.0420721	1	0.0543051	50.78109	-2.101844E-005	3.661938	11	0.1591423	0.0086412	-327.6853
	10	22	10078.13	0.0322401	0.0346617	1	0.0473377	47.07293	-1.947058E-005	3.661935	11	0.1590821	0.00753	-327.6853
	11	24	8015.625	0.0305291	0.0282509	1	0.041595	42.78046	-2.361089E-005	3.661946	11	0.1590595	0.0066158	-327.6853
	12	25	6328.125	0.0291942	0.0226684	1	0.0369616	37.82819	-2.182042E-005	3.661938	11	0.1590327	0.0058779	-327.6853
	13	27	5015.625	0.0282651	0.018092	1	0.0335595	32.62261	-1.836044E-005	3.661955	11	0.1590095	0.0053362	-327.6853
	14	28	3984.375	0.0276564	0.0143091	1	0.0311388	27.35655	-2.157199E-005	3.661941	11	0.1590101	0.0049513	-327.6853
	15	30	3170.956	0.027287	0.0112048	1	0.0294979	22.32442	-2.182974E-005	3.661954	11	0.1590039	0.0046902	-327.6853
	16	31	2527.573	0.0271284	0.0086799	1	0.0284832	17.74246	-1.982186E-005	3.661947	11	0.1590092	0.0045291	-327.6853
	17	33	1976.103	0.0270841	0.0064241	1	0.0278355	13.34344	-2.024439E-005	3.661963	11	0.1589947	0.0044257	-327.6853
	18	35	1577.524	0.0271394	0.0048544	1	0.0275701	10.14111	-1.865823E-005	3.661962	11	0.1590053	0.0043838	-327.6853
	19	37	1265.625	0.0272786	0.0034809	1	0.0274998	7.271917	-2.220432E-005	3.661977	11	0.1589963	0.0043724	-327.6853
	20	38	998.264	0.0274562	0.0024044	1	0.0275613	5.004662	-1.555542E-005	3.661969	11	0.1590005	0.0043823	-327.6853
	21	40	796.875	0.0276635	0.0016036	1	0.0277099	3.317527	-2.148491E-005	3.661976	11	0.1590103	0.0044062	-327.6853
	22	41	627.7902	0.0279218	0.0008251	1	0.027934	1.692535	-2.192659E-005	3.661983	11	0.1589929	0.0044413	-327.6853
	23	43	505.5147	0.0281562	0.0003037	1	0.0281579	0.6179967	-2.984458E-005	3.66199	11	0.1575971	0.0044129	-327.6853
	24	44	397.9953	0.0284421	-0.0001332	1	0.0284424	-0.2682815	-2.015091E-005	3.661994	11	0.1606016	0.0045491	-327.6853
	25	46	315.5048	0.0287113	-0.0004755	1	0.0287152	-0.9488833	-2.009433E-005	3.661999	11	0.1593428	0.0045627	-327.6853
	26	47	252.4038	0.0289782	-0.0007318	1	0.0289875	-1.446707	-2.575445E-005	3.662004	11	0.1589673	0.0045993	-327.6853
	27	49	198.6229	0.0292583	-0.000947	1	0.0292736	-1.853795	-2.168515E-005	3.662006	11	0.1588776	0.0046453	-327.6853
	28	50	158.3615	0.0295339	-0.0011048	1	0.0295545	-2.142345	-1.852668E-005	3.662006	11	0.1588897	0.0046923	-327.6853
	29	52	125.558	0.0298164	-0.0012132	1	0.029841	-2.329999	-1.817284E-005	3.662008	11	0.158912	0.0047398	-327.6853
	30	53	100.4464	0.030088	-0.0012835	1	0.0301154	-2.442617	-2.637855E-005	3.662014	11	0.1589439	0.0047851	-327.6853
	31	55	79.00281	0.0303747	-0.001325	1	0.0304036	-2.497837	-2.094079E-005	3.662019	11	0.1589523	0.0048318	-327.6853
	32	57	63.3446	0.030626	-0.0013266	1	0.0306547	-2.480194	-1.867721E-005	3.662023	11	0.1589789	0.0048728	-327.6853
	33	58	50.22321	0.030883	-0.0013059	1	0.0309106	-2.421286	-1.544366E-005	3.662024	11	0.1589824	0.0049138	-327.6853
	34	60	38.42213	0.0311533	-0.0012428	1	0.0311781	-2.28442	-2.283813E-005	3.662033	11	0.1589895	0.0049568	-327.6853
	35	61	31.25	0.0313563	-0.0011742	1	0.0313783	-2.144591	-1.922087E-005	3.662032	11	0.1589883	0.0049886	-327.6853
	36	63	24.93351	0.0315397	-0.0011073	1	0.0315591	-2.010745	-2.909114E-005	3.662038	11	0.1589988	0.0050178	-327.6853
	37	64	19.86229	0.0316961	-0.0010071	1	0.0317121	-1.819859	1.152977E-006	3.662036	11	0.1589715	0.0050413	-327.6853
	38	66	15.625	0.0318488	-0.0009285	1	0.0318623	-1.66985	-3.562612E-005	3.662049	11	0.159014	0.0050665	-327.6853
	39	67	12.40079	0.0319549	-0.000839	1	0.0319659	-1.503995	-3.14549E-005	3.662056	11	0.1589979	0.0050825	-327.6853
	40	69	9.93114	0.0320543	-0.0007746	1	0.0320636	-1.384381	-4.510453E-005	3.66205	11	0.1590042	0.0050982	-327.6853
	41	71	7.944915	0.0321376	-0.0007224	1	0.0321457	-1.287679	-8.67527E-007	3.662053	11	0.1589983	0.0051111	-327.6853
	42	72	6.317385	0.0321997	-0.0006802	1	0.0322069	-1.21008	-9.063841E-005	3.662042	11	0.1589916	0.0051206	-327.6853
	43	75	5.008013	0.0322698	-0.000659	1	0.0322765	-1.169963	3.080303E-005	3.662042	11	0.1589865	0.0051315	-327.6853
	44	77	3.945707	0.0323388	-0.0006486	1	0.0323453	-1.149021	-6.431923E-005	3.662056	11	0.1590007	0.0051429	-327.6853
	45	80	3.158693	0.0324055	-0.0006568	1	0.0324122	-1.16112	-7.341459E-005	3.662067	11	0.1590307	0.0051545	-327.6853
	46	82	2.504006	0.0324706	-0.0006643	1	0.0324774	-1.17194	1.124013E-005	3.662067	11	0.1553981	0.0050259	-327.6853
	47	86	1.998082	0.0325436	-0.000706	1	0.0325513	-1.242698	-0.0002926	3.66205	11	0.1615328	0.0052423	-327.6853
	48	89	1.584686	0.0326281	-0.0007427	1	0.0326366	-1.304003	-0.0003	3.66206	11	0.1598692	0.005207	-327.6853
	49	94	1.266892	0.0327165	-0.0007831	1	0.0327259	-1.371191	0.0002479	3.662072	11	0.1593242	0.005207	-327.6853
	50	98	0.999041	0.0328235	-0.0008521	1	0.0328346	-1.487096	0.0002502	3.6621	11	0.1590889	0.0052191	-327.6853
	51	103	0.7923428	0.0329428	-0.0009184	1	0.0329556	-1.597002	-3.957612E-005	3.662145	11	0.1591089	0.0052406	-327.6853
	52	111	0.6334459	0.0330609	-0.000993	1	0.0330758	-1.720351	-3.865801E-005	3.662156	11	0.1589831	0.0052566	-327.6853
	53	119	0.5040323	0.0331854	-0.0010811	1	0.033203	-1.865882	-4.126539E-005	3.662171	11	0.1589816	0.0052775	-327.6853
	54	130	0.400641	0.0333198	-0.0011774	1	0.0333406	-2.023794	-4.374942E-005	3.662192	11	0.1589862	0.0052999	-327.6853
	55	144	0.316723	0.0334755	-0.0012825	1	0.0335	-2.193991	-4.182559E-005	3.662225	11	0.1589896	0.0053257	-327.6853
	56	161	0.2520161	0.0336305	-0.0013958	1	0.0336595	-2.376625	-3.947374E-005	3.662254	11	0.1589946	0.0053514	-327.6853
	57	179	0.2003205	0.0338114	-0.0015355	1	0.0338462	-2.600199	-4.157728E-005	3.662292	11	0.1589946	0.0053812	-327.6853
	58	200	0.1588983	0.0339886	-0.0016891	1	0.0340305	-2.844969	-4.048239E-005	3.662342	11	0.158998	0.0054107	-327.6853
	59	225	0.1260081	0.0342111	-0.001862	1	0.0342618	-3.115415	-3.853462E-005	3.662459	11	0.1589997	0.0054475	-327.6853
	60	256	0.1001603	0.0344697	-0.0020667	1	0.0345316	-3.431253	-4.043539E-005	3.662659	11	0.1589997	0.0054905	-327.6853
	61	292	0.0794492	0.0347431	-0.002299	1	0.034819	-3.785906	-4.71889E-005	3.662868	11	0.1589994	0.0055362	-327.6853
	62	331	0.0631739	0.0349417	-0.002578	1	0.0350366	-4.21968	-4.178341E-005	3.662803	11	0.159	0.0055708	-327.6853
	63	380	0.0501337	0.0351862	-0.0029112	1	0.0353064	-4.729697	-4.043753E-005	3.662839	11	0.1589988	0.0056137	-327.6853
	64	462	0.0398258	0.0354761	-0.0032992	1	0.0356292	-5.313065	-4.129954E-005	3.66293	11	0.1590003	0.005665	-327.6853
	65	564	0.0316296	0.0358339	-0.0037637	1	0.036031	-5.995881	-4.583771E-005	3.663045	11	0.1589991	0.0057289	-327.6853
	66	692	0.0251206	0.0362203	-0.0043133	1	0.0364762	-6.791139	-3.968073E-005	3.663183	11	0.1589995	0.0057997	-327.6853
	67	852	0.0199553	0.0366832	-0.0049767	1	0.0370193	-7.726031	-4.087063E-005	3.663333	11	0.1590007	0.0058861	-327.6853
	68	1054	0.0158522	0.0372314	-0.0057603	1	0.0376744	-8.794812	-3.940351E-005	3.663478	11	0.1589987	0.0059902	-327.6853
	69	1245	0.0125907	0.0378953	-0.0066821	1	0.0384799	-10.00016	-3.964507E-005	3.663633	11	0.1590003	0.0061183	-327.6853
	70	1485	0.0100011	0.0386669	-0.0077313	1	0.0394323	-11.30701	-3.855145E-005	3.663799	11	0.1589994	0.0062697	-327.6853
