EXPLAIN
TAG	GALVEIS
TITLE	LABEL	Galvanostatic EIS	Test Identifier
DATE	LABEL	29.3.2024	Date
TIME	LABEL	23:42:35	Time
NOTES	NOTES	1	Notes...
	
PSTAT	PSTAT	REF600-12055	Potentiostat
FREQINIT	QUANT	1.00000E+005	Initial Freq. (Hz)
FREQFINAL	QUANT	1.00000E-002	Final Freq. (Hz)
PTSPERDEC	QUANT	1.00000E+001	Points/decade
IACREQ	QUANT	1.59000E-001	AC Current (A rms)
IDCREQ	QUANT	0.00000E+000	DC Current (A)
AREA	QUANT	1.00000E+000	Sample Area (cm^2)
SPEED	SELECTOR	1	Optimize for:
DRIFTCOR	SELECTOR	0	Drift Correction
THD	SELECTOR	0	THD
ZGUESS	QUANT	1.00000E-001	Estimated Z (ohms)
EOC	QUANT	3.909276	Open Circuit (V)
SEQUENCER	TOGGLE	TRUE	Run as Sequence
PSTATMODEL	IQUANT	4	Pstat Model
PSTATSECTION	LABEL	REF600-12055	Pstat Section
PSTATSERIALNO	LABEL	12055	Pstat Serial Number
CTRLMODE	IQUANT	0	Control Mode
ELECTROMETER	IQUANT	0	RE=0 or CS=1
IESTAB	IQUANT	0	I/E Stability
CASPEED	IQUANT	4	Control Amp Speed
CONVENTION	IQUANT	1	Current Convention
ICHRANGE	IQUANT	2	Ich Range
ICHRANGEMODE	TOGGLE	F	Ich Auto Range
ICHOFFSETENABLE	TOGGLE	T	Ich Offset Enable
ICHOFFSET	QUANT	0	Ich Offset (V)
ICHFILTER	IQUANT	3	Ich Filter
VCHRANGE	IQUANT	2	Vch Range
VCHRANGEMODE	TOGGLE	F	Vch Auto Range
VCHOFFSETENABLE	TOGGLE	T	Vch Offset Enable
VCHOFFSET	QUANT	0	Vch Offset (V)
VCHFILTER	IQUANT	3	Vch Filter
ACHRANGE	IQUANT	2	Ach Range
ACHOFFSETENABLE	TOGGLE	F	Ach Offset Enable
ACHOFFSET	QUANT	0	Ach Offset (V)
ACHFILTER	IQUANT	1	Ach Filter
IERANGELOWERLIMIT	IQUANT	1	I/E Range Lower Limit
IERANGEMODE	TOGGLE	F	I/E AutoRange
IERANGE	IQUANT	7	I/E Range
POSFEEDENABLE	TOGGLE	F	Positive Feedback IR Comp
POSFEEDRESISTANCE	QUANT	0	Positive Feedback Resistance (ohm)
ACHSELECT	IQUANT	4	Ach Select
SENSECABLEID	IQUANT	14	Sense Cable ID
PWRCABLEID	IQUANT	14	Power Cable ID
DCCALDATE	LABEL	2/12/2024	DC Calibration Date
ACCALDATE	LABEL	2/12/2024	AC Calibration Date
THERMOSELECT	IQUANT	1	Thermo Select
FRAMEWORKVERSION	LABEL	7.10.3	Framework Version
INSTRUMENTVERSION	LABEL	4.91	Instrument Version
COMMVERSION	LABEL	2.24	Communications Version
CPUPLDVERSION	LABEL	0.00	CPU PLD Version
CTRLPLDVERSION	LABEL	0.00	CTRL PLD Version
PSTATPLDVERSION	LABEL	0.00	PSTAT PLD Version
ZCURVE	TABLE
	Pt	Time	Freq	Zreal	Zimag	Zsig	Zmod	Zphz	Idc	Vdc	IERange	Imod	Vmod	Temp
	#	s	Hz	ohm	ohm	V	ohm	°	A	V	#	A	V	°C
	0	5	100078.1	0.103805	0.2364412	1	0.2582245	66.29705	2.72654E-005	3.909269	11	0.1596599	0.040928	-327.6853
	1	7	79453.13	0.0865458	0.1969063	1	0.2150866	66.27316	1.543725E-005	3.909282	11	0.1643096	0.0351774	-327.6853
	2	8	63140.62	0.0729976	0.1634169	1	0.1789797	65.92989	4.701375E-006	3.909283	11	0.1619671	0.0289034	-327.6853
	3	10	50203.12	0.0625071	0.1351389	1	0.1488948	65.17758	-2.696528E-006	3.909271	11	0.1609375	0.0239177	-327.6853
	4	12	39890.62	0.0544685	0.1113714	1	0.1239775	63.93811	-1.388468E-005	3.909279	11	0.160279	0.0198472	-327.6853
	5	13	31640.63	0.0483094	0.0914927	1	0.1034636	62.16533	-1.186831E-005	3.90926	11	0.1598378	0.0165249	-327.6853
	6	15	25171.88	0.0436296	0.0753581	1	0.0870769	59.9307	-1.454086E-005	3.909273	11	0.1595448	0.013886	-327.6853
	7	17	20015.62	0.0398992	0.0620908	1	0.0738053	57.2754	-2.56499E-005	3.909254	11	0.1593539	0.0117576	-327.6853
	8	19	15890.62	0.0368279	0.0511146	1	0.063	54.22738	-2.434547E-005	3.909244	11	0.1592313	0.0100297	-327.6853
	9	20	12609.38	0.0342357	0.0420089	1	0.0541925	50.82122	-1.804912E-005	3.909246	11	0.1591409	0.0086232	-327.6853
	10	22	10078.13	0.0321604	0.034599	1	0.0472375	47.09197	-1.954794E-005	3.909235	11	0.159085	0.0075142	-327.6853
	11	23	8015.625	0.0304395	0.0282015	1	0.0414956	42.81448	-1.937686E-005	3.909234	11	0.1590538	0.0065997	-327.6853
	12	25	6328.125	0.0291132	0.0226215	1	0.0368688	37.84779	-1.697103E-005	3.90924	11	0.159026	0.0058629	-327.6853
	13	26	5015.625	0.0281945	0.0180321	1	0.0334677	32.60132	-1.798524E-005	3.909243	11	0.1590167	0.0053218	-327.6853
	14	28	3984.375	0.0275933	0.0142713	1	0.0310654	27.34804	-2.606383E-005	3.90924	11	0.1590141	0.0049398	-327.6853
	15	29	3170.956	0.0272413	0.0111514	1	0.0294353	22.26205	-2.362659E-005	3.909226	11	0.1590043	0.0046803	-327.6853
	16	31	2527.573	0.0270585	0.0086604	1	0.0284106	17.74794	-3.287615E-005	3.909217	11	0.1590026	0.0045173	-327.6853
	17	32	1976.103	0.0270372	0.0064247	1	0.0277901	13.36704	-2.747762E-005	3.909225	11	0.1590036	0.0044187	-327.6853
	18	34	1577.524	0.0271069	0.0047733	1	0.027524	9.987	-2.958777E-005	3.909223	11	0.1589963	0.0043762	-327.6853
	19	36	1265.625	0.0272423	0.0035522	1	0.0274729	7.429131	-1.49071E-005	3.90922	11	0.1590089	0.0043684	-327.6853
	20	38	998.264	0.0274346	0.0023736	1	0.0275371	4.944837	-1.730886E-005	3.909219	11	0.1589917	0.0043782	-327.6853
	21	39	796.875	0.0276235	0.0015379	1	0.0276663	3.186496	-2.114294E-005	3.909203	11	0.1589961	0.0043988	-327.6853
	22	41	627.7902	0.0278732	0.0008727	1	0.0278869	1.793304	-1.517264E-005	3.909218	11	0.159012	0.0044343	-327.6853
	23	42	505.5147	0.0281217	0.0003151	1	0.0281234	0.6418899	-1.85339E-005	3.909213	11	0.1575931	0.0044074	-327.6853
	24	44	397.9953	0.0283952	-0.000115	1	0.0283955	-0.2320797	-1.850468E-005	3.90921	11	0.1606062	0.0045418	-327.6853
	25	45	315.5048	0.0286681	-0.000452	1	0.0286717	-0.9033619	-1.904741E-005	3.909214	11	0.1593369	0.0045556	-327.6853
	26	47	252.4038	0.0289195	-0.0007119	1	0.0289282	-1.410215	-2.184696E-005	3.909212	11	0.158969	0.00459	-327.6853
	27	48	198.6229	0.029201	-0.0009252	1	0.0292157	-1.814704	-1.883972E-005	3.909207	11	0.1588742	0.004636	-327.6853
	28	50	158.3615	0.0294654	-0.0010796	1	0.0294852	-2.098277	-1.763878E-005	3.909204	11	0.158892	0.0046813	-327.6853
	29	51	125.558	0.0297373	-0.0012002	1	0.0297615	-2.311206	-1.548044E-005	3.909197	11	0.1589157	0.0047272	-327.6853
	30	53	100.4464	0.0300066	-0.0012806	1	0.0300339	-2.443762	-2.464512E-005	3.909197	11	0.1589431	0.0047722	-327.6853
	31	54	79.00281	0.0302891	-0.0013201	1	0.0303179	-2.495601	-1.992891E-005	3.909192	11	0.1589497	0.0048181	-327.6853
	32	56	63.3446	0.0305409	-0.0013328	1	0.03057	-2.498803	-1.805788E-005	3.909193	11	0.1589747	0.0048592	-327.6853
	33	58	50.22321	0.0308027	-0.0013153	1	0.0308308	-2.445032	-1.993205E-005	3.909191	11	0.158983	0.0049012	-327.6853
	34	60	38.42213	0.0310738	-0.0012604	1	0.0310994	-2.322758	-1.264387E-005	3.909181	11	0.1589923	0.0049443	-327.6853
	35	61	31.25	0.0312776	-0.0012163	1	0.0313012	-2.226927	-3.412669E-005	3.909182	11	0.1589863	0.0049763	-327.6853
	36	63	24.93351	0.0314656	-0.0011341	1	0.031486	-2.064108	-1.977256E-005	3.909175	11	0.1590004	0.0050062	-327.6853
	37	64	19.86229	0.0316374	-0.0010446	1	0.0316547	-1.891052	-5.239958E-005	3.909181	11	0.1589754	0.0050323	-327.6853
	38	66	15.625	0.0317897	-0.0009601	1	0.0318042	-1.729861	-2.345099E-005	3.909176	11	0.1590127	0.0050572	-327.6853
	39	67	12.40079	0.0319039	-0.000883	1	0.0319161	-1.585388	-3.627711E-005	3.909158	11	0.1589922	0.0050744	-327.6853
	40	69	9.93114	0.0320109	-0.0008324	1	0.0320217	-1.489484	-2.890069E-005	3.909159	11	0.1590073	0.0050917	-327.6853
	41	70	7.944915	0.0320994	-0.000767	1	0.0321086	-1.368745	-1.102884E-005	3.909175	11	0.1589812	0.0051046	-327.6853
	42	72	6.317385	0.0321713	-0.0007364	1	0.0321797	-1.311202	-2.051568E-005	3.909148	11	0.1589783	0.0051159	-327.6853
	43	74	5.008013	0.0322476	-0.0007187	1	0.0322556	-1.276694	6.852788E-007	3.909137	11	0.1590464	0.0051301	-327.6853
	44	77	3.945707	0.0323284	-0.0007143	1	0.0323363	-1.265744	-3.882637E-005	3.909143	11	0.15899	0.0051411	-327.6853
	45	79	3.158693	0.032394	-0.0007216	1	0.032402	-1.276011	1.914619E-005	3.909128	11	0.159018	0.0051525	-327.6853
	46	82	2.504006	0.0324776	-0.0007396	1	0.032486	-1.304628	3.558141E-005	3.909109	11	0.1553809	0.0050267	-327.6853
	47	85	1.998082	0.0325673	-0.0007813	1	0.0325767	-1.374314	-0.0001767	3.909082	11	0.1614094	0.0052423	-327.6853
	48	90	1.584686	0.0326489	-0.0008268	1	0.0326593	-1.450714	-0.000325	3.909075	11	0.1600438	0.0052163	-327.6853
	49	94	1.266892	0.0327563	-0.0008799	1	0.0327681	-1.538762	0.0002135	3.909114	11	0.1592316	0.0052107	-327.6853
	50	99	0.999041	0.0328698	-0.0009736	1	0.0328842	-1.696665	0.0001557	3.909128	11	0.1590325	0.0052252	-327.6853
	51	103	0.7923428	0.0330116	-0.0010286	1	0.0330277	-1.784599	-3.934273E-005	3.909131	11	0.1592261	0.005256	-327.6853
	52	110	0.6334459	0.033144	-0.0011123	1	0.0331626	-1.922041	-3.821051E-005	3.90911	11	0.1589838	0.0052705	-327.6853
	53	119	0.5040323	0.0333024	-0.0012115	1	0.0333244	-2.083354	-3.796854E-005	3.9091	11	0.1589829	0.0052968	-327.6853
	54	129	0.400641	0.0334578	-0.0013111	1	0.0334835	-2.244116	-3.774399E-005	3.909086	11	0.1589857	0.0053226	-327.6853
	55	143	0.316723	0.0336352	-0.0014256	1	0.0336654	-2.426976	-3.79821E-005	3.90906	11	0.1589904	0.005352	-327.6853
	56	160	0.2520161	0.0338236	-0.0015525	1	0.0338592	-2.628072	-4.003731E-005	3.909036	11	0.1589934	0.0053831	-327.6853
	57	181	0.2003205	0.034027	-0.0016868	1	0.0340688	-2.837961	-4.095215E-005	3.90901	11	0.1589955	0.0054166	-327.6853
	58	203	0.1588983	0.0342364	-0.0018509	1	0.0342864	-3.094472	-4.473206E-005	3.908983	11	0.1589994	0.0054514	-327.6853
	59	234	0.1260081	0.0345118	-0.0020252	1	0.0345712	-3.358279	-3.872967E-005	3.909022	11	0.1589969	0.0054966	-327.6853
	60	264	0.1001603	0.0347995	-0.0022194	1	0.0348702	-3.649246	-3.789658E-005	3.909134	11	0.158999	0.0055443	-327.6853
	61	301	0.0794492	0.0350874	-0.0024446	1	0.0351724	-3.985472	-3.800367E-005	3.909189	11	0.159	0.0055924	-327.6853
	62	353	0.0631739	0.035316	-0.0027185	1	0.0354204	-4.401689	-4.005928E-005	3.909032	11	0.1589969	0.0056317	-327.6853
	63	402	0.0501337	0.0356218	-0.0030277	1	0.0357503	-4.858197	-3.940308E-005	3.908951	11	0.1590009	0.0056843	-327.6853
	64	463	0.0398258	0.0359592	-0.0034026	1	0.0361198	-5.405411	-3.834118E-005	3.908875	11	0.1590013	0.0057431	-327.6853
	65	540	0.0316296	0.036328	-0.0038218	1	0.0365285	-6.005614	-3.866004E-005	3.908795	11	0.1590001	0.005808	-327.6853
	66	636	0.0251206	0.036726	-0.0043307	1	0.0369805	-6.725147	-3.924394E-005	3.908713	11	0.1589986	0.0058798	-327.6853
	67	797	0.0199553	0.0371967	-0.0049221	1	0.0375209	-7.538004	-3.760582E-005	3.908632	11	0.1590004	0.0059658	-327.6853
	68	949	0.0158522	0.0377103	-0.005615	1	0.038126	-8.469051	-3.834085E-005	3.908549	11	0.1590008	0.0060621	-327.6853
	69	1140	0.0125907	0.0383377	-0.0064459	1	0.0388758	-9.54416	-3.738182E-005	3.908437	11	0.1590007	0.0061813	-327.6853
	70	1459	0.0100011	0.0390817	-0.0073784	1	0.0397721	-10.69126	-3.924067E-005	3.908332	11	0.1589995	0.0063237	-327.6853
