EXPLAIN
TAG	GALVEIS
TITLE	LABEL	Galvanostatic EIS	Test Identifier
DATE	LABEL	29.3.2024	Date
TIME	LABEL	17:59:57	Time
NOTES	NOTES	1	Notes...
	
PSTAT	PSTAT	REF600-12055	Potentiostat
FREQINIT	QUANT	1.00000E+005	Initial Freq. (Hz)
FREQFINAL	QUANT	1.00000E-002	Final Freq. (Hz)
PTSPERDEC	QUANT	1.00000E+001	Points/decade
IACREQ	QUANT	1.59000E-001	AC Current (A rms)
IDCREQ	QUANT	0.00000E+000	DC Current (A)
AREA	QUANT	1.00000E+000	Sample Area (cm^2)
SPEED	SELECTOR	1	Optimize for:
DRIFTCOR	SELECTOR	0	Drift Correction
THD	SELECTOR	0	THD
ZGUESS	QUANT	1.00000E-001	Estimated Z (ohms)
EOC	QUANT	3.57393	Open Circuit (V)
SEQUENCER	TOGGLE	TRUE	Run as Sequence
PSTATMODEL	IQUANT	4	Pstat Model
PSTATSECTION	LABEL	REF600-12055	Pstat Section
PSTATSERIALNO	LABEL	12055	Pstat Serial Number
CTRLMODE	IQUANT	0	Control Mode
ELECTROMETER	IQUANT	0	RE=0 or CS=1
IESTAB	IQUANT	0	I/E Stability
CASPEED	IQUANT	4	Control Amp Speed
CONVENTION	IQUANT	1	Current Convention
ICHRANGE	IQUANT	2	Ich Range
ICHRANGEMODE	TOGGLE	F	Ich Auto Range
ICHOFFSETENABLE	TOGGLE	T	Ich Offset Enable
ICHOFFSET	QUANT	0	Ich Offset (V)
ICHFILTER	IQUANT	3	Ich Filter
VCHRANGE	IQUANT	2	Vch Range
VCHRANGEMODE	TOGGLE	F	Vch Auto Range
VCHOFFSETENABLE	TOGGLE	T	Vch Offset Enable
VCHOFFSET	QUANT	0	Vch Offset (V)
VCHFILTER	IQUANT	3	Vch Filter
ACHRANGE	IQUANT	2	Ach Range
ACHOFFSETENABLE	TOGGLE	F	Ach Offset Enable
ACHOFFSET	QUANT	0	Ach Offset (V)
ACHFILTER	IQUANT	1	Ach Filter
IERANGELOWERLIMIT	IQUANT	1	I/E Range Lower Limit
IERANGEMODE	TOGGLE	F	I/E AutoRange
IERANGE	IQUANT	7	I/E Range
POSFEEDENABLE	TOGGLE	F	Positive Feedback IR Comp
POSFEEDRESISTANCE	QUANT	0	Positive Feedback Resistance (ohm)
ACHSELECT	IQUANT	4	Ach Select
SENSECABLEID	IQUANT	14	Sense Cable ID
PWRCABLEID	IQUANT	14	Power Cable ID
DCCALDATE	LABEL	2/12/2024	DC Calibration Date
ACCALDATE	LABEL	2/12/2024	AC Calibration Date
THERMOSELECT	IQUANT	1	Thermo Select
FRAMEWORKVERSION	LABEL	7.10.3	Framework Version
INSTRUMENTVERSION	LABEL	4.91	Instrument Version
COMMVERSION	LABEL	2.24	Communications Version
CPUPLDVERSION	LABEL	0.00	CPU PLD Version
CTRLPLDVERSION	LABEL	0.00	CTRL PLD Version
PSTATPLDVERSION	LABEL	0.00	PSTAT PLD Version
ZCURVE	TABLE
	Pt	Time	Freq	Zreal	Zimag	Zsig	Zmod	Zphz	Idc	Vdc	IERange	Imod	Vmod	Temp
	#	s	Hz	ohm	ohm	V	ohm	°	A	V	#	A	V	°C
	0	5	100078.1	0.1036249	0.2370746	1	0.2587325	66.38994	1.875032E-005	3.573876	11	0.1596611	0.0410088	-327.6853
	1	7	79453.13	0.0864243	0.1973598	1	0.2154531	66.35128	1.467939E-005	3.573875	11	0.1642959	0.0352344	-327.6853
	2	8	63140.62	0.0729356	0.1637435	1	0.1792527	65.99055	-2.110377E-006	3.573884	11	0.1619656	0.0289472	-327.6853
	3	10	50203.12	0.0625007	0.1353855	1	0.1491159	65.21959	-2.821907E-007	3.573881	11	0.1609348	0.0239528	-327.6853
	4	12	39890.62	0.0545039	0.1115602	1	0.1241626	63.96171	-9.82132E-006	3.573862	11	0.160272	0.019876	-327.6853
	5	13	31640.63	0.0483654	0.0916391	1	0.1036191	62.17575	-9.446405E-006	3.573856	11	0.1598407	0.01655	-327.6853
	6	15	25171.88	0.0436929	0.0754746	1	0.0872094	59.93309	-1.100078E-005	3.573853	11	0.1595472	0.0139073	-327.6853
	7	17	20015.62	0.0399695	0.0621925	1	0.0739288	57.27219	-1.897806E-005	3.573856	11	0.1593574	0.0117775	-327.6853
	8	19	15890.62	0.0368943	0.051199	1	0.0631073	54.22324	-1.969677E-005	3.573853	11	0.1592219	0.0100461	-327.6853
	9	20	12609.38	0.0342995	0.0420795	1	0.0542875	50.81612	-1.725229E-005	3.573839	11	0.1591409	0.0086383	-327.6853
	10	22	10078.13	0.0322271	0.0346644	1	0.0473308	47.08672	-1.578277E-005	3.57384	11	0.1590848	0.007529	-327.6853
	11	23	8015.625	0.0305117	0.0282521	1	0.041583	42.79797	-1.533638E-005	3.57384	11	0.1590565	0.0066137	-327.6853
	12	25	6328.125	0.0291858	0.022665	1	0.0369528	37.83199	-1.657999E-005	3.573832	11	0.1590311	0.0058765	-327.6853
	13	26	5015.625	0.0282544	0.0180826	1	0.0335454	32.61885	-2.139213E-005	3.573832	11	0.1590129	0.005334	-327.6853
	14	28	3984.375	0.027646	0.0143083	1	0.0311292	27.36394	-1.682935E-005	3.573831	11	0.159009	0.0049498	-327.6853
	15	29	3170.956	0.0272874	0.0111784	1	0.0294883	22.27675	-1.704833E-005	3.57382	11	0.1590091	0.0046889	-327.6853
	16	31	2527.573	0.027103	0.0086716	1	0.0284565	17.74208	-1.798489E-005	3.573818	11	0.1589981	0.0045245	-327.6853
	17	33	1976.103	0.0270709	0.0064224	1	0.0278223	13.34627	-2.661103E-005	3.573803	11	0.1590054	0.0044239	-327.6853
	18	34	1577.524	0.0271578	0.0047868	1	0.0275764	9.99624	-1.967297E-005	3.573808	11	0.159003	0.0043847	-327.6853
	19	36	1265.625	0.027263	0.0035105	1	0.027488	7.337265	-2.273574E-005	3.573802	11	0.158993	0.0043704	-327.6853
	20	37	998.264	0.0274831	0.0023617	1	0.0275844	4.911439	-1.859397E-005	3.573791	11	0.1590127	0.0043863	-327.6853
	21	39	796.875	0.0276699	0.00145	1	0.0277078	2.999703	-2.173637E-005	3.573792	11	0.1589915	0.0044053	-327.6853
	22	40	627.7902	0.0279249	0.0007722	1	0.0279356	1.583885	-1.855846E-005	3.573787	11	0.1589984	0.0044417	-327.6853
	23	42	505.5147	0.0281817	0.0002178	1	0.0281826	0.442865	-1.826684E-005	3.573786	11	0.1575983	0.0044169	-327.6853
	24	43	397.9953	0.0284817	-0.0002337	1	0.0284826	-0.4700623	-1.782563E-005	3.57378	11	0.1606058	0.0045557	-327.6853
	25	45	315.5048	0.0287666	-0.0005824	1	0.0287725	-1.159849	-2.109411E-005	3.573777	11	0.1593385	0.0045716	-327.6853
	26	46	252.4038	0.0290382	-0.0008568	1	0.0290508	-1.690164	-2.149551E-005	3.573775	11	0.1589693	0.0046095	-327.6853
	27	48	198.6229	0.0293423	-0.0010937	1	0.0293626	-2.134739	-1.789839E-005	3.573769	11	0.1588751	0.0046594	-327.6853
	28	49	158.3615	0.0296302	-0.0012726	1	0.0296575	-2.459355	-1.877325E-005	3.573764	11	0.1588911	0.0047086	-327.6853
	29	51	125.558	0.0299311	-0.0014096	1	0.0299643	-2.696282	-2.891652E-005	3.573759	11	0.1589098	0.0047593	-327.6853
	30	52	100.4464	0.0302233	-0.0015137	1	0.0302612	-2.867208	-1.56766E-005	3.573756	11	0.1589393	0.0048082	-327.6853
	31	54	79.00281	0.0305437	-0.0015841	1	0.0305848	-2.968812	-2.101087E-005	3.573753	11	0.1589628	0.0048609	-327.6853
	32	55	63.3446	0.0308404	-0.0016261	1	0.0308832	-3.018114	-2.077827E-005	3.573746	11	0.1589696	0.0049089	-327.6853
	33	57	50.22321	0.0311485	-0.0016363	1	0.0311915	-3.007066	-1.9264E-005	3.57374	11	0.1589834	0.0049585	-327.6853
	34	59	38.42213	0.0314966	-0.0016151	1	0.031538	-2.935555	-1.934616E-005	3.573734	11	0.1589901	0.005014	-327.6853
	35	61	31.25	0.0317563	-0.001582	1	0.0317957	-2.85192	-6.355229E-006	3.57373	11	0.1589889	0.005055	-327.6853
	36	62	24.93351	0.0320181	-0.001509	1	0.0320537	-2.698377	-1.789478E-005	3.573733	11	0.1590011	0.0050965	-327.6853
	37	64	19.86229	0.0322684	-0.0014211	1	0.0322997	-2.521687	1.006201E-005	3.573719	11	0.1589787	0.0051349	-327.6853
	38	65	15.625	0.0324971	-0.001319	1	0.0325238	-2.324308	-4.215725E-005	3.573726	11	0.1590039	0.0051714	-327.6853
	39	66	12.40079	0.032679	-0.0012251	1	0.0327019	-2.14688	-3.833231E-005	3.573718	11	0.1589914	0.0051993	-327.6853
	40	68	9.93114	0.0328427	-0.0011099	1	0.0328614	-1.935559	-3.304693E-005	3.57371	11	0.1590109	0.0052253	-327.6853
	41	70	7.944915	0.032969	-0.0010191	1	0.0329848	-1.770504	1.596031E-005	3.573708	11	0.1590016	0.0052446	-327.6853
	42	71	6.317385	0.033092	-0.0009378	1	0.0331053	-1.623253	-0.0000962	3.573687	11	0.159006	0.0052639	-327.6853
	43	74	5.008013	0.033194	-0.0008756	1	0.0332056	-1.510984	3.213109E-005	3.573678	11	0.158968	0.0052786	-327.6853
	44	76	3.945707	0.0332841	-0.0008238	1	0.0332943	-1.417896	3.534369E-007	3.573672	11	0.1590093	0.0052941	-327.6853
	45	78	3.158693	0.0333578	-0.0007947	1	0.0333672	-1.364679	8.448027E-005	3.573654	11	0.1589712	0.0053044	-327.6853
	46	81	2.504006	0.033447	-0.0007718	1	0.0334559	-1.321921	-2.97248E-005	3.573637	11	0.1554751	0.0051799	-327.6853
	47	84	1.998082	0.0335203	-0.0007805	1	0.0335294	-1.333875	0.0001941	3.573645	11	0.1614263	0.0053962	-327.6853
	48	88	1.584686	0.0336041	-0.0008064	1	0.0336138	-1.374722	6.077788E-005	3.57363	11	0.159794	0.0053604	-327.6853
	49	93	1.266892	0.0336969	-0.0008317	1	0.0337072	-1.413834	-0.0001488	3.573654	11	0.1593358	0.0053635	-327.6853
	50	98	0.999041	0.0337963	-0.0008781	1	0.0338077	-1.488381	-0.0001938	3.573633	11	0.1591213	0.0053749	-327.6853
	51	103	0.7923428	0.0339146	-0.000938	1	0.0339276	-1.584222	-3.942201E-005	3.573629	11	0.1592247	0.0053991	-327.6853
	52	110	0.6334459	0.0340316	-0.0010092	1	0.0340466	-1.698514	-3.908965E-005	3.573609	11	0.1589828	0.0054109	-327.6853
	53	118	0.5040323	0.0341653	-0.0010831	1	0.0341825	-1.815837	-3.794697E-005	3.573594	11	0.1589825	0.0054332	-327.6853
	54	128	0.400641	0.0342936	-0.0011698	1	0.0343135	-1.953713	-3.692157E-005	3.573574	11	0.1589859	0.0054546	-327.6853
	55	142	0.316723	0.0344495	-0.0012742	1	0.0344731	-2.118201	-4.274667E-005	3.57355	11	0.1589905	0.0054804	-327.6853
	56	159	0.2520161	0.0346085	-0.0013816	1	0.0346361	-2.286154	-3.836004E-005	3.573513	11	0.1589932	0.0055066	-327.6853
	57	177	0.2003205	0.0347648	-0.0015144	1	0.0347978	-2.494359	-3.91099E-005	3.573484	11	0.1589955	0.0055325	-327.6853
	58	198	0.1588983	0.0349523	-0.0016583	1	0.0349916	-2.716389	-3.851861E-005	3.573438	11	0.1589965	0.0055634	-327.6853
	59	223	0.1260081	0.0351665	-0.0018345	1	0.0352143	-2.986246	-3.937491E-005	3.573467	11	0.1590001	0.005599	-327.6853
	60	253	0.1001603	0.0353984	-0.0020375	1	0.035457	-3.294261	-4.132859E-005	3.573573	11	0.1589974	0.0056375	-327.6853
	61	290	0.0794492	0.0356356	-0.0022782	1	0.0357084	-3.657922	-3.977229E-005	3.573632	11	0.1590007	0.0056776	-327.6853
	62	342	0.0631739	0.0358322	-0.0025755	1	0.0359246	-4.111198	-4.043799E-005	3.573439	11	0.1590005	0.005712	-327.6853
	63	391	0.0501337	0.0360923	-0.0029178	1	0.03621	-4.621865	-3.810121E-005	3.573323	11	0.1589995	0.0057574	-327.6853
	64	452	0.0398258	0.03636	-0.0033426	1	0.0365133	-5.252523	-4.015998E-005	3.573175	11	0.1589999	0.0058056	-327.6853
	65	554	0.0316296	0.0367068	-0.0038279	1	0.0369058	-5.95344	-3.601379E-005	3.573033	11	0.1589998	0.005868	-327.6853
	66	650	0.0251206	0.0370601	-0.0044388	1	0.037325	-6.829923	-3.919618E-005	3.57287	11	0.159001	0.0059347	-327.6853
	67	811	0.0199553	0.0374882	-0.005166	1	0.0378425	-7.846114	-3.478873E-005	3.572672	11	0.1589991	0.0060169	-327.6853
	68	1013	0.0158522	0.0380059	-0.0060298	1	0.0384812	-9.015117	-4.088561E-005	3.572458	11	0.159001	0.0061186	-327.6853
	69	1267	0.0125907	0.0386486	-0.0070406	1	0.0392847	-10.3243	-3.978584E-005	3.572234	11	0.1589993	0.0062462	-327.6853
	70	1586	0.0100011	0.0394311	-0.0082073	1	0.0402762	-11.75783	-3.995538E-005	3.571998	11	0.1590008	0.0064039	-327.6853
