EXPLAIN
TAG	GALVEIS
TITLE	LABEL	Galvanostatic EIS	Test Identifier
DATE	LABEL	29.3.2024	Date
TIME	LABEL	20:59:15	Time
NOTES	NOTES	1	Notes...
	
PSTAT	PSTAT	REF600-12055	Potentiostat
FREQINIT	QUANT	1.00000E+005	Initial Freq. (Hz)
FREQFINAL	QUANT	1.00000E-002	Final Freq. (Hz)
PTSPERDEC	QUANT	1.00000E+001	Points/decade
IACREQ	QUANT	1.59000E-001	AC Current (A rms)
IDCREQ	QUANT	0.00000E+000	DC Current (A)
AREA	QUANT	1.00000E+000	Sample Area (cm^2)
SPEED	SELECTOR	1	Optimize for:
DRIFTCOR	SELECTOR	0	Drift Correction
THD	SELECTOR	0	THD
ZGUESS	QUANT	1.00000E-001	Estimated Z (ohms)
EOC	QUANT	3.719717	Open Circuit (V)
SEQUENCER	TOGGLE	TRUE	Run as Sequence
PSTATMODEL	IQUANT	4	Pstat Model
PSTATSECTION	LABEL	REF600-12055	Pstat Section
PSTATSERIALNO	LABEL	12055	Pstat Serial Number
CTRLMODE	IQUANT	0	Control Mode
ELECTROMETER	IQUANT	0	RE=0 or CS=1
IESTAB	IQUANT	0	I/E Stability
CASPEED	IQUANT	4	Control Amp Speed
CONVENTION	IQUANT	1	Current Convention
ICHRANGE	IQUANT	2	Ich Range
ICHRANGEMODE	TOGGLE	F	Ich Auto Range
ICHOFFSETENABLE	TOGGLE	T	Ich Offset Enable
ICHOFFSET	QUANT	0	Ich Offset (V)
ICHFILTER	IQUANT	3	Ich Filter
VCHRANGE	IQUANT	2	Vch Range
VCHRANGEMODE	TOGGLE	F	Vch Auto Range
VCHOFFSETENABLE	TOGGLE	T	Vch Offset Enable
VCHOFFSET	QUANT	0	Vch Offset (V)
VCHFILTER	IQUANT	3	Vch Filter
ACHRANGE	IQUANT	2	Ach Range
ACHOFFSETENABLE	TOGGLE	F	Ach Offset Enable
ACHOFFSET	QUANT	0	Ach Offset (V)
ACHFILTER	IQUANT	1	Ach Filter
IERANGELOWERLIMIT	IQUANT	1	I/E Range Lower Limit
IERANGEMODE	TOGGLE	F	I/E AutoRange
IERANGE	IQUANT	7	I/E Range
POSFEEDENABLE	TOGGLE	F	Positive Feedback IR Comp
POSFEEDRESISTANCE	QUANT	0	Positive Feedback Resistance (ohm)
ACHSELECT	IQUANT	4	Ach Select
SENSECABLEID	IQUANT	14	Sense Cable ID
PWRCABLEID	IQUANT	14	Power Cable ID
DCCALDATE	LABEL	2/12/2024	DC Calibration Date
ACCALDATE	LABEL	2/12/2024	AC Calibration Date
THERMOSELECT	IQUANT	1	Thermo Select
FRAMEWORKVERSION	LABEL	7.10.3	Framework Version
INSTRUMENTVERSION	LABEL	4.91	Instrument Version
COMMVERSION	LABEL	2.24	Communications Version
CPUPLDVERSION	LABEL	0.00	CPU PLD Version
CTRLPLDVERSION	LABEL	0.00	CTRL PLD Version
PSTATPLDVERSION	LABEL	0.00	PSTAT PLD Version
ZCURVE	TABLE
	Pt	Time	Freq	Zreal	Zimag	Zsig	Zmod	Zphz	Idc	Vdc	IERange	Imod	Vmod	Temp
	#	s	Hz	ohm	ohm	V	ohm	°	A	V	#	A	V	°C
	0	5	100078.1	0.1037655	0.2367053	1	0.2584505	66.32859	2.840662E-005	3.719625	11	0.1596496	0.0409612	-327.6853
	1	6	79453.13	0.0865181	0.1970962	1	0.2152494	66.30027	1.582736E-005	3.719633	11	0.1643082	0.0352037	-327.6853
	2	8	63140.62	0.0729806	0.1635511	1	0.1790953	65.95235	5.193666E-006	3.719634	11	0.1619736	0.0289232	-327.6853
	3	10	50203.12	0.062513	0.1352546	1	0.1490023	65.19422	-1.771236E-005	3.719621	11	0.1609301	0.0239339	-327.6853
	4	11	39890.62	0.054491	0.1114615	1	0.1240683	63.94705	-1.018896E-005	3.7196	11	0.1602752	0.0198613	-327.6853
	5	13	31640.63	0.0483303	0.0915699	1	0.1035416	62.17508	-1.073617E-005	3.7196	11	0.1598387	0.0165375	-327.6853
	6	15	25171.88	0.0436456	0.0754195	1	0.087138	59.94186	-1.127506E-005	3.719609	11	0.1595445	0.0138957	-327.6853
	7	17	20015.62	0.0399164	0.0621498	1	0.0738642	57.28898	-1.774356E-005	3.719582	11	0.159352	0.0117668	-327.6853
	8	18	15890.62	0.0368384	0.0511728	1	0.0630534	54.25053	-1.636113E-005	3.719582	11	0.1592305	0.0100381	-327.6853
	9	20	12609.38	0.034248	0.0420603	1	0.0542402	50.8455	-1.475902E-005	3.719575	11	0.1591397	0.0086307	-327.6853
	10	22	10078.13	0.0321682	0.0346369	1	0.0472706	47.11634	-1.932983E-005	3.719564	11	0.1590836	0.0075194	-327.6853
	11	23	8015.625	0.0304504	0.0282381	1	0.0415285	42.84126	-1.918801E-005	3.719557	11	0.1590587	0.0066052	-327.6853
	12	25	6328.125	0.0291159	0.0226565	1	0.0368925	37.88823	-3.059616E-005	3.719557	11	0.1590267	0.0058667	-327.6853
	13	27	5015.625	0.0281959	0.0180685	1	0.0334885	32.65251	-3.093097E-005	3.719564	11	0.1590158	0.0053251	-327.6853
	14	28	3984.375	0.0275868	0.0142858	1	0.0310663	27.37739	-1.551013E-005	3.719556	11	0.1590118	0.0049398	-327.6853
	15	30	3170.956	0.027223	0.0112135	1	0.029442	22.38735	-1.884601E-005	3.71955	11	0.1590054	0.0046814	-327.6853
	16	32	2527.573	0.0270541	0.0086425	1	0.028401	17.71631	-2.020434E-005	3.719536	11	0.159001	0.0045158	-327.6853
	17	33	1976.103	0.0270173	0.0064809	1	0.0277838	13.48928	-1.689198E-005	3.719536	11	0.1590044	0.0044177	-327.6853
	18	35	1577.524	0.0270971	0.0047909	1	0.0275174	10.02661	-2.103264E-005	3.719522	11	0.1589998	0.0043753	-327.6853
	19	36	1265.625	0.0272079	0.0035147	1	0.027434	7.36057	-2.360216E-005	3.71953	11	0.1589981	0.0043619	-327.6853
	20	38	998.264	0.0274124	0.0024333	1	0.0275202	5.072704	-2.027827E-005	3.719509	11	0.1590118	0.004376	-327.6853
	21	40	796.875	0.0276057	0.0015475	1	0.0276491	3.208495	-2.167374E-005	3.719504	11	0.1589899	0.0043959	-327.6853
	22	41	627.7902	0.0278498	0.0008023	1	0.0278614	1.65012	-2.130133E-005	3.7195	11	0.1589946	0.0044298	-327.6853
	23	43	505.5147	0.0280996	0.0002883	1	0.0281011	0.5878561	-1.604675E-005	3.719514	11	0.1576033	0.0044042	-327.6853
	24	44	397.9953	0.0283818	-0.0001488	1	0.0283822	-0.3004795	-1.975312E-005	3.719509	11	0.1606041	0.0045396	-327.6853
	25	46	315.5048	0.0286542	-0.0004875	1	0.0286583	-0.974617	-1.800456E-005	3.719508	11	0.1593353	0.0045534	-327.6853
	26	47	252.4038	0.0289211	-0.0007466	1	0.0289307	-1.478717	-1.84477E-005	3.719502	11	0.1589756	0.0045906	-327.6853
	27	49	198.6229	0.029211	-0.0009638	1	0.0292269	-1.889832	-1.897337E-005	3.7195	11	0.1588715	0.0046377	-327.6853
	28	50	158.3615	0.0294841	-0.0011156	1	0.0295052	-2.1669	-2.118689E-005	3.719495	11	0.1588907	0.0046844	-327.6853
	29	52	125.558	0.0297649	-0.0012393	1	0.0297907	-2.38424	-1.473597E-005	3.719485	11	0.1589123	0.0047318	-327.6853
	30	53	100.4464	0.0300388	-0.0013114	1	0.0300674	-2.49977	-2.129562E-005	3.719487	11	0.1589455	0.0047776	-327.6853
	31	55	79.00281	0.0303347	-0.001353	1	0.0303648	-2.553744	-1.912587E-005	3.719484	11	0.1589544	0.0048257	-327.6853
	32	56	63.3446	0.0305983	-0.0013586	1	0.0306284	-2.542378	-1.923484E-005	3.719481	11	0.1589739	0.0048685	-327.6853
	33	58	50.22321	0.0308512	-0.0013363	1	0.0308801	-2.480252	-2.512638E-005	3.719476	11	0.1589862	0.0049091	-327.6853
	34	60	38.42213	0.0311379	-0.0012779	1	0.0311641	-2.350159	-1.74389E-005	3.719467	11	0.1589842	0.0049544	-327.6853
	35	61	31.25	0.0313395	-0.0012216	1	0.0313633	-2.23217	-4.428835E-005	3.719468	11	0.1589913	0.0049863	-327.6853
	36	63	24.93351	0.0315221	-0.0011396	1	0.0315427	-2.070436	-3.812637E-005	3.71946	11	0.1589998	0.0050152	-327.6853
	37	64	19.86229	0.0316927	-0.0010577	1	0.0317104	-1.911507	-4.685088E-005	3.719461	11	0.1589798	0.0050413	-327.6853
	38	66	15.625	0.0318449	-0.0009665	1	0.0318596	-1.738388	-3.619352E-006	3.719441	11	0.1589979	0.0050656	-327.6853
	39	67	12.40079	0.0319629	-0.0008822	1	0.0319751	-1.580959	1.616892E-006	3.719451	11	0.1589995	0.005084	-327.6853
	40	69	9.93114	0.0320615	-0.0008184	1	0.032072	-1.462291	6.343354E-006	3.719453	11	0.1590032	0.0050995	-327.6853
	41	70	7.944915	0.0321466	-0.0007744	1	0.0321559	-1.379925	-4.456134E-005	3.719441	11	0.1589998	0.0051128	-327.6853
	42	72	6.317385	0.0322207	-0.00073	1	0.0322289	-1.297815	3.163202E-005	3.719457	11	0.1589838	0.0051239	-327.6853
	43	74	5.008013	0.0322906	-0.0007182	1	0.0322986	-1.274131	-6.134133E-005	3.719461	11	0.1590136	0.0051359	-327.6853
	44	77	3.945707	0.0323621	-0.0006992	1	0.0323697	-1.237767	-2.327957E-005	3.71945	11	0.1590146	0.0051472	-327.6853
	45	79	3.158693	0.0324309	-0.0007209	1	0.0324389	-1.273385	-0.0001023	3.719457	11	0.158976	0.005157	-327.6853
	46	81	2.504006	0.0325225	-0.0007502	1	0.0325311	-1.321452	-6.060454E-005	3.719466	11	0.1554247	0.0050351	-327.6853
	47	84	1.998082	0.0325979	-0.0007859	1	0.0326073	-1.381	-7.348863E-007	3.719471	11	0.1613435	0.0052451	-327.6853
	48	88	1.584686	0.0326791	-0.0008524	1	0.0326902	-1.494128	0.000195	3.719451	11	0.1599837	0.0052193	-327.6853
	49	93	1.266892	0.0327587	-0.0009132	1	0.0327714	-1.59675	-0.0001478	3.719367	11	0.1592558	0.005212	-327.6853
	50	99	0.999041	0.0328792	-0.0010105	1	0.0328947	-1.760296	-8.857794E-005	3.719341	11	0.1590504	0.0052274	-327.6853
	51	104	0.7923428	0.03302	-0.0011043	1	0.0330384	-1.915402	-3.792398E-005	3.719412	11	0.1592942	0.0052599	-327.6853
	52	112	0.6334459	0.0331427	-0.0012311	1	0.0331656	-2.127266	-3.898572E-005	3.719375	11	0.1589833	0.0052709	-327.6853
	53	122	0.5040323	0.0333003	-0.001356	1	0.0333279	-2.331847	-3.903935E-005	3.719349	11	0.1589823	0.0052974	-327.6853
	54	131	0.400641	0.0334718	-0.0015185	1	0.0335062	-2.597471	-3.823401E-005	3.719318	11	0.1589862	0.0053263	-327.6853
	55	145	0.316723	0.0336664	-0.0016887	1	0.0337087	-2.871544	-3.697944E-005	3.719297	11	0.1589895	0.0053589	-327.6853
	56	159	0.2520161	0.0338772	-0.0018735	1	0.0339289	-3.165388	-3.772088E-005	3.719258	11	0.1589937	0.0053942	-327.6853
	57	181	0.2003205	0.034111	-0.0020903	1	0.034175	-3.506702	-3.773034E-005	3.719206	11	0.1589954	0.0054335	-327.6853
	58	207	0.1588983	0.0343743	-0.0023355	1	0.0344535	-3.886815	-4.161944E-005	3.719162	11	0.1589965	0.0054779	-327.6853
	59	232	0.1260081	0.0346725	-0.0026049	1	0.0347702	-4.296462	-3.921355E-005	3.719203	11	0.1590002	0.0055284	-327.6853
	60	271	0.1001603	0.0350378	-0.0029099	1	0.0351585	-4.747455	-3.600871E-005	3.719322	11	0.1589983	0.0055901	-327.6853
	61	317	0.0794492	0.0354113	-0.0032656	1	0.0355615	-5.268806	-3.945593E-005	3.719423	11	0.1590002	0.0056543	-327.6853
	62	369	0.0631739	0.0357244	-0.0036558	1	0.035911	-5.842938	-4.061144E-005	3.719209	11	0.1589985	0.0057098	-327.6853
	63	418	0.0501337	0.0361248	-0.0041157	1	0.0363585	-6.499678	-4.021827E-005	3.719092	11	0.159001	0.005781	-327.6853
	64	479	0.0398258	0.0365481	-0.0046543	1	0.0368432	-7.2574	-3.839484E-005	3.718951	11	0.1589993	0.005858	-327.6853
	65	581	0.0316296	0.0370281	-0.0052846	1	0.0374033	-8.12227	-4.051311E-005	3.71881	11	0.159	0.0059471	-327.6853
	66	709	0.0251206	0.0375355	-0.0060437	1	0.038019	-9.146862	-4.0239E-005	3.718669	11	0.159	0.006045	-327.6853
	67	870	0.0199553	0.0381205	-0.0069507	1	0.038749	-10.33351	-3.826855E-005	3.718529	11	0.1590001	0.0061611	-327.6853
	68	1072	0.0158522	0.0388042	-0.0080442	1	0.0396292	-11.71165	-3.986102E-005	3.71839	11	0.1589999	0.006301	-327.6853
	69	1326	0.0125907	0.0396379	-0.0093334	1	0.040722	-13.2498	-3.983197E-005	3.7183	11	0.1589997	0.0064748	-327.6853
	70	1566	0.0100011	0.0406461	-0.0108624	1	0.0420725	-14.96231	-4.094045E-005	3.718193	11	0.1590001	0.0066895	-327.6853
