EXPLAIN
TAG	GALVEIS
TITLE	LABEL	Galvanostatic EIS	Test Identifier
DATE	LABEL	29.3.2024	Date
TIME	LABEL	19:31:52	Time
NOTES	NOTES	1	Notes...
	
PSTAT	PSTAT	REF600-12055	Potentiostat
FREQINIT	QUANT	1.00000E+005	Initial Freq. (Hz)
FREQFINAL	QUANT	1.00000E-002	Final Freq. (Hz)
PTSPERDEC	QUANT	1.00000E+001	Points/decade
IACREQ	QUANT	1.59000E-001	AC Current (A rms)
IDCREQ	QUANT	0.00000E+000	DC Current (A)
AREA	QUANT	1.00000E+000	Sample Area (cm^2)
SPEED	SELECTOR	1	Optimize for:
DRIFTCOR	SELECTOR	0	Drift Correction
THD	SELECTOR	0	THD
ZGUESS	QUANT	1.00000E-001	Estimated Z (ohms)
EOC	QUANT	3.635952	Open Circuit (V)
SEQUENCER	TOGGLE	TRUE	Run as Sequence
PSTATMODEL	IQUANT	4	Pstat Model
PSTATSECTION	LABEL	REF600-12055	Pstat Section
PSTATSERIALNO	LABEL	12055	Pstat Serial Number
CTRLMODE	IQUANT	0	Control Mode
ELECTROMETER	IQUANT	0	RE=0 or CS=1
IESTAB	IQUANT	0	I/E Stability
CASPEED	IQUANT	4	Control Amp Speed
CONVENTION	IQUANT	1	Current Convention
ICHRANGE	IQUANT	2	Ich Range
ICHRANGEMODE	TOGGLE	F	Ich Auto Range
ICHOFFSETENABLE	TOGGLE	T	Ich Offset Enable
ICHOFFSET	QUANT	0	Ich Offset (V)
ICHFILTER	IQUANT	3	Ich Filter
VCHRANGE	IQUANT	2	Vch Range
VCHRANGEMODE	TOGGLE	F	Vch Auto Range
VCHOFFSETENABLE	TOGGLE	T	Vch Offset Enable
VCHOFFSET	QUANT	0	Vch Offset (V)
VCHFILTER	IQUANT	3	Vch Filter
ACHRANGE	IQUANT	2	Ach Range
ACHOFFSETENABLE	TOGGLE	F	Ach Offset Enable
ACHOFFSET	QUANT	0	Ach Offset (V)
ACHFILTER	IQUANT	1	Ach Filter
IERANGELOWERLIMIT	IQUANT	1	I/E Range Lower Limit
IERANGEMODE	TOGGLE	F	I/E AutoRange
IERANGE	IQUANT	7	I/E Range
POSFEEDENABLE	TOGGLE	F	Positive Feedback IR Comp
POSFEEDRESISTANCE	QUANT	0	Positive Feedback Resistance (ohm)
ACHSELECT	IQUANT	4	Ach Select
SENSECABLEID	IQUANT	14	Sense Cable ID
PWRCABLEID	IQUANT	14	Power Cable ID
DCCALDATE	LABEL	2/12/2024	DC Calibration Date
ACCALDATE	LABEL	2/12/2024	AC Calibration Date
THERMOSELECT	IQUANT	1	Thermo Select
FRAMEWORKVERSION	LABEL	7.10.3	Framework Version
INSTRUMENTVERSION	LABEL	4.91	Instrument Version
COMMVERSION	LABEL	2.24	Communications Version
CPUPLDVERSION	LABEL	0.00	CPU PLD Version
CTRLPLDVERSION	LABEL	0.00	CTRL PLD Version
PSTATPLDVERSION	LABEL	0.00	PSTAT PLD Version
ZCURVE	TABLE
	Pt	Time	Freq	Zreal	Zimag	Zsig	Zmod	Zphz	Idc	Vdc	IERange	Imod	Vmod	Temp
	#	s	Hz	ohm	ohm	V	ohm	°	A	V	#	A	V	°C
	0	5	100078.1	0.1036889	0.2368709	1	0.2585715	66.35886	2.21571E-005	3.635707	11	0.1596732	0.0409864	-327.6853
	1	6	79453.13	0.0864581	0.1972015	1	0.2153217	66.32613	1.172011E-006	3.635687	11	0.1642962	0.035213	-327.6853
	2	8	63140.62	0.0729581	0.1636221	1	0.179151	65.96818	-9.74338E-006	3.63569	11	0.1619723	0.028932	-327.6853
	3	10	50203.12	0.0625008	0.1353076	1	0.1490453	65.20699	-1.300091E-005	3.635694	11	0.1609387	0.0239421	-327.6853
	4	12	39890.62	0.0544944	0.1114893	1	0.1240947	63.95125	-7.821363E-006	3.635685	11	0.1602795	0.0198661	-327.6853
	5	13	31640.63	0.0483416	0.0915877	1	0.1035626	62.17414	-1.030663E-005	3.635686	11	0.1598372	0.0165407	-327.6853
	6	15	25171.88	0.0436774	0.0754241	1	0.087158	59.92528	-1.252501E-005	3.635683	11	0.1595442	0.0138989	-327.6853
	7	17	20015.62	0.0399495	0.0621504	1	0.0738826	57.26762	-1.830635E-005	3.635672	11	0.1593545	0.01177	-327.6853
	8	18	15890.62	0.0368662	0.051165	1	0.0630632	54.22588	-1.524341E-005	3.635666	11	0.1592254	0.0100394	-327.6853
	9	20	12609.38	0.0342863	0.042056	1	0.054261	50.81121	-1.613301E-005	3.635658	11	0.1591468	0.0086344	-327.6853
	10	22	10078.13	0.0321963	0.0346485	1	0.0472982	47.10097	-1.737569E-005	3.635655	11	0.1590854	0.0075239	-327.6853
	11	23	8015.625	0.0304874	0.0282346	1	0.0415533	42.80302	-1.441612E-005	3.635653	11	0.159056	0.006609	-327.6853
	12	25	6328.125	0.0291585	0.0226486	1	0.0369212	37.83792	-2.129585E-005	3.635653	11	0.1590288	0.0058714	-327.6853
	13	27	5015.625	0.0282342	0.0180696	1	0.0335213	32.61877	-1.800225E-005	3.635634	11	0.1590125	0.0053302	-327.6853
	14	28	3984.375	0.0276286	0.0142984	1	0.0311092	27.36248	-1.958001E-005	3.635642	11	0.1590138	0.0049467	-327.6853
	15	30	3170.956	0.0272656	0.011165	1	0.029463	22.26858	-1.43213E-005	3.635642	11	0.1590001	0.0046846	-327.6853
	16	31	2527.573	0.0271064	0.0086334	1	0.028448	17.66666	-2.147874E-005	3.635644	11	0.1590047	0.0045233	-327.6853
	17	33	1976.103	0.0270613	0.0064632	1	0.0278225	13.43253	-2.045464E-005	3.635628	11	0.1590089	0.004424	-327.6853
	18	35	1577.524	0.0271368	0.0047559	1	0.0275504	9.94056	-1.912622E-005	3.635634	11	0.1589925	0.0043803	-327.6853
	19	36	1265.625	0.027277	0.0035187	1	0.027503	7.350511	-2.757163E-005	3.635623	11	0.1590063	0.0043732	-327.6853
	20	38	998.264	0.0274582	0.002322	1	0.0275562	4.833805	-1.744798E-005	3.635618	11	0.1589933	0.0043812	-327.6853
	21	40	796.875	0.0276641	0.0014687	1	0.027703	3.038938	-1.890736E-005	3.635622	11	0.1589963	0.0044047	-327.6853
	22	41	627.7902	0.0279151	0.0008347	1	0.0279275	1.712699	-1.786428E-005	3.635623	11	0.1590159	0.0044409	-327.6853
	23	43	505.5147	0.0281678	0.0002552	1	0.0281689	0.5190254	-2.045592E-005	3.635621	11	0.1575949	0.0044146	-327.6853
	24	44	397.9953	0.0284617	-0.0001854	1	0.0284623	-0.3732282	-2.90419E-005	3.635617	11	0.1606004	0.0045523	-327.6853
	25	46	315.5048	0.0287333	-0.0005303	1	0.0287382	-1.057325	-1.353142E-005	3.635614	11	0.1593384	0.0045662	-327.6853
	26	47	252.4038	0.0290047	-0.0007922	1	0.0290155	-1.564475	-2.420903E-005	3.635613	11	0.158965	0.0046037	-327.6853
	27	49	198.6229	0.0293061	-0.0010142	1	0.0293236	-1.982005	-1.866318E-005	3.635609	11	0.1588823	0.0046534	-327.6853
	28	50	158.3615	0.0295862	-0.0011779	1	0.0296097	-2.279907	-1.826254E-005	3.635604	11	0.1588868	0.0047009	-327.6853
	29	52	125.558	0.029877	-0.0013018	1	0.0299054	-2.494878	-2.499088E-005	3.635601	11	0.1589092	0.0047499	-327.6853
	30	53	100.4464	0.0301614	-0.0013801	1	0.030193	-2.619877	-2.301414E-005	3.635598	11	0.1589488	0.0047976	-327.6853
	31	55	79.00281	0.0304619	-0.0014269	1	0.0304953	-2.681937	-2.235314E-005	3.635597	11	0.1589507	0.0048463	-327.6853
	32	57	63.3446	0.0307338	-0.001445	1	0.0307677	-2.691799	-2.157863E-005	3.635592	11	0.1589774	0.0048908	-327.6853
	33	58	50.22321	0.0310145	-0.0014194	1	0.0310469	-2.620293	-3.821286E-005	3.635592	11	0.1589854	0.0049356	-327.6853
	34	60	38.42213	0.0313155	-0.0013664	1	0.0313453	-2.498437	-2.960657E-005	3.635584	11	0.1589855	0.0049832	-327.6853
	35	61	31.25	0.0315214	-0.0013003	1	0.0315482	-2.36224	-2.93561E-005	3.635584	11	0.1589996	0.005016	-327.6853
	36	63	24.93351	0.0317334	-0.0012143	1	0.0317566	-2.191344	-1.809796E-005	3.635585	11	0.1589887	0.0050488	-327.6853
	37	64	19.86229	0.0319101	-0.0011312	1	0.0319302	-2.030251	-3.873603E-006	3.635587	11	0.1589912	0.0050766	-327.6853
	38	66	15.625	0.0320849	-0.001024	1	0.0321013	-1.828064	-1.048902E-006	3.635574	11	0.158985	0.0051036	-327.6853
	39	67	12.40079	0.0322084	-0.0009332	1	0.0322219	-1.659534	2.61981E-006	3.635586	11	0.1590006	0.0051233	-327.6853
	40	69	9.93114	0.0323207	-0.0008596	1	0.0323322	-1.523452	-2.548331E-007	3.635587	11	0.1589998	0.0051408	-327.6853
	41	71	7.944915	0.0324062	-0.0008065	1	0.0324163	-1.425692	-3.974559E-005	3.635569	11	0.1589967	0.0051541	-327.6853
	42	72	6.317385	0.0324876	-0.000743	1	0.0324961	-1.310203	-0.0001026	3.635566	11	0.15902	0.0051675	-327.6853
	43	74	5.008013	0.0325686	-0.0007152	1	0.0325764	-1.257983	-4.661398E-005	3.63558	11	0.1589943	0.0051795	-327.6853
	44	77	3.945707	0.0326393	-0.0006965	1	0.0326467	-1.22255	1.53617E-005	3.635561	11	0.1589814	0.0051902	-327.6853
	45	80	3.158693	0.0327015	-0.0006977	1	0.032709	-1.222178	8.434989E-005	3.635538	11	0.1589795	0.0052001	-327.6853
	46	82	2.504006	0.0327799	-0.000697	1	0.0327873	-1.218029	-3.706577E-005	3.635522	11	0.1554675	0.0050762	-327.6853
	47	86	1.998082	0.0328486	-0.0007321	1	0.0328568	-1.276769	0.0002093	3.635535	11	0.1614502	0.0052888	-327.6853
	48	89	1.584686	0.0329285	-0.0007784	1	0.0329377	-1.354197	8.631311E-005	3.635523	11	0.1597832	0.0052522	-327.6853
	49	95	1.266892	0.0330169	-0.0008254	1	0.0330272	-1.43202	-0.0001865	3.635542	11	0.1593432	0.0052556	-327.6853
	50	100	0.999041	0.0331156	-0.0008913	1	0.0331276	-1.541751	-0.0002159	3.635511	11	0.1591235	0.0052668	-327.6853
	51	105	0.7923428	0.0332398	-0.0009851	1	0.0332544	-1.697537	-4.092063E-005	3.635523	11	0.1592063	0.0052914	-327.6853
	52	111	0.6334459	0.0333601	-0.0010701	1	0.0333772	-1.837298	-3.840946E-005	3.635508	11	0.1589846	0.0053046	-327.6853
	53	119	0.5040323	0.033501	-0.0011766	1	0.0335216	-2.011537	-3.77851E-005	3.63549	11	0.1589826	0.0053282	-327.6853
	54	129	0.400641	0.0336519	-0.0012889	1	0.0336766	-2.193424	-3.954192E-005	3.635473	11	0.1589855	0.0053533	-327.6853
	55	140	0.316723	0.0338135	-0.0014177	1	0.0338432	-2.400851	-3.749979E-005	3.635457	11	0.15899	0.0053802	-327.6853
	56	154	0.2520161	0.0339976	-0.0015652	1	0.0340336	-2.63599	-3.850946E-005	3.635437	11	0.1589935	0.0054108	-327.6853
	57	172	0.2003205	0.0341874	-0.0017265	1	0.0342309	-2.891107	-3.959506E-005	3.635397	11	0.1589961	0.0054424	-327.6853
	58	198	0.1588983	0.0344011	-0.0019082	1	0.034454	-3.174868	-4.016813E-005	3.635355	11	0.1589979	0.005478	-327.6853
	59	230	0.1260081	0.034648	-0.0021178	1	0.0347127	-3.497718	-3.976192E-005	3.635385	11	0.1589981	0.0055192	-327.6853
	60	268	0.1001603	0.0349327	-0.0023497	1	0.0350116	-3.848069	-3.378219E-005	3.635472	11	0.1589993	0.0055668	-327.6853
	61	314	0.0794492	0.0352553	-0.0026199	1	0.0353525	-4.249959	-4.253755E-005	3.635582	11	0.1589998	0.005621	-327.6853
	62	353	0.0631739	0.0354967	-0.0029294	1	0.0356173	-4.717691	-4.362731E-005	3.635402	11	0.1589984	0.0056631	-327.6853
	63	402	0.0501337	0.0357875	-0.0032969	1	0.0359391	-5.26343	-3.852139E-005	3.635272	11	0.1590014	0.0057143	-327.6853
	64	484	0.0398258	0.0361474	-0.003725	1	0.0363388	-5.883544	-3.869415E-005	3.635176	11	0.1590006	0.0057779	-327.6853
	65	561	0.0316296	0.0365136	-0.0042136	1	0.0367559	-6.582691	-3.877769E-005	3.635094	11	0.1589991	0.0058441	-327.6853
	66	657	0.0251206	0.0369657	-0.0048087	1	0.0372772	-7.411688	-3.829107E-005	3.635005	11	0.1589999	0.0059271	-327.6853
	67	778	0.0199553	0.0374315	-0.0055189	1	0.0378362	-8.387319	-3.91718E-005	3.634894	11	0.1590001	0.006016	-327.6853
	68	930	0.0158522	0.0380246	-0.0063451	1	0.0385503	-9.473617	-3.538517E-005	3.634833	11	0.1589991	0.0061295	-327.6853
	69	1121	0.0125907	0.0387127	-0.0073423	1	0.0394028	-10.73926	-3.979683E-005	3.634725	11	0.1590011	0.0062651	-327.6853
	70	1361	0.0100011	0.0395624	-0.0084558	1	0.0404559	-12.06454	-4.040201E-005	3.634608	11	0.1590006	0.0064325	-327.6853
