EXPLAIN
TAG	GALVEIS
TITLE	LABEL	Galvanostatic EIS	Test Identifier
DATE	LABEL	29.3.2024	Date
TIME	LABEL	15:29:54	Time
NOTES	NOTES	1	Notes...
	
PSTAT	PSTAT	REF600-12055	Potentiostat
FREQINIT	QUANT	1.00000E+005	Initial Freq. (Hz)
FREQFINAL	QUANT	1.00000E-002	Final Freq. (Hz)
PTSPERDEC	QUANT	1.00000E+001	Points/decade
IACREQ	QUANT	1.59000E-001	AC Current (A rms)
IDCREQ	QUANT	0.00000E+000	DC Current (A)
AREA	QUANT	1.00000E+000	Sample Area (cm^2)
SPEED	SELECTOR	1	Optimize for:
DRIFTCOR	SELECTOR	0	Drift Correction
THD	SELECTOR	0	THD
ZGUESS	QUANT	1.00000E-001	Estimated Z (ohms)
EOC	QUANT	3.398876	Open Circuit (V)
SEQUENCER	TOGGLE	TRUE	Run as Sequence
PSTATMODEL	IQUANT	4	Pstat Model
PSTATSECTION	LABEL	REF600-12055	Pstat Section
PSTATSERIALNO	LABEL	12055	Pstat Serial Number
CTRLMODE	IQUANT	0	Control Mode
ELECTROMETER	IQUANT	0	RE=0 or CS=1
IESTAB	IQUANT	0	I/E Stability
CASPEED	IQUANT	4	Control Amp Speed
CONVENTION	IQUANT	1	Current Convention
ICHRANGE	IQUANT	2	Ich Range
ICHRANGEMODE	TOGGLE	F	Ich Auto Range
ICHOFFSETENABLE	TOGGLE	T	Ich Offset Enable
ICHOFFSET	QUANT	0	Ich Offset (V)
ICHFILTER	IQUANT	3	Ich Filter
VCHRANGE	IQUANT	2	Vch Range
VCHRANGEMODE	TOGGLE	F	Vch Auto Range
VCHOFFSETENABLE	TOGGLE	T	Vch Offset Enable
VCHOFFSET	QUANT	0	Vch Offset (V)
VCHFILTER	IQUANT	3	Vch Filter
ACHRANGE	IQUANT	2	Ach Range
ACHOFFSETENABLE	TOGGLE	F	Ach Offset Enable
ACHOFFSET	QUANT	0	Ach Offset (V)
ACHFILTER	IQUANT	1	Ach Filter
IERANGELOWERLIMIT	IQUANT	1	I/E Range Lower Limit
IERANGEMODE	TOGGLE	F	I/E AutoRange
IERANGE	IQUANT	7	I/E Range
POSFEEDENABLE	TOGGLE	F	Positive Feedback IR Comp
POSFEEDRESISTANCE	QUANT	0	Positive Feedback Resistance (ohm)
ACHSELECT	IQUANT	4	Ach Select
SENSECABLEID	IQUANT	14	Sense Cable ID
PWRCABLEID	IQUANT	14	Power Cable ID
DCCALDATE	LABEL	2/12/2024	DC Calibration Date
ACCALDATE	LABEL	2/12/2024	AC Calibration Date
THERMOSELECT	IQUANT	1	Thermo Select
FRAMEWORKVERSION	LABEL	7.10.3	Framework Version
INSTRUMENTVERSION	LABEL	4.91	Instrument Version
COMMVERSION	LABEL	2.24	Communications Version
CPUPLDVERSION	LABEL	0.00	CPU PLD Version
CTRLPLDVERSION	LABEL	0.00	CTRL PLD Version
PSTATPLDVERSION	LABEL	0.00	PSTAT PLD Version
ZCURVE	TABLE
	Pt	Time	Freq	Zreal	Zimag	Zsig	Zmod	Zphz	Idc	Vdc	IERange	Imod	Vmod	Temp
	#	s	Hz	ohm	ohm	V	ohm	°	A	V	#	A	V	°C
	0	5	100078.1	0.1036164	0.2378171	1	0.2594096	66.45734	2.603978E-005	3.398732	11	0.1596659	0.0411173	-327.6853
	1	7	79453.13	0.0864912	0.1979079	1	0.2159821	66.39334	1.175841E-005	3.398703	11	0.1642924	0.0353202	-327.6853
	2	8	63140.62	0.0730662	0.1641339	1	0.1796625	66.00317	3.499037E-006	3.398709	11	0.1619665	0.0290136	-327.6853
	3	10	50203.12	0.0626687	0.1356923	1	0.1494649	65.21043	-5.806156E-006	3.398692	11	0.1609028	0.0240041	-327.6853
	4	12	39890.62	0.0546939	0.1117852	1	0.1244482	63.92857	-7.375842E-006	3.398679	11	0.1602737	0.0199219	-327.6853
	5	14	31640.63	0.0485837	0.09182	1	0.1038811	62.11585	-9.946642E-006	3.398675	11	0.1598385	0.0165916	-327.6853
	6	15	25171.88	0.0439238	0.0756108	1	0.0874431	59.84686	-1.34703E-005	3.398672	11	0.1595432	0.0139443	-327.6853
	7	17	20015.62	0.0402094	0.0623007	1	0.0741497	57.16149	-1.607987E-005	3.398653	11	0.1593492	0.0118121	-327.6853
	8	19	15890.62	0.0371371	0.051279	1	0.0633143	54.08734	-1.910212E-005	3.398639	11	0.1592271	0.0100794	-327.6853
	9	20	12609.38	0.0345584	0.0421432	1	0.0545008	50.64745	-1.873489E-005	3.398624	11	0.1591416	0.0086723	-327.6853
	10	22	10078.13	0.0324745	0.0347116	1	0.0475341	46.90705	-2.003217E-005	3.398616	11	0.1590845	0.0075614	-327.6853
	11	24	8015.625	0.0307648	0.0282829	1	0.04179	42.59316	-1.779781E-005	3.398602	11	0.1590534	0.0066465	-327.6853
	12	25	6328.125	0.0294353	0.0226875	1	0.0371639	37.6236	-2.098607E-005	3.398601	11	0.1590338	0.0059101	-327.6853
	13	27	5015.625	0.0285154	0.0180787	1	0.0337634	32.37471	-2.867426E-005	3.398586	11	0.1590104	0.0053686	-327.6853
	14	29	3984.375	0.027902	0.0142862	1	0.0313467	27.11302	-1.625065E-005	3.398598	11	0.1590118	0.0049844	-327.6853
	15	30	3170.956	0.0275397	0.011188	1	0.0297255	22.10937	-2.222054E-005	3.398588	11	0.1590066	0.0047265	-327.6853
	16	32	2527.573	0.0273734	0.0085956	1	0.0286912	17.43305	-2.053997E-005	3.398563	11	0.1590022	0.0045619	-327.6853
	17	34	1976.103	0.0273414	0.0063722	1	0.0280741	13.11919	-1.631438E-005	3.398562	11	0.1590038	0.0044639	-327.6853
	18	35	1577.524	0.0274323	0.0047173	1	0.027835	9.75727	-1.923583E-005	3.398554	11	0.1589997	0.0044257	-327.6853
	19	37	1265.625	0.0275522	0.0033751	1	0.0277581	6.983817	-1.728337E-005	3.398549	11	0.1589977	0.0044135	-327.6853
	20	38	998.264	0.0277582	0.0022293	1	0.0278475	4.591609	-2.045254E-005	3.398528	11	0.1589988	0.0044277	-327.6853
	21	40	796.875	0.0279709	0.00136	1	0.028004	2.783678	-2.408074E-005	3.398534	11	0.159005	0.0044528	-327.6853
	22	41	627.7902	0.0282481	0.0006778	1	0.0282562	1.374542	-1.645857E-005	3.398524	11	0.1590085	0.004493	-327.6853
	23	43	505.5147	0.0285023	6.581395E-005	1	0.0285024	0.1323	-1.801849E-005	3.398518	11	0.157592	0.0044668	-327.6853
	24	44	397.9953	0.0288189	-0.0004166	1	0.0288219	-0.8281429	-1.763483E-005	3.398509	11	0.160599	0.0046098	-327.6853
	25	46	315.5048	0.0291195	-0.0007955	1	0.0291304	-1.564751	-1.523469E-005	3.398497	11	0.1593364	0.0046285	-327.6853
	26	47	252.4038	0.0294167	-0.0010995	1	0.0294372	-2.140503	-1.786242E-005	3.398486	11	0.1589691	0.0046708	-327.6853
	27	49	198.6229	0.0297417	-0.0013791	1	0.0297736	-2.654813	-2.823246E-005	3.398482	11	0.1588809	0.0047248	-327.6853
	28	50	158.3615	0.0300563	-0.0016016	1	0.030099	-3.050232	-1.824915E-005	3.39847	11	0.1588911	0.0047787	-327.6853
	29	52	125.558	0.0303849	-0.0017876	1	0.0304375	-3.367009	-2.082868E-005	3.398463	11	0.1589068	0.0048343	-327.6853
	30	53	100.4464	0.0307051	-0.0019488	1	0.0307669	-3.631669	-3.529433E-005	3.398453	11	0.1589469	0.0048887	-327.6853
	31	55	79.00281	0.031062	-0.002106	1	0.0311333	-3.878664	-2.842839E-005	3.398451	11	0.1589559	0.0049478	-327.6853
	32	57	63.3446	0.0313947	-0.0022411	1	0.0314746	-4.08316	-2.409844E-005	3.398439	11	0.1589747	0.005003	-327.6853
	33	58	50.22321	0.0317458	-0.0023714	1	0.0318342	-4.272073	-1.953664E-005	3.398434	11	0.1589803	0.0050606	-327.6853
	34	60	38.42213	0.0321702	-0.0025229	1	0.032269	-4.484236	-1.754187E-005	3.398426	11	0.1589888	0.0051302	-327.6853
	35	61	31.25	0.0324981	-0.0026473	1	0.0326057	-4.657032	-1.202477E-005	3.398411	11	0.1589959	0.005184	-327.6853
	36	63	24.93351	0.0328677	-0.002794	1	0.0329862	-4.85892	-2.078165E-005	3.398404	11	0.1589941	0.0052445	-327.6853
	37	65	19.86229	0.0332489	-0.0029478	1	0.0333793	-5.066475	-3.770221E-005	3.398379	11	0.1589935	0.005307	-327.6853
	38	66	15.625	0.0337227	-0.0031531	1	0.0338698	-5.34166	-3.111851E-005	3.398402	11	0.158986	0.0053848	-327.6853
	39	68	12.40079	0.0341889	-0.0033282	1	0.0343505	-5.560124	-4.579336E-005	3.398368	11	0.158997	0.0054616	-327.6853
	40	69	9.93114	0.0346813	-0.0035401	1	0.0348615	-5.828222	-3.853702E-005	3.398357	11	0.1590127	0.0055434	-327.6853
	41	71	7.944915	0.0352565	-0.0037336	1	0.0354536	-6.045047	3.050198E-006	3.398345	11	0.1590028	0.0056372	-327.6853
	42	72	6.317385	0.0359015	-0.0038999	1	0.0361127	-6.199521	-0.0001053	3.398321	11	0.159009	0.0057422	-327.6853
	43	75	5.008013	0.0366118	-0.0040134	1	0.0368311	-6.25576	2.808287E-005	3.39831	11	0.158968	0.005855	-327.6853
	44	77	3.945707	0.0373531	-0.0040589	1	0.037573	-6.201668	6.112619E-006	3.398293	11	0.1589971	0.005974	-327.6853
	45	79	3.158693	0.0380662	-0.0040208	1	0.0382779	-6.02955	7.181778E-005	3.398265	11	0.1589917	0.0060859	-327.6853
	46	82	2.504006	0.0387669	-0.0038875	1	0.0389613	-5.72644	-3.703887E-005	3.398247	11	0.1554551	0.0060316	-327.6853
	47	86	1.998082	0.0393895	-0.0037238	1	0.0395651	-5.400612	0.0002367	3.398266	11	0.1614833	0.0063699	-327.6853
	48	89	1.584686	0.0399802	-0.0035159	1	0.0401345	-5.025765	0.000158	3.398234	11	0.159802	0.0064005	-327.6853
	49	93	1.266892	0.040484	-0.0032879	1	0.0406173	-4.643104	-0.0002283	3.398249	11	0.1593404	0.0064632	-327.6853
	50	98	0.999041	0.040938	-0.0030902	1	0.0410545	-4.316755	-0.0002536	3.398202	11	0.1591211	0.006527	-327.6853
	51	104	0.7923428	0.041352	-0.0029068	1	0.0414541	-4.021001	-3.726868E-005	3.398205	11	0.1591553	0.006594	-327.6853
	52	110	0.6334459	0.0416939	-0.0027669	1	0.0417856	-3.796739	-3.907116E-005	3.398162	11	0.1589831	0.0066409	-327.6853
	53	120	0.5040323	0.0420072	-0.0026588	1	0.0420913	-3.621654	-3.784764E-005	3.398113	11	0.1589827	0.0066903	-327.6853
	54	131	0.400641	0.0423126	-0.0025959	1	0.0423921	-3.510749	-3.988572E-005	3.398063	11	0.1589861	0.0067388	-327.6853
	55	143	0.316723	0.0426121	-0.0025727	1	0.0426897	-3.454973	-4.778491E-005	3.398012	11	0.1589907	0.0067867	-327.6853
	56	157	0.2520161	0.0428882	-0.0025931	1	0.0429665	-3.459943	-3.868685E-005	3.397937	11	0.158993	0.006831	-327.6853
	57	178	0.2003205	0.043166	-0.0026671	1	0.0432483	-3.535676	-4.230264E-005	3.397851	11	0.1589964	0.0068761	-327.6853
	58	200	0.1588983	0.0434531	-0.0028018	1	0.0435433	-3.689274	-4.161417E-005	3.397762	11	0.1589978	0.0069231	-327.6853
	59	225	0.1260081	0.0437583	-0.0029878	1	0.0438601	-3.906136	-4.501336E-005	3.397743	11	0.1589976	0.0069736	-327.6853
	60	263	0.1001603	0.044114	-0.0032367	1	0.0442326	-4.196277	-3.916776E-005	3.397885	11	0.1589978	0.0070328	-327.6853
	61	299	0.0794492	0.0444669	-0.0035609	1	0.0446093	-4.578474	-3.930631E-005	3.398053	11	0.1590003	0.0070928	-327.6853
	62	339	0.0631739	0.0447451	-0.0039902	1	0.0449227	-5.095999	-3.932934E-005	3.397694	11	0.1590004	0.0071427	-327.6853
	63	404	0.0501337	0.0451336	-0.0045161	1	0.045359	-5.714001	-3.585049E-005	3.397456	11	0.1589984	0.007212	-327.6853
	64	465	0.0398258	0.0455775	-0.0051579	1	0.0458684	-6.456557	-4.661143E-005	3.397259	11	0.1590012	0.0072931	-327.6853
	65	542	0.0316296	0.0460782	-0.0059374	1	0.0464592	-7.34234	-3.818721E-005	3.397044	11	0.159	0.007387	-327.6853
	66	638	0.0251206	0.0466333	-0.0069173	1	0.0471435	-8.43734	-3.988005E-005	3.396745	11	0.1589991	0.0074958	-327.6853
	67	799	0.0199553	0.0473083	-0.0080921	1	0.0479954	-9.70658	-3.796585E-005	3.396472	11	0.158999	0.0076312	-327.6853
	68	951	0.0158522	0.0480758	-0.00952	1	0.0490094	-11.20086	-3.53013E-005	3.396164	11	0.1590003	0.0077925	-327.6853
	69	1205	0.0125907	0.0490828	-0.0112181	1	0.0503484	-12.87408	-3.963485E-005	3.395877	11	0.1590004	0.0080054	-327.6853
	70	1445	0.0100011	0.0502612	-0.0132205	1	0.0519709	-14.737	-3.852812E-005	3.395652	11	0.1590006	0.0082634	-327.6853
