EXPLAIN
TAG	GALVEIS
TITLE	LABEL	Galvanostatic EIS	Test Identifier
DATE	LABEL	29.3.2024	Date
TIME	LABEL	14:28:20	Time
NOTES	NOTES	1	Notes...
	
PSTAT	PSTAT	REF600-12055	Potentiostat
FREQINIT	QUANT	1.00000E+005	Initial Freq. (Hz)
FREQFINAL	QUANT	1.00000E-002	Final Freq. (Hz)
PTSPERDEC	QUANT	1.00000E+001	Points/decade
IACREQ	QUANT	1.59000E-001	AC Current (A rms)
IDCREQ	QUANT	0.00000E+000	DC Current (A)
AREA	QUANT	1.00000E+000	Sample Area (cm^2)
SPEED	SELECTOR	1	Optimize for:
DRIFTCOR	SELECTOR	0	Drift Correction
THD	SELECTOR	0	THD
ZGUESS	QUANT	1.00000E-001	Estimated Z (ohms)
EOC	QUANT	3.183353	Open Circuit (V)
SEQUENCER	TOGGLE	TRUE	Run as Sequence
PSTATMODEL	IQUANT	4	Pstat Model
PSTATSECTION	LABEL	REF600-12055	Pstat Section
PSTATSERIALNO	LABEL	12055	Pstat Serial Number
CTRLMODE	IQUANT	0	Control Mode
ELECTROMETER	IQUANT	0	RE=0 or CS=1
IESTAB	IQUANT	0	I/E Stability
CASPEED	IQUANT	4	Control Amp Speed
CONVENTION	IQUANT	1	Current Convention
ICHRANGE	IQUANT	2	Ich Range
ICHRANGEMODE	TOGGLE	F	Ich Auto Range
ICHOFFSETENABLE	TOGGLE	T	Ich Offset Enable
ICHOFFSET	QUANT	0	Ich Offset (V)
ICHFILTER	IQUANT	3	Ich Filter
VCHRANGE	IQUANT	2	Vch Range
VCHRANGEMODE	TOGGLE	F	Vch Auto Range
VCHOFFSETENABLE	TOGGLE	T	Vch Offset Enable
VCHOFFSET	QUANT	0	Vch Offset (V)
VCHFILTER	IQUANT	3	Vch Filter
ACHRANGE	IQUANT	2	Ach Range
ACHOFFSETENABLE	TOGGLE	F	Ach Offset Enable
ACHOFFSET	QUANT	0	Ach Offset (V)
ACHFILTER	IQUANT	1	Ach Filter
IERANGELOWERLIMIT	IQUANT	1	I/E Range Lower Limit
IERANGEMODE	TOGGLE	F	I/E AutoRange
IERANGE	IQUANT	7	I/E Range
POSFEEDENABLE	TOGGLE	F	Positive Feedback IR Comp
POSFEEDRESISTANCE	QUANT	0	Positive Feedback Resistance (ohm)
ACHSELECT	IQUANT	4	Ach Select
SENSECABLEID	IQUANT	14	Sense Cable ID
PWRCABLEID	IQUANT	14	Power Cable ID
DCCALDATE	LABEL	2/12/2024	DC Calibration Date
ACCALDATE	LABEL	2/12/2024	AC Calibration Date
THERMOSELECT	IQUANT	1	Thermo Select
FRAMEWORKVERSION	LABEL	7.10.3	Framework Version
INSTRUMENTVERSION	LABEL	4.91	Instrument Version
COMMVERSION	LABEL	2.24	Communications Version
CPUPLDVERSION	LABEL	0.00	CPU PLD Version
CTRLPLDVERSION	LABEL	0.00	CTRL PLD Version
PSTATPLDVERSION	LABEL	0.00	PSTAT PLD Version
ZCURVE	TABLE
	Pt	Time	Freq	Zreal	Zimag	Zsig	Zmod	Zphz	Idc	Vdc	IERange	Imod	Vmod	Temp
	#	s	Hz	ohm	ohm	V	ohm	°	A	V	#	A	V	°C
	0	5	100078.1	0.1032318	0.2383429	1	0.2597386	66.58146	2.815644E-005	3.183189	11	0.1596511	0.0411657	-327.6853
	1	7	79453.13	0.0862687	0.198267	1	0.2162223	66.48547	1.723506E-005	3.183199	11	0.164285	0.0353579	-327.6853
	2	9	63140.62	0.072956	0.1643864	1	0.1798485	66.06799	5.873837E-006	3.183201	11	0.1619511	0.0290408	-327.6853
	3	10	50203.12	0.0626548	0.1358671	1	0.1496178	65.24331	-1.179858E-005	3.18319	11	0.1609243	0.0240319	-327.6853
	4	12	39890.62	0.0547403	0.1119087	1	0.1245795	63.93436	-1.340022E-005	3.183179	11	0.1602732	0.0199429	-327.6853
	5	14	31640.63	0.0486625	0.0918983	1	0.1039872	62.09761	-2.284579E-005	3.183172	11	0.1598339	0.0166081	-327.6853
	6	15	25171.88	0.044037	0.0756526	1	0.0875361	59.7965	-1.460221E-005	3.183182	11	0.1595429	0.0139591	-327.6853
	7	17	20015.62	0.0403395	0.0623217	1	0.0742379	57.08587	-1.257937E-005	3.183167	11	0.1593564	0.0118267	-327.6853
	8	19	15890.62	0.0372803	0.0512893	1	0.0634067	53.98799	-1.529837E-005	3.183165	11	0.1592261	0.0100941	-327.6853
	9	20	12609.38	0.0347085	0.0421259	1	0.0545826	50.51411	-1.796812E-005	3.18317	11	0.1591362	0.008685	-327.6853
	10	22	10078.13	0.0326428	0.0346886	1	0.0476325	46.74033	-1.914089E-005	3.183168	11	0.1590836	0.007577	-327.6853
	11	24	8015.625	0.0309479	0.0282474	1	0.0419009	42.38798	-2.68608E-005	3.183164	11	0.1590533	0.0066642	-327.6853
	12	25	6328.125	0.029624	0.0226404	1	0.037285	37.3892	-2.915156E-005	3.183161	11	0.159035	0.0059294	-327.6853
	13	27	5015.625	0.0287031	0.0180307	1	0.0338965	32.13613	-2.475292E-005	3.183158	11	0.1590182	0.0053901	-327.6853
	14	28	3984.375	0.0281073	0.0142358	1	0.0315068	26.86128	-1.841527E-005	3.18316	11	0.1590064	0.0050097	-327.6853
	15	30	3170.956	0.0277545	0.0110974	1	0.0298909	21.79358	-2.092309E-005	3.183145	11	0.1590073	0.0047528	-327.6853
	16	32	2527.573	0.0275968	0.0085037	1	0.0288773	17.12623	-1.947861E-005	3.183143	11	0.1590025	0.0045915	-327.6853
	17	33	1976.103	0.0275741	0.006234	1	0.02827	12.73928	-1.948618E-005	3.183151	11	0.1589966	0.0044948	-327.6853
	18	35	1577.524	0.0276613	0.0046465	1	0.0280488	9.53553	-1.92353E-005	3.183147	11	0.1590093	0.00446	-327.6853
	19	37	1265.625	0.0278099	0.0032466	1	0.0279987	6.658636	-2.158631E-005	3.183137	11	0.1589985	0.0044517	-327.6853
	20	38	998.264	0.0280553	0.002095	1	0.0281334	4.270566	-1.982693E-005	3.183139	11	0.1590024	0.0044733	-327.6853
	21	40	796.875	0.0282897	0.0011513	1	0.0283132	2.330471	-1.732795E-005	3.183141	11	0.1589902	0.0045015	-327.6853
	22	41	627.7902	0.0285918	0.0004037	1	0.0285946	0.8090205	-1.973892E-005	3.183143	11	0.1590102	0.0045468	-327.6853
	23	43	505.5147	0.02886	-0.0001714	1	0.0288605	-0.3403079	-1.887686E-005	3.183147	11	0.1575918	0.0045229	-327.6853
	24	44	397.9953	0.0292097	-0.0006754	1	0.0292175	-1.324564	-1.760083E-005	3.183144	11	0.1606033	0.0046732	-327.6853
	25	46	315.5048	0.0295504	-0.0010871	1	0.0295704	-2.106942	-1.880073E-005	3.18314	11	0.159337	0.0046984	-327.6853
	26	47	252.4038	0.0298928	-0.0014216	1	0.0299266	-2.722708	-2.555698E-005	3.183146	11	0.1589703	0.0047484	-327.6853
	27	49	198.6229	0.0302686	-0.0017256	1	0.0303178	-3.262936	-1.733529E-005	3.183133	11	0.1588794	0.0048111	-327.6853
	28	50	158.3615	0.0306388	-0.001974	1	0.0307023	-3.686339	-1.750328E-005	3.183141	11	0.1588916	0.0048745	-327.6853
	29	52	125.558	0.0310234	-0.0021886	1	0.0311005	-4.035387	-1.539965E-005	3.183142	11	0.1589089	0.0049397	-327.6853
	30	53	100.4464	0.0314067	-0.0023785	1	0.0314966	-4.330871	-2.392288E-005	3.18312	11	0.1589414	0.0050045	-327.6853
	31	55	79.00281	0.031822	-0.0025552	1	0.0319244	-4.590878	-1.775136E-005	3.183136	11	0.158955	0.0050735	-327.6853
	32	57	63.3446	0.0322122	-0.0027079	1	0.0323258	-4.805228	-1.913554E-005	3.18312	11	0.1589734	0.0051383	-327.6853
	33	59	50.22321	0.0326266	-0.0028628	1	0.0327519	-5.014578	-2.128034E-005	3.18311	11	0.1589875	0.0052067	-327.6853
	34	60	38.42213	0.0331064	-0.0030375	1	0.0332454	-5.242144	-2.102368E-005	3.183142	11	0.1589844	0.0052853	-327.6853
	35	62	31.25	0.0334885	-0.0031934	1	0.0336404	-5.447177	-9.701471E-006	3.183102	11	0.1589984	0.0053486	-327.6853
	36	63	24.93351	0.0338926	-0.0033785	1	0.0340605	-5.69251	-2.399536E-005	3.183115	11	0.1589925	0.0054153	-327.6853
	37	65	19.86229	0.0343066	-0.0035973	1	0.0344947	-5.98594	5.9749E-006	3.183135	11	0.1589821	0.005484	-327.6853
	38	66	15.625	0.0347805	-0.0038712	1	0.0349952	-6.351126	-1.092511E-005	3.18315	11	0.1590022	0.0055643	-327.6853
	39	68	12.40079	0.035298	-0.0042029	1	0.0355473	-6.790249	-1.354696E-005	3.183212	11	0.1590047	0.0056522	-327.6853
	40	69	9.93114	0.0357443	-0.0045948	1	0.0360384	-7.324975	4.733563E-006	3.183183	11	0.1589885	0.0057297	-327.6853
	41	71	7.944915	0.0362897	-0.0050943	1	0.0366455	-7.990858	-4.543411E-005	3.18313	11	0.1590051	0.0058268	-327.6853
	42	73	6.317385	0.0369475	-0.0056275	1	0.0373737	-8.660255	-8.294894E-005	3.183152	11	0.158991	0.0059421	-327.6853
	43	75	5.008013	0.0377852	-0.0062674	1	0.0383014	-9.417849	2.194545E-005	3.183112	11	0.1589983	0.0060899	-327.6853
	44	77	3.945707	0.03877	-0.0069898	1	0.0393951	-10.22004	1.16328E-005	3.183074	11	0.1589957	0.0062636	-327.6853
	45	80	3.158693	0.0398924	-0.0076099	1	0.0406118	-10.80006	4.852249E-005	3.183052	11	0.1590112	0.0064577	-327.6853
	46	82	2.504006	0.0411818	-0.0081885	1	0.041988	-11.24592	-4.830223E-005	3.183062	11	0.155428	0.006499	-327.6853
	47	86	1.998082	0.0426049	-0.0087113	1	0.0434863	-11.55579	0.0002557	3.183134	11	0.1615124	0.0070024	-327.6853
	48	90	1.584686	0.0442282	-0.0090904	1	0.0451527	-11.61446	0.0002149	3.183109	11	0.1598168	0.0072015	-327.6853
	49	95	1.266892	0.0458543	-0.0092675	1	0.0467814	-11.42599	-0.0002554	3.183154	11	0.1593422	0.0074442	-327.6853
	50	101	0.999041	0.0475702	-0.0092913	1	0.0484691	-11.05172	-0.0002723	3.183088	11	0.1591109	0.0077053	-327.6853
	51	106	0.7923428	0.0492296	-0.0091374	1	0.0500704	-10.51494	-4.534543E-005	3.183159	11	0.1591293	0.0079633	-327.6853
	52	112	0.6334459	0.0506838	-0.0088794	1	0.0514557	-9.9369	-4.271878E-005	3.183142	11	0.1589823	0.0081777	-327.6853
	53	122	0.5040323	0.0520264	-0.0085505	1	0.0527243	-9.333043	-3.937242E-005	3.183138	11	0.158983	0.0083804	-327.6853
	54	133	0.400641	0.0532639	-0.0081991	1	0.0538913	-8.75104	-4.058165E-005	3.18314	11	0.1589871	0.0085668	-327.6853
	55	145	0.316723	0.0543627	-0.0078946	1	0.054933	-8.262754	-4.180444E-005	3.183151	11	0.1589883	0.0087329	-327.6853
	56	159	0.2520161	0.0553446	-0.0076553	1	0.0558715	-7.875226	-3.903956E-005	3.18316	11	0.1589937	0.0088827	-327.6853
	57	176	0.2003205	0.0562473	-0.0075226	1	0.0567481	-7.61761	-3.752654E-005	3.183168	11	0.1589954	0.0090224	-327.6853
	58	202	0.1588983	0.0571137	-0.0074933	1	0.0576032	-7.474539	-3.856691E-005	3.183195	11	0.1589991	0.0091586	-327.6853
	59	228	0.1260081	0.057945	-0.0075807	1	0.0584387	-7.453424	-3.995663E-005	3.183477	11	0.1589972	0.0092915	-327.6853
	60	266	0.1001603	0.058769	-0.0077927	1	0.0592834	-7.553321	-3.858567E-005	3.184141	11	0.1589989	0.0094259	-327.6853
	61	302	0.0794492	0.0595748	-0.0081665	1	0.060132	-7.805475	-4.212948E-005	3.184933	11	0.1589981	0.0095608	-327.6853
	62	342	0.0631739	0.060265	-0.0087487	1	0.0608967	-8.259926	-3.96351E-005	3.184796	11	0.1590005	0.0096826	-327.6853
	63	391	0.0501337	0.0610523	-0.0095197	1	0.0617901	-8.862583	-3.795863E-005	3.184831	11	0.1590001	0.0098246	-327.6853
	64	452	0.0398258	0.0618461	-0.0105405	1	0.0627378	-9.67208	-3.702989E-005	3.184911	11	0.1589996	0.0099753	-327.6853
	65	554	0.0316296	0.0627025	-0.0118536	1	0.0638131	-10.70515	-4.050571E-005	3.185048	11	0.1589997	0.0101462	-327.6853
	66	682	0.0251206	0.0636188	-0.0135284	1	0.0650413	-12.00496	-3.875724E-005	3.185272	11	0.1590012	0.0103416	-327.6853
	67	803	0.0199553	0.0645981	-0.0156621	1	0.0664697	-13.62862	-3.99547E-005	3.185563	11	0.1589985	0.0105686	-327.6853
	68	955	0.0158522	0.0656103	-0.0182806	1	0.0681094	-15.56913	-3.960404E-005	3.185919	11	0.1589994	0.0108294	-327.6853
	69	1146	0.0125907	0.0666039	-0.0214716	1	0.0699793	-17.86814	-3.980845E-005	3.186357	11	0.1589999	0.0111267	-327.6853
	70	1465	0.0100011	0.0677732	-0.0252868	1	0.0723369	-20.46099	-3.902385E-005	3.186921	11	0.1590014	0.0115017	-327.6853
