EXPLAIN
TAG	GALVEIS
TITLE	LABEL	Galvanostatic EIS	Test Identifier
DATE	LABEL	29.3.2024	Date
TIME	LABEL	22:17:13	Time
NOTES	NOTES	1	Notes...
	
PSTAT	PSTAT	REF600-12055	Potentiostat
FREQINIT	QUANT	1.00000E+005	Initial Freq. (Hz)
FREQFINAL	QUANT	1.00000E-002	Final Freq. (Hz)
PTSPERDEC	QUANT	1.00000E+001	Points/decade
IACREQ	QUANT	1.59000E-001	AC Current (A rms)
IDCREQ	QUANT	0.00000E+000	DC Current (A)
AREA	QUANT	1.00000E+000	Sample Area (cm^2)
SPEED	SELECTOR	1	Optimize for:
DRIFTCOR	SELECTOR	0	Drift Correction
THD	SELECTOR	0	THD
ZGUESS	QUANT	1.00000E-001	Estimated Z (ohms)
EOC	QUANT	3.824714	Open Circuit (V)
SEQUENCER	TOGGLE	TRUE	Run as Sequence
PSTATMODEL	IQUANT	4	Pstat Model
PSTATSECTION	LABEL	REF600-12055	Pstat Section
PSTATSERIALNO	LABEL	12055	Pstat Serial Number
CTRLMODE	IQUANT	0	Control Mode
ELECTROMETER	IQUANT	0	RE=0 or CS=1
IESTAB	IQUANT	0	I/E Stability
CASPEED	IQUANT	4	Control Amp Speed
CONVENTION	IQUANT	1	Current Convention
ICHRANGE	IQUANT	2	Ich Range
ICHRANGEMODE	TOGGLE	F	Ich Auto Range
ICHOFFSETENABLE	TOGGLE	T	Ich Offset Enable
ICHOFFSET	QUANT	0	Ich Offset (V)
ICHFILTER	IQUANT	3	Ich Filter
VCHRANGE	IQUANT	2	Vch Range
VCHRANGEMODE	TOGGLE	F	Vch Auto Range
VCHOFFSETENABLE	TOGGLE	T	Vch Offset Enable
VCHOFFSET	QUANT	0	Vch Offset (V)
VCHFILTER	IQUANT	3	Vch Filter
ACHRANGE	IQUANT	2	Ach Range
ACHOFFSETENABLE	TOGGLE	F	Ach Offset Enable
ACHOFFSET	QUANT	0	Ach Offset (V)
ACHFILTER	IQUANT	1	Ach Filter
IERANGELOWERLIMIT	IQUANT	1	I/E Range Lower Limit
IERANGEMODE	TOGGLE	F	I/E AutoRange
IERANGE	IQUANT	7	I/E Range
POSFEEDENABLE	TOGGLE	F	Positive Feedback IR Comp
POSFEEDRESISTANCE	QUANT	0	Positive Feedback Resistance (ohm)
ACHSELECT	IQUANT	4	Ach Select
SENSECABLEID	IQUANT	14	Sense Cable ID
PWRCABLEID	IQUANT	14	Power Cable ID
DCCALDATE	LABEL	2/12/2024	DC Calibration Date
ACCALDATE	LABEL	2/12/2024	AC Calibration Date
THERMOSELECT	IQUANT	1	Thermo Select
FRAMEWORKVERSION	LABEL	7.10.3	Framework Version
INSTRUMENTVERSION	LABEL	4.91	Instrument Version
COMMVERSION	LABEL	2.24	Communications Version
CPUPLDVERSION	LABEL	0.00	CPU PLD Version
CTRLPLDVERSION	LABEL	0.00	CTRL PLD Version
PSTATPLDVERSION	LABEL	0.00	PSTAT PLD Version
ZCURVE	TABLE
	Pt	Time	Freq	Zreal	Zimag	Zsig	Zmod	Zphz	Idc	Vdc	IERange	Imod	Vmod	Temp
	#	s	Hz	ohm	ohm	V	ohm	°	A	V	#	A	V	°C
	0	5	100078.1	0.1037939	0.2365831	1	0.25835	66.31194	2.921061E-005	3.82458	11	0.1596576	0.0409473	-327.6853
	1	7	79453.13	0.0865322	0.1970104	1	0.2151765	66.28765	1.183437E-005	3.824572	11	0.1643098	0.0351922	-327.6853
	2	8	63140.62	0.0729855	0.1634943	1	0.1790454	65.94353	4.374771E-006	3.824571	11	0.1619654	0.0289137	-327.6853
	3	10	50203.12	0.0625025	0.1352114	1	0.1489587	65.19092	-7.907627E-006	3.824559	11	0.1609395	0.0239283	-327.6853
	4	12	39890.62	0.054468	0.1114264	1	0.1240266	63.94945	-1.263444E-005	3.824557	11	0.1602798	0.0198552	-327.6853
	5	14	31640.63	0.0483096	0.0915426	1	0.1035078	62.17813	-1.047715E-005	3.824548	11	0.1598372	0.0165319	-327.6853
	6	15	25171.88	0.0436198	0.0753922	1	0.0871015	59.94755	-1.374306E-005	3.824542	11	0.1595431	0.0138898	-327.6853
	7	17	20015.62	0.0398953	0.062132	1	0.0738378	57.29523	-1.761061E-005	3.824519	11	0.1593585	0.0117631	-327.6853
	8	19	15890.62	0.0368117	0.051159	1	0.0630265	54.26294	-1.44387E-005	3.824525	11	0.1592233	0.0100334	-327.6853
	9	20	12609.38	0.0342235	0.0420463	1	0.0542138	50.8562	-1.639209E-005	3.824516	11	0.1591399	0.0086265	-327.6853
	10	22	10078.13	0.0321333	0.0346391	1	0.0472484	47.14917	-3.037613E-005	3.824507	11	0.1590896	0.0075161	-327.6853
	11	24	8015.625	0.030418	0.0282348	1	0.0415025	42.86826	-1.527439E-005	3.824494	11	0.1590531	0.0066008	-327.6853
	12	25	6328.125	0.0290963	0.0226622	1	0.0368805	37.91397	-1.647195E-005	3.824491	11	0.1590361	0.0058651	-327.6853
	13	27	5015.625	0.0281702	0.0180815	1	0.0334739	32.695	-1.518102E-005	3.8245	11	0.159011	0.0053226	-327.6853
	14	28	3984.375	0.0275626	0.0143091	1	0.0310556	27.43599	-2.029852E-005	3.824475	11	0.1590051	0.0049379	-327.6853
	15	30	3170.956	0.0271948	0.0111933	1	0.0294083	22.37191	-1.793921E-005	3.824482	11	0.1590101	0.0046762	-327.6853
	16	31	2527.573	0.0270194	0.0086773	1	0.0283785	17.80458	-2.176722E-005	3.82446	11	0.159002	0.0045122	-327.6853
	17	33	1976.103	0.0269829	0.0064328	1	0.027739	13.40911	-2.014241E-005	3.824459	11	0.1590025	0.0044106	-327.6853
	18	35	1577.524	0.0270482	0.0048428	1	0.0274783	10.15088	-2.034672E-005	3.824448	11	0.1589984	0.004369	-327.6853
	19	36	1265.625	0.0271793	0.003578	1	0.0274138	7.499455	-1.861085E-005	3.824445	11	0.1590102	0.0043591	-327.6853
	20	38	998.264	0.027377	0.0024135	1	0.0274832	5.038085	-2.036453E-005	3.824448	11	0.1589972	0.0043697	-327.6853
	21	39	796.875	0.0275706	0.0015372	1	0.0276134	3.191175	-2.173567E-005	3.824439	11	0.1589909	0.0043903	-327.6853
	22	41	627.7902	0.0277937	0.0008817	1	0.0278077	1.816887	-1.798605E-005	3.82445	11	0.1590038	0.0044215	-327.6853
	23	42	505.5147	0.0280394	0.0003339	1	0.0280414	0.6821569	-2.106477E-005	3.82444	11	0.1575963	0.0043947	-327.6853
	24	44	397.9953	0.0283183	-0.0001005	1	0.0283185	-0.2032877	-1.820677E-005	3.824439	11	0.1606037	0.0045294	-327.6853
	25	45	315.5048	0.02858	-0.000438	1	0.0285834	-0.8779203	-1.606494E-005	3.824433	11	0.1593416	0.0045417	-327.6853
	26	47	252.4038	0.0288359	-0.0006967	1	0.0288443	-1.384121	-1.891347E-005	3.824429	11	0.1589686	0.0045767	-327.6853
	27	48	198.6229	0.0291096	-0.0009158	1	0.029124	-1.801955	-1.973449E-005	3.82442	11	0.1588804	0.0046216	-327.6853
	28	50	158.3615	0.0293778	-0.001068	1	0.0293972	-2.082105	-2.029323E-005	3.824414	11	0.1588836	0.0046671	-327.6853
	29	51	125.558	0.0296554	-0.0011928	1	0.0296794	-2.303318	-2.600382E-005	3.824413	11	0.1589154	0.0047142	-327.6853
	30	53	100.4464	0.0299204	-0.0012662	1	0.0299472	-2.423248	-2.326601E-005	3.824408	11	0.158938	0.0047582	-327.6853
	31	54	79.00281	0.0301992	-0.0013127	1	0.0302277	-2.488941	-1.806952E-005	3.824405	11	0.1589613	0.0048041	-327.6853
	32	56	63.3446	0.0304586	-0.0013194	1	0.0304871	-2.480452	-1.751189E-005	3.8244	11	0.158976	0.0048461	-327.6853
	33	58	50.22321	0.0307157	-0.0013088	1	0.0307436	-2.439914	-1.311454E-005	3.824391	11	0.1589849	0.0048874	-327.6853
	34	60	38.42213	0.0309833	-0.0012516	1	0.0310085	-2.313282	-2.000656E-005	3.82439	11	0.1589847	0.0049297	-327.6853
	35	61	31.25	0.0311715	-0.0011949	1	0.0311944	-2.195282	-1.40738E-005	3.824379	11	0.1589859	0.0049593	-327.6853
	36	63	24.93351	0.0313606	-0.001111	1	0.0313803	-2.028898	-2.991559E-005	3.824381	11	0.1589991	0.0049893	-327.6853
	37	64	19.86229	0.0315242	-0.0010312	1	0.031541	-1.873507	1.028494E-005	3.824363	11	0.1589809	0.0050144	-327.6853
	38	66	15.625	0.0316782	-0.0009492	1	0.0316925	-1.716249	-1.963036E-005	3.824378	11	0.1590049	0.0050392	-327.6853
	39	67	12.40079	0.0317946	-0.0008823	1	0.0318068	-1.589466	-2.357498E-005	3.824383	11	0.1590048	0.0050574	-327.6853
	40	68	9.93114	0.0318989	-0.0008182	1	0.0319094	-1.469254	5.459297E-006	3.824378	11	0.1589882	0.0050732	-327.6853
	41	70	7.944915	0.031974	-0.0007797	1	0.0319835	-1.396954	-4.268845E-005	3.824363	11	0.1590033	0.0050855	-327.6853
	42	72	6.317385	0.0320503	-0.0007473	1	0.032059	-1.335715	-8.744095E-005	3.824357	11	0.1590004	0.0050974	-327.6853
	43	74	5.008013	0.0321341	-0.0007365	1	0.0321426	-1.313024	9.468349E-006	3.824349	11	0.1590056	0.0051108	-327.6853
	44	77	3.945707	0.0322004	-0.0007359	1	0.0322088	-1.309148	-1.171313E-005	3.824326	11	0.1589949	0.005121	-327.6853
	45	80	3.158693	0.0322726	-0.000765	1	0.0322817	-1.357929	7.847731E-005	3.824298	11	0.1589598	0.0051315	-327.6853
	46	82	2.504006	0.0323728	-0.0007895	1	0.0323824	-1.397	1.843844E-006	3.824269	11	0.1554675	0.0050135	-327.6853
	47	86	1.998082	0.0324495	-0.0008323	1	0.0324602	-1.469284	8.832302E-005	3.824261	11	0.1613521	0.0052217	-327.6853
	48	89	1.584686	0.0325545	-0.0009005	1	0.032567	-1.584458	-8.527885E-005	3.824245	11	0.1598822	0.0051963	-327.6853
	49	93	1.266892	0.0326606	-0.0009763	1	0.0326752	-1.71223	-3.08492E-005	3.824297	11	0.159296	0.005198	-327.6853
	50	98	0.999041	0.0327771	-0.0010653	1	0.0327944	-1.861593	-9.403931E-005	3.824273	11	0.1590899	0.0052128	-327.6853
	51	103	0.7923428	0.0329164	-0.0011731	1	0.0329373	-2.041044	-3.984873E-005	3.824268	11	0.1592952	0.0052439	-327.6853
	52	110	0.6334459	0.033064	-0.0012841	1	0.0330889	-2.224041	-4.072607E-005	3.824244	11	0.1589842	0.0052588	-327.6853
	53	120	0.5040323	0.0332275	-0.0014069	1	0.0332573	-2.42448	-3.884072E-005	3.82421	11	0.158983	0.0052862	-327.6853
	54	131	0.400641	0.0334113	-0.0015567	1	0.0334476	-2.667655	-4.209569E-005	3.824179	11	0.158986	0.0053169	-327.6853
	55	143	0.316723	0.0336141	-0.0017162	1	0.0336579	-2.922671	-3.989902E-005	3.824151	11	0.1589898	0.0053508	-327.6853
	56	157	0.2520161	0.0338456	-0.0018913	1	0.0338984	-3.198417	-3.656036E-005	3.824107	11	0.1589939	0.0053893	-327.6853
	57	174	0.2003205	0.0340825	-0.0020798	1	0.0341459	-3.491965	-3.783782E-005	3.824049	11	0.1589962	0.0054289	-327.6853
	58	195	0.1588983	0.0343457	-0.0023083	1	0.0344232	-3.84493	-4.090358E-005	3.823982	11	0.1589985	0.0054731	-327.6853
	59	227	0.1260081	0.0346586	-0.0025576	1	0.0347528	-4.2205	-4.336586E-005	3.823982	11	0.1589969	0.0055255	-327.6853
	60	265	0.1001603	0.0350054	-0.0028317	1	0.0351197	-4.62475	-4.043157E-005	3.824049	11	0.1589992	0.005584	-327.6853
	61	311	0.0794492	0.0353962	-0.0031399	1	0.0355352	-5.06934	-4.049853E-005	3.824151	11	0.1590007	0.0056501	-327.6853
	62	351	0.0631739	0.0356857	-0.0035191	1	0.0358588	-5.63197	-3.887842E-005	3.82388	11	0.1589983	0.0057015	-327.6853
	63	416	0.0501337	0.0360704	-0.003957	1	0.0362867	-6.260483	-3.460017E-005	3.82367	11	0.1589998	0.0057696	-327.6853
	64	497	0.0398258	0.0364885	-0.0044587	1	0.0367599	-6.966772	-3.803874E-005	3.823478	11	0.1590005	0.0058448	-327.6853
	65	599	0.0316296	0.0369765	-0.005073	1	0.0373229	-7.811928	-3.853808E-005	3.82327	11	0.1589994	0.0059343	-327.6853
	66	727	0.0251206	0.0375033	-0.0057953	1	0.0379484	-8.784389	-4.01723E-005	3.823035	11	0.1590016	0.0060339	-327.6853
	67	888	0.0199553	0.0381123	-0.0066631	1	0.0386903	-9.9167	-3.96932E-005	3.822797	11	0.1589988	0.0061517	-327.6853
	68	1090	0.0158522	0.0388136	-0.0077275	1	0.0395753	-11.25992	-4.608199E-005	3.822591	11	0.1590018	0.0062925	-327.6853
	69	1281	0.0125907	0.0396537	-0.0089609	1	0.0406536	-12.73369	-3.941795E-005	3.822349	11	0.1589987	0.0064639	-327.6853
	70	1600	0.0100011	0.0407098	-0.0104156	1	0.0420211	-14.35122	-3.93324E-005	3.822078	11	0.1590008	0.0066814	-327.6853
