EXPLAIN
TAG	GALVEIS
TITLE	LABEL	Galvanostatic EIS	Test Identifier
DATE	LABEL	30.3.2024	Date
TIME	LABEL	2:11:26	Time
NOTES	NOTES	1	Notes...
	
PSTAT	PSTAT	REF600-12055	Potentiostat
FREQINIT	QUANT	1.00000E+005	Initial Freq. (Hz)
FREQFINAL	QUANT	1.00000E-002	Final Freq. (Hz)
PTSPERDEC	QUANT	1.00000E+001	Points/decade
IACREQ	QUANT	1.59000E-001	AC Current (A rms)
IDCREQ	QUANT	0.00000E+000	DC Current (A)
AREA	QUANT	1.00000E+000	Sample Area (cm^2)
SPEED	SELECTOR	1	Optimize for:
DRIFTCOR	SELECTOR	0	Drift Correction
THD	SELECTOR	0	THD
ZGUESS	QUANT	1.00000E-001	Estimated Z (ohms)
EOC	QUANT	4.061886	Open Circuit (V)
SEQUENCER	TOGGLE	TRUE	Run as Sequence
PSTATMODEL	IQUANT	4	Pstat Model
PSTATSECTION	LABEL	REF600-12055	Pstat Section
PSTATSERIALNO	LABEL	12055	Pstat Serial Number
CTRLMODE	IQUANT	0	Control Mode
ELECTROMETER	IQUANT	0	RE=0 or CS=1
IESTAB	IQUANT	0	I/E Stability
CASPEED	IQUANT	4	Control Amp Speed
CONVENTION	IQUANT	1	Current Convention
ICHRANGE	IQUANT	2	Ich Range
ICHRANGEMODE	TOGGLE	F	Ich Auto Range
ICHOFFSETENABLE	TOGGLE	T	Ich Offset Enable
ICHOFFSET	QUANT	0	Ich Offset (V)
ICHFILTER	IQUANT	3	Ich Filter
VCHRANGE	IQUANT	2	Vch Range
VCHRANGEMODE	TOGGLE	F	Vch Auto Range
VCHOFFSETENABLE	TOGGLE	T	Vch Offset Enable
VCHOFFSET	QUANT	0	Vch Offset (V)
VCHFILTER	IQUANT	3	Vch Filter
ACHRANGE	IQUANT	2	Ach Range
ACHOFFSETENABLE	TOGGLE	F	Ach Offset Enable
ACHOFFSET	QUANT	0	Ach Offset (V)
ACHFILTER	IQUANT	1	Ach Filter
IERANGELOWERLIMIT	IQUANT	1	I/E Range Lower Limit
IERANGEMODE	TOGGLE	F	I/E AutoRange
IERANGE	IQUANT	7	I/E Range
POSFEEDENABLE	TOGGLE	F	Positive Feedback IR Comp
POSFEEDRESISTANCE	QUANT	0	Positive Feedback Resistance (ohm)
ACHSELECT	IQUANT	4	Ach Select
SENSECABLEID	IQUANT	14	Sense Cable ID
PWRCABLEID	IQUANT	14	Power Cable ID
DCCALDATE	LABEL	2/12/2024	DC Calibration Date
ACCALDATE	LABEL	2/12/2024	AC Calibration Date
THERMOSELECT	IQUANT	1	Thermo Select
FRAMEWORKVERSION	LABEL	7.10.3	Framework Version
INSTRUMENTVERSION	LABEL	4.91	Instrument Version
COMMVERSION	LABEL	2.24	Communications Version
CPUPLDVERSION	LABEL	0.00	CPU PLD Version
CTRLPLDVERSION	LABEL	0.00	CTRL PLD Version
PSTATPLDVERSION	LABEL	0.00	PSTAT PLD Version
ZCURVE	TABLE
	Pt	Time	Freq	Zreal	Zimag	Zsig	Zmod	Zphz	Idc	Vdc	IERange	Imod	Vmod	Temp
	#	s	Hz	ohm	ohm	V	ohm	°	A	V	#	A	V	°C
	0	5	100078.1	0.1040466	0.2364137	1	0.2582966	66.24553	2.902385E-005	4.061821	11	0.1596639	0.0409404	-327.6853
	1	7	79453.13	0.0867071	0.1969155	1	0.21516	66.23483	1.686723E-005	4.061825	11	0.1642913	0.0351855	-327.6853
	2	9	63140.62	0.0731153	0.1634329	1	0.1790423	65.89759	5.272916E-006	4.061815	11	0.161972	0.0289144	-327.6853
	3	10	50203.12	0.0626018	0.1351618	1	0.1489554	65.14821	-1.524256E-005	4.061797	11	0.1609264	0.0239258	-327.6853
	4	12	39890.62	0.0545435	0.1113891	1	0.1240263	63.91055	-6.985851E-006	4.061782	11	0.1602799	0.0198552	-327.6853
	5	14	31640.63	0.0483782	0.091505	1	0.1035066	62.13485	-1.14307E-005	4.061788	11	0.1598364	0.0165316	-327.6853
	6	16	25171.88	0.0436722	0.0753688	1	0.0871075	59.90998	-1.100893E-005	4.061782	11	0.1595412	0.0138906	-327.6853
	7	17	20015.62	0.0399536	0.0621085	1	0.0738495	57.24738	-1.803273E-005	4.061776	11	0.1593565	0.0117648	-327.6853
	8	19	15890.62	0.0368499	0.0511468	1	0.0630389	54.22824	-1.532969E-005	4.061756	11	0.1592259	0.0100355	-327.6853
	9	20	12609.38	0.0342708	0.0420267	1	0.0542285	50.80438	-2.956449E-005	4.061765	11	0.1591431	0.008629	-327.6853
	10	22	10078.13	0.0321803	0.0346166	1	0.047264	47.08883	-1.314154E-005	4.061757	11	0.1590846	0.0075184	-327.6853
	11	24	8015.625	0.0304779	0.0282089	1	0.0415289	42.78595	-1.641485E-005	4.061746	11	0.1590559	0.0066051	-327.6853
	12	25	6328.125	0.0291483	0.0226241	1	0.0368981	37.81763	-2.152543E-005	4.061741	11	0.1590309	0.0058678	-327.6853
	13	27	5015.625	0.0282255	0.0180374	1	0.0334967	32.58054	-1.850037E-005	4.061721	11	0.1590121	0.0053263	-327.6853
	14	29	3984.375	0.0276171	0.0142911	1	0.0310957	27.36026	-1.593051E-005	4.061719	11	0.1590083	0.0049444	-327.6853
	15	30	3170.956	0.0272695	0.0111699	1	0.0294686	22.27463	-1.836102E-005	4.061703	11	0.1590069	0.0046857	-327.6853
	16	32	2527.573	0.0270888	0.0086801	1	0.0284455	17.7672	-1.695484E-005	4.061707	11	0.1590066	0.004523	-327.6853
	17	33	1976.103	0.0270663	0.0064182	1	0.0278169	13.34002	-3.089209E-005	4.061698	11	0.1590018	0.0044229	-327.6853
	18	35	1577.524	0.0271335	0.0047833	1	0.0275519	9.99773	-2.039177E-005	4.061698	11	0.1589995	0.0043807	-327.6853
	19	36	1265.625	0.0272574	0.0034839	1	0.0274792	7.283655	-1.676747E-005	4.061696	11	0.1589986	0.0043691	-327.6853
	20	38	998.264	0.0274571	0.0023947	1	0.0275614	4.984457	-2.114661E-005	4.061679	11	0.1590011	0.0043823	-327.6853
	21	39	796.875	0.0276415	0.0015745	1	0.0276863	3.260232	-1.703377E-005	4.061681	11	0.159001	0.0044021	-327.6853
	22	41	627.7902	0.0278764	0.0008648	1	0.0278898	1.776823	-2.321147E-005	4.061682	11	0.1590012	0.0044345	-327.6853
	23	42	505.5147	0.028117	0.0003336	1	0.028119	0.679711	-2.687692E-005	4.061673	11	0.1575947	0.0044068	-327.6853
	24	44	397.9953	0.0283846	-0.0001024	1	0.0283848	-0.2067285	-3.536185E-005	4.061666	11	0.1606094	0.0045402	-327.6853
	25	45	315.5048	0.0286455	-0.0004417	1	0.028649	-0.8833784	-2.128226E-005	4.061654	11	0.1593327	0.0045519	-327.6853
	26	47	252.4038	0.0288912	-0.0007091	1	0.0288999	-1.405946	-1.965975E-005	4.061647	11	0.1589722	0.0045856	-327.6853
	27	48	198.6229	0.0291589	-0.0009355	1	0.0291739	-1.83754	-1.725869E-005	4.061642	11	0.1588747	0.0046294	-327.6853
	28	50	158.3615	0.0294249	-0.0011133	1	0.029446	-2.166698	-1.924299E-005	4.06164	11	0.1588889	0.004675	-327.6853
	29	52	125.558	0.0296952	-0.0012506	1	0.0297215	-2.41148	-1.334748E-005	4.061632	11	0.1589177	0.0047209	-327.6853
	30	53	100.4464	0.0299616	-0.0013538	1	0.0299922	-2.587132	-1.38469E-005	4.061624	11	0.1589361	0.0047653	-327.6853
	31	55	79.00281	0.0302488	-0.0014328	1	0.0302827	-2.711839	-2.791203E-005	4.061612	11	0.1589588	0.0048128	-327.6853
	32	56	63.3446	0.0305198	-0.001484	1	0.0305559	-2.783821	-2.745085E-005	4.061611	11	0.158979	0.0048571	-327.6853
	33	58	50.22321	0.0307977	-0.0015098	1	0.0308347	-2.806587	-2.457702E-005	4.061607	11	0.1589835	0.0049018	-327.6853
	34	60	38.42213	0.0311162	-0.0015042	1	0.0311525	-2.767647	-2.085383E-005	4.061605	11	0.1589831	0.0049525	-327.6853
	35	61	31.25	0.0313585	-0.0014759	1	0.0313932	-2.694683	-2.270564E-006	4.061589	11	0.1589913	0.0049911	-327.6853
	36	63	24.93351	0.0316035	-0.0014382	1	0.0316362	-2.605634	-1.539115E-005	4.061595	11	0.1589966	0.00503	-327.6853
	37	65	19.86229	0.0318331	-0.0013691	1	0.0318625	-2.462639	-7.629045E-006	4.06158	11	0.1589973	0.005066	-327.6853
	38	66	15.625	0.0320652	-0.0012935	1	0.0320913	-2.310062	-3.27765E-005	4.061585	11	0.1589799	0.0051018	-327.6853
	39	67	12.40079	0.032254	-0.0012092	1	0.0322767	-2.147068	-3.748504E-005	4.061562	11	0.1589987	0.0051319	-327.6853
	40	69	9.93114	0.0324245	-0.0011241	1	0.0324439	-1.985569	-4.854193E-005	4.06155	11	0.1589982	0.0051585	-327.6853
	41	71	7.944915	0.0325598	-0.0010601	1	0.0325771	-1.864811	-2.118759E-007	4.061554	11	0.1590035	0.0051799	-327.6853
	42	72	6.317385	0.032693	-0.0009898	1	0.032708	-1.734057	-4.104653E-005	4.061528	11	0.1589717	0.0051996	-327.6853
	43	75	5.008013	0.0327944	-0.000941	1	0.0328079	-1.643552	8.417177E-006	4.061514	11	0.1590436	0.0052179	-327.6853
	44	77	3.945707	0.0329085	-0.0008979	1	0.0329208	-1.562922	-2.338621E-005	4.061512	11	0.1590001	0.0052344	-327.6853
	45	79	3.158693	0.0329962	-0.0008886	1	0.0330081	-1.542539	4.074571E-005	4.061496	11	0.1590027	0.0052484	-327.6853
	46	82	2.504006	0.0331102	-0.00089	1	0.0331222	-1.539792	2.42946E-005	4.06147	11	0.1553882	0.0051254	-327.6853
	47	86	1.998082	0.0332049	-0.0008974	1	0.033217	-1.548032	-0.0001184	4.061436	11	0.1613748	0.0053442	-327.6853
	48	89	1.584686	0.0333085	-0.0009387	1	0.0333217	-1.614266	-0.000285	4.061426	11	0.1600291	0.0053216	-327.6853
	49	94	1.266892	0.0334159	-0.0009813	1	0.0334303	-1.682024	0.0001629	4.061471	11	0.159231	0.0053159	-327.6853
	50	98	0.999041	0.033558	-0.0010397	1	0.0335741	-1.774645	0.0001075	4.061472	11	0.1590435	0.0053352	-327.6853
	51	103	0.7923428	0.0336944	-0.0010875	1	0.0337119	-1.848589	-3.938194E-005	4.061449	11	0.1592648	0.0053662	-327.6853
	52	111	0.6334459	0.0338231	-0.0011633	1	0.0338431	-1.969826	-3.62951E-005	4.061419	11	0.1589831	0.0053786	-327.6853
	53	119	0.5040323	0.0339757	-0.0012424	1	0.0339984	-2.094137	-3.718823E-005	4.061382	11	0.1589826	0.0054039	-327.6853
	54	130	0.400641	0.0341437	-0.0013402	1	0.03417	-2.247812	-3.718959E-005	4.061356	11	0.1589861	0.0054318	-327.6853
	55	142	0.316723	0.0343205	-0.0014595	1	0.0343515	-2.435087	-3.955227E-005	4.06132	11	0.1589913	0.0054611	-327.6853
	56	156	0.2520161	0.0345046	-0.0015646	1	0.0345401	-2.596204	-3.75534E-005	4.061277	11	0.1589925	0.0054913	-327.6853
	57	173	0.2003205	0.0347088	-0.001711	1	0.0347509	-2.822084	-3.933275E-005	4.061215	11	0.1589954	0.005525	-327.6853
	58	199	0.1588983	0.0349223	-0.0018835	1	0.0349731	-3.087181	-3.801999E-005	4.061154	11	0.1589971	0.0055605	-327.6853
	59	225	0.1260081	0.035168	-0.0020612	1	0.0352284	-3.354253	-3.942674E-005	4.061149	11	0.1589983	0.0056012	-327.6853
	60	263	0.1001603	0.0354827	-0.0022784	1	0.0355558	-3.674037	-3.913281E-005	4.061209	11	0.1590012	0.0056534	-327.6853
	61	299	0.0794492	0.035777	-0.0025308	1	0.0358664	-4.04628	-3.888751E-005	4.061213	11	0.158997	0.0057026	-327.6853
	62	351	0.0631739	0.0360376	-0.0028288	1	0.0361485	-4.488226	-4.208183E-005	4.060989	11	0.1589999	0.0057476	-327.6853
	63	400	0.0501337	0.0363438	-0.0031784	1	0.0364825	-4.997999	-4.044704E-005	4.060837	11	0.159	0.0058007	-327.6853
	64	462	0.0398258	0.0367272	-0.0035628	1	0.0368996	-5.540716	-3.842914E-005	4.060693	11	0.1589998	0.005867	-327.6853
	65	538	0.0316296	0.0371265	-0.0040338	1	0.037345	-6.200903	-3.865549E-005	4.060484	11	0.1590006	0.0059379	-327.6853
	66	666	0.0251206	0.0376128	-0.0045761	1	0.0378901	-6.93671	-4.553614E-005	4.060309	11	0.1590004	0.0060245	-327.6853
	67	787	0.0199553	0.0381401	-0.0052023	1	0.0384932	-7.767202	-4.533422E-005	4.060139	11	0.1590006	0.0061204	-327.6853
	68	939	0.0158522	0.0387757	-0.00594	1	0.039228	-8.709391	-3.853442E-005	4.059892	11	0.1589986	0.0062372	-327.6853
	69	1193	0.0125907	0.039508	-0.0068082	1	0.0400903	-9.77745	-3.776518E-005	4.059674	11	0.158999	0.0063743	-327.6853
	70	1433	0.0100011	0.0403606	-0.007771	1	0.0411019	-10.89827	-3.879036E-005	4.059478	11	0.1590006	0.0065352	-327.6853
