EXPLAIN
TAG	GALVEIS
TITLE	LABEL	Galvanostatic EIS	Test Identifier
DATE	LABEL	30.3.2024	Date
TIME	LABEL	1:05:22	Time
NOTES	NOTES	1	Notes...
	
PSTAT	PSTAT	REF600-12055	Potentiostat
FREQINIT	QUANT	1.00000E+005	Initial Freq. (Hz)
FREQFINAL	QUANT	1.00000E-002	Final Freq. (Hz)
PTSPERDEC	QUANT	1.00000E+001	Points/decade
IACREQ	QUANT	1.59000E-001	AC Current (A rms)
IDCREQ	QUANT	0.00000E+000	DC Current (A)
AREA	QUANT	1.00000E+000	Sample Area (cm^2)
SPEED	SELECTOR	1	Optimize for:
DRIFTCOR	SELECTOR	0	Drift Correction
THD	SELECTOR	0	THD
ZGUESS	QUANT	1.00000E-001	Estimated Z (ohms)
EOC	QUANT	4.007095	Open Circuit (V)
SEQUENCER	TOGGLE	TRUE	Run as Sequence
PSTATMODEL	IQUANT	4	Pstat Model
PSTATSECTION	LABEL	REF600-12055	Pstat Section
PSTATSERIALNO	LABEL	12055	Pstat Serial Number
CTRLMODE	IQUANT	0	Control Mode
ELECTROMETER	IQUANT	0	RE=0 or CS=1
IESTAB	IQUANT	0	I/E Stability
CASPEED	IQUANT	4	Control Amp Speed
CONVENTION	IQUANT	1	Current Convention
ICHRANGE	IQUANT	2	Ich Range
ICHRANGEMODE	TOGGLE	F	Ich Auto Range
ICHOFFSETENABLE	TOGGLE	T	Ich Offset Enable
ICHOFFSET	QUANT	0	Ich Offset (V)
ICHFILTER	IQUANT	3	Ich Filter
VCHRANGE	IQUANT	2	Vch Range
VCHRANGEMODE	TOGGLE	F	Vch Auto Range
VCHOFFSETENABLE	TOGGLE	T	Vch Offset Enable
VCHOFFSET	QUANT	0	Vch Offset (V)
VCHFILTER	IQUANT	3	Vch Filter
ACHRANGE	IQUANT	2	Ach Range
ACHOFFSETENABLE	TOGGLE	F	Ach Offset Enable
ACHOFFSET	QUANT	0	Ach Offset (V)
ACHFILTER	IQUANT	1	Ach Filter
IERANGELOWERLIMIT	IQUANT	1	I/E Range Lower Limit
IERANGEMODE	TOGGLE	F	I/E AutoRange
IERANGE	IQUANT	7	I/E Range
POSFEEDENABLE	TOGGLE	F	Positive Feedback IR Comp
POSFEEDRESISTANCE	QUANT	0	Positive Feedback Resistance (ohm)
ACHSELECT	IQUANT	4	Ach Select
SENSECABLEID	IQUANT	14	Sense Cable ID
PWRCABLEID	IQUANT	14	Power Cable ID
DCCALDATE	LABEL	2/12/2024	DC Calibration Date
ACCALDATE	LABEL	2/12/2024	AC Calibration Date
THERMOSELECT	IQUANT	1	Thermo Select
FRAMEWORKVERSION	LABEL	7.10.3	Framework Version
INSTRUMENTVERSION	LABEL	4.91	Instrument Version
COMMVERSION	LABEL	2.24	Communications Version
CPUPLDVERSION	LABEL	0.00	CPU PLD Version
CTRLPLDVERSION	LABEL	0.00	CTRL PLD Version
PSTATPLDVERSION	LABEL	0.00	PSTAT PLD Version
ZCURVE	TABLE
	Pt	Time	Freq	Zreal	Zimag	Zsig	Zmod	Zphz	Idc	Vdc	IERange	Imod	Vmod	Temp
	#	s	Hz	ohm	ohm	V	ohm	°	A	V	#	A	V	°C
	0	5	100078.1	0.1039837	0.236459	1	0.2583127	66.26234	3.280543E-005	4.006975	11	0.1596576	0.0409414	-327.6853
	1	7	79453.13	0.0866723	0.1969318	1	0.215161	66.24506	1.782081E-005	4.006983	11	0.1643078	0.0351892	-327.6853
	2	9	63140.62	0.0730805	0.1634382	1	0.1790329	65.90846	3.586174E-006	4.006969	11	0.161968	0.0289122	-327.6853
	3	10	50203.12	0.0625667	0.1351681	1	0.1489463	65.16151	-1.891196E-006	4.006966	11	0.1609222	0.0239237	-327.6853
	4	12	39890.62	0.0545233	0.1113928	1	0.1240207	63.91968	-4.446367E-006	4.006959	11	0.1602749	0.0198537	-327.6853
	5	14	31640.63	0.0483623	0.0915178	1	0.1035105	62.14592	-1.225085E-005	4.006942	11	0.1598375	0.0165324	-327.6853
	6	16	25171.88	0.0436701	0.07537	1	0.0871075	59.91162	-1.311908E-005	4.006946	11	0.1595492	0.0138913	-327.6853
	7	17	20015.62	0.0399379	0.0621055	1	0.0738385	57.2563	-2.499286E-005	4.006931	11	0.1593502	0.0117626	-327.6853
	8	19	15890.62	0.0368473	0.051125	1	0.0630197	54.2186	-1.320458E-005	4.00693	11	0.1592286	0.0100326	-327.6853
	9	21	12609.38	0.0342647	0.0420293	1	0.0542266	50.81108	-1.47965E-005	4.006922	11	0.1591436	0.0086288	-327.6853
	10	22	10078.13	0.0321798	0.0346203	1	0.0472663	47.09229	-2.498586E-005	4.006918	11	0.1590803	0.0075186	-327.6853
	11	24	8015.625	0.0304689	0.0282116	1	0.041524	42.7971	-1.389941E-005	4.006917	11	0.159057	0.0066044	-327.6853
	12	26	6328.125	0.0291452	0.0226231	1	0.0368951	37.81925	-1.579843E-005	4.006906	11	0.1590314	0.0058673	-327.6853
	13	27	5015.625	0.0282178	0.0180523	1	0.0334982	32.60899	-1.533795E-005	4.006897	11	0.1590146	0.0053266	-327.6853
	14	29	3984.375	0.0276162	0.0142672	1	0.0310839	27.32193	-1.891429E-005	4.006896	11	0.1590104	0.0049426	-327.6853
	15	31	3170.956	0.0272584	0.0111708	1	0.0294585	22.28433	-1.946173E-005	4.006883	11	0.1590001	0.0046839	-327.6853
	16	32	2527.573	0.027093	0.0086267	1	0.0284333	17.66208	-2.257928E-005	4.006887	11	0.1590048	0.004521	-327.6853
	17	34	1976.103	0.0270543	0.00644	1	0.0278102	13.3894	-1.843821E-005	4.006869	11	0.1590052	0.004422	-327.6853
	18	35	1577.524	0.0271352	0.004789	1	0.0275546	10.00885	-2.807996E-005	4.006876	11	0.1590017	0.0043812	-327.6853
	19	37	1265.625	0.0272502	0.0035256	1	0.0274773	7.372005	-1.96029E-005	4.006861	11	0.158994	0.0043687	-327.6853
	20	39	998.264	0.0274334	0.00244	1	0.0275417	5.082765	-1.545082E-005	4.00686	11	0.1590027	0.0043792	-327.6853
	21	40	796.875	0.0276474	0.0015492	1	0.0276908	3.207172	-1.645443E-005	4.006857	11	0.1590002	0.0044028	-327.6853
	22	42	627.7902	0.0278774	0.0009121	1	0.0278923	1.874013	-1.859464E-005	4.006852	11	0.1590103	0.0044352	-327.6853
	23	43	505.5147	0.0281162	0.000337	1	0.0281182	0.6867211	-1.765491E-005	4.006851	11	0.1575886	0.0044065	-327.6853
	24	45	397.9953	0.0283889	-9.432407E-005	1	0.0283891	-0.1903682	-2.406177E-005	4.006844	11	0.1606079	0.0045408	-327.6853
	25	46	315.5048	0.0286483	-0.0004298	1	0.0286515	-0.8595023	-1.515549E-005	4.00684	11	0.1593327	0.0045523	-327.6853
	26	48	252.4038	0.0288983	-0.0006945	1	0.0289067	-1.376629	-1.684518E-005	4.006832	11	0.1589713	0.0045866	-327.6853
	27	49	198.6229	0.0291719	-0.0009161	1	0.0291863	-1.798645	-1.889281E-005	4.00683	11	0.1588761	0.0046314	-327.6853
	28	51	158.3615	0.0294327	-0.0010744	1	0.0294523	-2.090559	-2.813176E-005	4.006822	11	0.1588886	0.004676	-327.6853
	29	52	125.558	0.0297005	-0.0012079	1	0.0297251	-2.328844	-2.367783E-005	4.006814	11	0.1589182	0.0047215	-327.6853
	30	54	100.4464	0.0299684	-0.0012924	1	0.0299962	-2.469287	-3.219105E-005	4.006807	11	0.1589342	0.0047659	-327.6853
	31	55	79.00281	0.0302506	-0.0013526	1	0.0302809	-2.56023	-2.9683E-005	4.006811	11	0.1589593	0.0048125	-327.6853
	32	57	63.3446	0.0305107	-0.0013833	1	0.0305421	-2.595961	-1.786172E-005	4.006809	11	0.1589772	0.0048549	-327.6853
	33	59	50.22321	0.0307782	-0.001378	1	0.0308091	-2.563589	-1.585088E-005	4.006803	11	0.1589813	0.0048977	-327.6853
	34	61	38.42213	0.0310741	-0.0013522	1	0.0311035	-2.491729	-3.30545E-005	4.006798	11	0.1589878	0.0049449	-327.6853
	35	62	31.25	0.0312826	-0.0013007	1	0.0313096	-2.380846	-5.794107E-006	4.006788	11	0.1589956	0.0049779	-327.6853
	36	64	24.93351	0.0314984	-0.0012307	1	0.0315224	-2.237518	-1.73531E-005	4.006791	11	0.1589981	0.0050119	-327.6853
	37	65	19.86229	0.0316874	-0.0011518	1	0.0317083	-2.081751	1.245993E-005	4.006781	11	0.1589725	0.0050407	-327.6853
	38	67	15.625	0.0318692	-0.0010775	1	0.0318874	-1.936506	-3.035308E-005	4.006789	11	0.1590043	0.0050702	-327.6853
	39	68	12.40079	0.0320048	-0.0009877	1	0.0320201	-1.767606	-3.601448E-005	4.006771	11	0.1590019	0.0050912	-327.6853
	40	70	9.93114	0.0321295	-0.0009206	1	0.0321427	-1.641218	-2.601166E-005	4.006769	11	0.1590047	0.0051108	-327.6853
	41	72	7.944915	0.0322245	-0.0008595	1	0.0322359	-1.52781	-4.44731E-005	4.006773	11	0.1590005	0.0051255	-327.6853
	42	73	6.317385	0.0323177	-0.0008223	1	0.0323282	-1.457618	7.411675E-005	4.00677	11	0.1590221	0.0051409	-327.6853
	43	76	5.008013	0.0324044	-0.0007786	1	0.0324137	-1.376339	-5.043496E-005	4.006752	11	0.1589744	0.0051529	-327.6853
	44	78	3.945707	0.0324862	-0.0007756	1	0.0324954	-1.36775	-5.509553E-005	4.006754	11	0.1589825	0.0051662	-327.6853
	45	80	3.158693	0.0325712	-0.000779	1	0.0325805	-1.370148	-8.23302E-005	4.006747	11	0.1590239	0.0051811	-327.6853
	46	83	2.504006	0.0326631	-0.0007865	1	0.0326726	-1.379296	2.059748E-005	4.006734	11	0.1554093	0.0050565	-327.6853
	47	87	1.998082	0.0327438	-0.0008184	1	0.0327541	-1.43182	-0.0002955	4.00669	11	0.1615261	0.0052747	-327.6853
	48	91	1.584686	0.0328434	-0.0008657	1	0.0328548	-1.509793	-0.0002768	4.006688	11	0.1598511	0.0052412	-327.6853
	49	95	1.266892	0.0329466	-0.0009209	1	0.0329595	-1.60112	0.0002321	4.006663	11	0.1593274	0.0052443	-327.6853
	50	100	0.999041	0.0330673	-0.0009865	1	0.0330821	-1.708765	0.0002407	4.006675	11	0.1590962	0.0052587	-327.6853
	51	106	0.7923428	0.0332182	-0.0010648	1	0.0332353	-1.836013	-4.083934E-005	4.0067	11	0.1591257	0.0052857	-327.6853
	52	113	0.6334459	0.033355	-0.0011445	1	0.0333746	-1.965271	-3.929593E-005	4.006673	11	0.1589831	0.0053041	-327.6853
	53	121	0.5040323	0.0334952	-0.0012432	1	0.0335183	-2.125651	-3.807707E-005	4.006651	11	0.1589822	0.0053276	-327.6853
	54	131	0.400641	0.0336565	-0.0013483	1	0.0336835	-2.294103	-4.37733E-005	4.006618	11	0.1589864	0.0053545	-327.6853
	55	145	0.316723	0.0338346	-0.0014667	1	0.0338664	-2.482189	-3.725456E-005	4.006575	11	0.1589898	0.0053839	-327.6853
	56	162	0.2520161	0.034026	-0.0015939	1	0.0340633	-2.682033	-3.967948E-005	4.006532	11	0.1589935	0.0054155	-327.6853
	57	183	0.2003205	0.0342333	-0.0017446	1	0.0342777	-2.917359	-3.673555E-005	4.006488	11	0.1589959	0.0054498	-327.6853
	58	205	0.1588983	0.0344537	-0.001921	1	0.0345072	-3.19124	-3.834047E-005	4.006438	11	0.1589974	0.0054864	-327.6853
	59	230	0.1260081	0.0347067	-0.0021159	1	0.0347711	-3.488679	-3.889207E-005	4.006438	11	0.1589987	0.0055285	-327.6853
	60	268	0.1001603	0.0350135	-0.0023215	1	0.0350903	-3.793394	-4.643746E-005	4.006524	11	0.1589996	0.0055793	-327.6853
	61	305	0.0794492	0.0353025	-0.0025863	1	0.0353971	-4.190096	-3.799321E-005	4.006574	11	0.1589984	0.005628	-327.6853
	62	356	0.0631739	0.0355439	-0.0028964	1	0.0356617	-4.658592	-4.132402E-005	4.006378	11	0.1590005	0.0056702	-327.6853
	63	406	0.0501337	0.0358662	-0.0032361	1	0.0360119	-5.155747	-4.469285E-005	4.006218	11	0.1590004	0.0057259	-327.6853
	64	487	0.0398258	0.0362145	-0.0036434	1	0.0363973	-5.744978	-3.926454E-005	4.006062	11	0.158999	0.0057871	-327.6853
	65	589	0.0316296	0.0366368	-0.0041172	1	0.0368675	-6.411999	-3.923701E-005	4.005948	11	0.1590003	0.0058619	-327.6853
	66	685	0.0251206	0.0370779	-0.0046727	1	0.0373712	-7.182826	-4.525759E-005	4.005824	11	0.1590006	0.005942	-327.6853
	67	806	0.0199553	0.0375682	-0.0053421	1	0.0379461	-8.093069	-4.11173E-005	4.005686	11	0.1589995	0.0060334	-327.6853
	68	958	0.0158522	0.0381511	-0.0061158	1	0.0386382	-9.107261	-3.882835E-005	4.005497	11	0.1589996	0.0061435	-327.6853
	69	1212	0.0125907	0.0388227	-0.0070123	1	0.0394509	-10.23865	-3.801768E-005	4.005327	11	0.1589997	0.0062727	-327.6853
	70	1452	0.0100011	0.0396305	-0.0080531	1	0.0404405	-11.48638	-3.744911E-005	4.005183	11	0.1590011	0.0064301	-327.6853
