EXPLAIN
TAG	GALVEIS
TITLE	LABEL	Galvanostatic EIS	Test Identifier
DATE	LABEL	29.3.2024	Date
TIME	LABEL	16:48:30	Time
NOTES	NOTES	1	Notes...
	
PSTAT	PSTAT	REF600-12055	Potentiostat
FREQINIT	QUANT	1.00000E+005	Initial Freq. (Hz)
FREQFINAL	QUANT	1.00000E-002	Final Freq. (Hz)
PTSPERDEC	QUANT	1.00000E+001	Points/decade
IACREQ	QUANT	1.59000E-001	AC Current (A rms)
IDCREQ	QUANT	0.00000E+000	DC Current (A)
AREA	QUANT	1.00000E+000	Sample Area (cm^2)
SPEED	SELECTOR	1	Optimize for:
DRIFTCOR	SELECTOR	0	Drift Correction
THD	SELECTOR	0	THD
ZGUESS	QUANT	1.00000E-001	Estimated Z (ohms)
EOC	QUANT	3.503138	Open Circuit (V)
SEQUENCER	TOGGLE	TRUE	Run as Sequence
PSTATMODEL	IQUANT	4	Pstat Model
PSTATSECTION	LABEL	REF600-12055	Pstat Section
PSTATSERIALNO	LABEL	12055	Pstat Serial Number
CTRLMODE	IQUANT	0	Control Mode
ELECTROMETER	IQUANT	0	RE=0 or CS=1
IESTAB	IQUANT	0	I/E Stability
CASPEED	IQUANT	4	Control Amp Speed
CONVENTION	IQUANT	1	Current Convention
ICHRANGE	IQUANT	2	Ich Range
ICHRANGEMODE	TOGGLE	F	Ich Auto Range
ICHOFFSETENABLE	TOGGLE	T	Ich Offset Enable
ICHOFFSET	QUANT	0	Ich Offset (V)
ICHFILTER	IQUANT	3	Ich Filter
VCHRANGE	IQUANT	2	Vch Range
VCHRANGEMODE	TOGGLE	F	Vch Auto Range
VCHOFFSETENABLE	TOGGLE	T	Vch Offset Enable
VCHOFFSET	QUANT	0	Vch Offset (V)
VCHFILTER	IQUANT	3	Vch Filter
ACHRANGE	IQUANT	2	Ach Range
ACHOFFSETENABLE	TOGGLE	F	Ach Offset Enable
ACHOFFSET	QUANT	0	Ach Offset (V)
ACHFILTER	IQUANT	1	Ach Filter
IERANGELOWERLIMIT	IQUANT	1	I/E Range Lower Limit
IERANGEMODE	TOGGLE	F	I/E AutoRange
IERANGE	IQUANT	7	I/E Range
POSFEEDENABLE	TOGGLE	F	Positive Feedback IR Comp
POSFEEDRESISTANCE	QUANT	0	Positive Feedback Resistance (ohm)
ACHSELECT	IQUANT	4	Ach Select
SENSECABLEID	IQUANT	14	Sense Cable ID
PWRCABLEID	IQUANT	14	Power Cable ID
DCCALDATE	LABEL	2/12/2024	DC Calibration Date
ACCALDATE	LABEL	2/12/2024	AC Calibration Date
THERMOSELECT	IQUANT	1	Thermo Select
FRAMEWORKVERSION	LABEL	7.10.3	Framework Version
INSTRUMENTVERSION	LABEL	4.91	Instrument Version
COMMVERSION	LABEL	2.24	Communications Version
CPUPLDVERSION	LABEL	0.00	CPU PLD Version
CTRLPLDVERSION	LABEL	0.00	CTRL PLD Version
PSTATPLDVERSION	LABEL	0.00	PSTAT PLD Version
ZCURVE	TABLE
	Pt	Time	Freq	Zreal	Zimag	Zsig	Zmod	Zphz	Idc	Vdc	IERange	Imod	Vmod	Temp
	#	s	Hz	ohm	ohm	V	ohm	°	A	V	#	A	V	°C
	0	5	100078.1	0.1035238	0.2372254	1	0.2588302	66.42382	2.920406E-005	3.502984	11	0.1596636	0.0410249	-327.6853
	1	6	79453.13	0.0863666	0.1974485	1	0.2155112	66.37478	1.632085E-005	3.502985	11	0.1642898	0.0352426	-327.6853
	2	8	63140.62	0.0729078	0.163815	1	0.1793067	66.00797	2.553221E-006	3.502979	11	0.16198	0.0289585	-327.6853
	3	10	50203.12	0.0624973	0.1354337	1	0.1491583	65.22855	-9.750191E-006	3.502979	11	0.1609281	0.0239587	-327.6853
	4	11	39890.62	0.0545101	0.1115828	1	0.1241856	63.96372	-1.310348E-005	3.502966	11	0.1602729	0.0198798	-327.6853
	5	13	31640.63	0.0483794	0.0916628	1	0.1036467	62.17501	-1.461059E-005	3.502957	11	0.1598363	0.016554	-327.6853
	6	15	25171.88	0.0437167	0.0754825	1	0.0872282	59.92218	-1.262629E-005	3.502957	11	0.1595482	0.0139104	-327.6853
	7	17	20015.62	0.0399947	0.0621919	1	0.073942	57.25553	-1.251581E-005	3.502945	11	0.1593512	0.0117792	-327.6853
	8	18	15890.62	0.0369192	0.051205	1	0.0631267	54.2081	-2.485421E-005	3.502937	11	0.1592284	0.0100496	-327.6853
	9	20	12609.38	0.0343421	0.0420711	1	0.054308	50.77569	-1.840736E-005	3.502929	11	0.1591375	0.0086414	-327.6853
	10	22	10078.13	0.0322583	0.0346678	1	0.0473546	47.06192	-1.962704E-005	3.502917	11	0.1590874	0.0075329	-327.6853
	11	23	8015.625	0.0305515	0.0282518	1	0.041612	42.76042	-2.015696E-005	3.502921	11	0.1590537	0.0066182	-327.6853
	12	25	6328.125	0.0292259	0.0226606	1	0.0369819	37.78862	-1.847016E-005	3.502909	11	0.1590311	0.0058811	-327.6853
	13	26	5015.625	0.0282948	0.0180689	1	0.033572	32.56213	-1.963472E-005	3.50291	11	0.1590119	0.0053382	-327.6853
	14	28	3984.375	0.0276861	0.0142879	1	0.0311555	27.2968	-2.82356E-005	3.502909	11	0.1590155	0.0049541	-327.6853
	15	30	3170.956	0.0273242	0.0111887	1	0.0295262	22.26805	-1.568906E-005	3.502905	11	0.1590027	0.0046947	-327.6853
	16	31	2527.573	0.0271516	0.0086062	1	0.0284829	17.58707	-2.020504E-005	3.502887	11	0.1590039	0.0045289	-327.6853
	17	33	1976.103	0.0271161	0.0063898	1	0.0278588	13.25965	-1.844589E-005	3.502891	11	0.1589975	0.0044295	-327.6853
	18	34	1577.524	0.0271802	0.0047891	1	0.0275989	9.99275	-1.571281E-005	3.502881	11	0.159007	0.0043884	-327.6853
	19	36	1265.625	0.0273194	0.0034538	1	0.0275368	7.205251	-1.547806E-005	3.502879	11	0.1589926	0.0043781	-327.6853
	20	38	998.264	0.0275192	0.0022867	1	0.0276141	4.750138	-2.019026E-005	3.502865	11	0.1590056	0.0043908	-327.6853
	21	39	796.875	0.0277333	0.001455	1	0.0277714	3.003214	-2.192182E-005	3.502858	11	0.1590041	0.0044158	-327.6853
	22	41	627.7902	0.0280057	0.0006669	1	0.0280136	1.364062	-1.729085E-005	3.502858	11	0.1589924	0.004454	-327.6853
	23	42	505.5147	0.0282613	0.000138	1	0.0282617	0.2797946	-3.272097E-005	3.502862	11	0.1575986	0.0044293	-327.6853
	24	44	397.9953	0.0285633	-0.0003188	1	0.0285651	-0.6394089	-1.812144E-005	3.502855	11	0.1606058	0.0045689	-327.6853
	25	45	315.5048	0.02886	-0.000682	1	0.028868	-1.353679	-2.161134E-005	3.502851	11	0.1593384	0.0045868	-327.6853
	26	47	252.4038	0.029145	-0.0009716	1	0.0291612	-1.909333	-1.80733E-005	3.502844	11	0.1589696	0.004627	-327.6853
	27	48	198.6229	0.0294563	-0.0012216	1	0.0294816	-2.374777	-1.629686E-005	3.502839	11	0.1588746	0.0046782	-327.6853
	28	50	158.3615	0.0297615	-0.0014148	1	0.0297951	-2.721694	-2.053811E-005	3.502836	11	0.1588928	0.0047305	-327.6853
	29	51	125.558	0.0300759	-0.0015716	1	0.030117	-2.991246	-1.728555E-005	3.502831	11	0.1589112	0.0047836	-327.6853
	30	53	100.4464	0.0303876	-0.0016972	1	0.030435	-3.196762	-1.924334E-005	3.502825	11	0.158941	0.0048358	-327.6853
	31	54	79.00281	0.0307263	-0.0018038	1	0.0307792	-3.359788	-3.185915E-005	3.502822	11	0.158955	0.0048915	-327.6853
	32	56	63.3446	0.0310452	-0.001879	1	0.031102	-3.463572	-2.181437E-005	3.502817	11	0.1589767	0.0049439	-327.6853
	33	58	50.22321	0.0313814	-0.0019324	1	0.0314408	-3.523659	-1.999154E-005	3.502813	11	0.1589842	0.0049982	-327.6853
	34	60	38.42213	0.0317768	-0.0019713	1	0.0318379	-3.549884	-2.163753E-005	3.50281	11	0.1589861	0.0050616	-327.6853
	35	61	31.25	0.0320851	-0.0019741	1	0.0321458	-3.52082	-1.789979E-005	3.502802	11	0.1589954	0.0051109	-327.6853
	36	63	24.93351	0.0324163	-0.001961	1	0.0324756	-3.461869	-2.007373E-005	3.502799	11	0.1589954	0.0051634	-327.6853
	37	64	19.86229	0.0327534	-0.00193	1	0.0328102	-3.372219	6.600749E-006	3.502795	11	0.158983	0.0052162	-327.6853
	38	66	15.625	0.0330901	-0.0018654	1	0.0331427	-3.226579	-1.642757E-005	3.502797	11	0.1590016	0.0052697	-327.6853
	39	67	12.40079	0.033391	-0.0017802	1	0.0334384	-3.051729	-2.513814E-005	3.502796	11	0.1590029	0.0053168	-327.6853
	40	69	9.93114	0.0336684	-0.0016777	1	0.0337101	-2.852675	-1.680572E-006	3.502792	11	0.1589973	0.0053598	-327.6853
	41	70	7.944915	0.0339182	-0.0015608	1	0.0339541	-2.634621	-3.640493E-005	3.50278	11	0.1589866	0.0053982	-327.6853
	42	72	6.317385	0.0341247	-0.0014564	1	0.0341557	-2.443865	1.591601E-006	3.502792	11	0.1589745	0.0054299	-327.6853
	43	74	5.008013	0.034326	-0.0013359	1	0.034352	-2.228668	-8.059293E-005	3.502781	11	0.1590124	0.0054624	-327.6853
	44	77	3.945707	0.0344845	-0.0012301	1	0.0345065	-2.042891	-4.230224E-005	3.502778	11	0.1590258	0.0054874	-327.6853
	45	79	3.158693	0.034617	-0.0011629	1	0.0346365	-1.924006	-0.000126	3.502781	11	0.1589661	0.005506	-327.6853
	46	82	2.504006	0.0347557	-0.0010921	1	0.0347728	-1.799839	-5.064346E-005	3.502783	11	0.1554454	0.0053828	-327.6853
	47	86	1.998082	0.0348763	-0.0010501	1	0.0348921	-1.724587	-5.15038E-005	3.502779	11	0.1613403	0.0056125	-327.6853
	48	90	1.584686	0.0349836	-0.0010373	1	0.034999	-1.698362	0.0001398	3.502774	11	0.159944	0.0055865	-327.6853
	49	94	1.266892	0.0350814	-0.001035	1	0.0350967	-1.689866	-8.104622E-005	3.5027	11	0.159265	0.0055821	-327.6853
	50	98	0.999041	0.0352047	-0.0010541	1	0.0352205	-1.715037	-2.22767E-005	3.502679	11	0.1590682	0.0055976	-327.6853
	51	104	0.7923428	0.0353484	-0.0010865	1	0.0353651	-1.76058	-3.84585E-005	3.502729	11	0.1593046	0.0056307	-327.6853
	52	112	0.6334459	0.0354717	-0.0011281	1	0.0354897	-1.82152	-3.895932E-005	3.502702	11	0.1589824	0.0056402	-327.6853
	53	120	0.5040323	0.0356056	-0.0011914	1	0.0356255	-1.916505	-3.9206E-005	3.502672	11	0.1589828	0.0056626	-327.6853
	54	131	0.400641	0.0357554	-0.0012686	1	0.0357779	-2.031945	-3.991892E-005	3.502634	11	0.1589861	0.0056874	-327.6853
	55	145	0.316723	0.0359083	-0.0013582	1	0.035934	-2.16615	-3.902176E-005	3.502591	11	0.1589892	0.0057126	-327.6853
	56	163	0.2520161	0.0360716	-0.0014692	1	0.0361015	-2.332444	-3.804432E-005	3.502549	11	0.1589936	0.0057396	-327.6853
	57	180	0.2003205	0.0362385	-0.0015991	1	0.0362738	-2.526646	-3.943375E-005	3.502501	11	0.1589977	0.0057672	-327.6853
	58	201	0.1588983	0.0364153	-0.0017502	1	0.0364573	-2.751682	-4.018292E-005	3.502446	11	0.1589952	0.0057964	-327.6853
	59	227	0.1260081	0.0366174	-0.0019426	1	0.0366689	-3.036757	-4.042206E-005	3.502458	11	0.1589995	0.0058303	-327.6853
	60	265	0.1001603	0.036856	-0.0021706	1	0.0369198	-3.370508	-3.409686E-005	3.502537	11	0.1589985	0.0058701	-327.6853
	61	311	0.0794492	0.0370927	-0.0024358	1	0.0371726	-3.757061	-3.816073E-005	3.502611	11	0.1590006	0.0059104	-327.6853
	62	363	0.0631739	0.0372866	-0.0027723	1	0.0373895	-4.252109	-3.771966E-005	3.502363	11	0.1589993	0.0059449	-327.6853
	63	428	0.0501337	0.0375535	-0.0031757	1	0.0376875	-4.833653	-3.828527E-005	3.502217	11	0.159	0.0059923	-327.6853
	64	489	0.0398258	0.0378389	-0.0036677	1	0.0380162	-5.536329	-4.030762E-005	3.502056	11	0.1589975	0.0060445	-327.6853
	65	591	0.0316296	0.0381696	-0.0042594	1	0.0384066	-6.3674	-4.681595E-005	3.501896	11	0.1590021	0.0061067	-327.6853
	66	688	0.0251206	0.0385631	-0.0049647	1	0.0388814	-7.335987	-3.907203E-005	3.501707	11	0.1590001	0.0061821	-327.6853
	67	848	0.0199553	0.039029	-0.0058204	1	0.0394606	-8.481943	-3.87395E-005	3.501519	11	0.1590006	0.0062743	-327.6853
	68	1000	0.0158522	0.039607	-0.0068392	1	0.0401932	-9.79698	-4.006483E-005	3.501356	11	0.1589989	0.0063907	-327.6853
	69	1191	0.0125907	0.0403214	-0.0080377	1	0.0411147	-11.27357	-4.159074E-005	3.501182	11	0.1590004	0.0065373	-327.6853
	70	1431	0.0100011	0.0411966	-0.009435	1	0.0422632	-12.89962	-4.050281E-005	3.500939	11	0.1590002	0.0067199	-327.6853
