EXPLAIN
TAG	GALVEIS
TITLE	LABEL	Galvanostatic EIS	Test Identifier
DATE	LABEL	8.2.2024	Date
TIME	LABEL	8:45:06	Time
NOTES	NOTES	1	Notes...
	
PSTAT	PSTAT	REF600-12055	Potentiostat
FREQINIT	QUANT	1.00000E+005	Initial Freq. (Hz)
FREQFINAL	QUANT	1.00000E-002	Final Freq. (Hz)
PTSPERDEC	QUANT	1.00000E+001	Points/decade
IACREQ	QUANT	1.61000E-001	AC Current (A rms)
IDCREQ	QUANT	0.00000E+000	DC Current (A)
AREA	QUANT	1.00000E+000	Sample Area (cm^2)
SPEED	SELECTOR	1	Optimize for:
DRIFTCOR	SELECTOR	0	Drift Correction
THD	SELECTOR	0	THD
ZGUESS	QUANT	1.00000E-001	Estimated Z (ohms)
EOC	QUANT	3.859157	Open Circuit (V)
SEQUENCER	TOGGLE	TRUE	Run as Sequence
PSTATMODEL	IQUANT	4	Pstat Model
PSTATSECTION	LABEL	REF600-12055	Pstat Section
PSTATSERIALNO	LABEL	12055	Pstat Serial Number
CTRLMODE	IQUANT	0	Control Mode
ELECTROMETER	IQUANT	0	RE=0 or CS=1
IESTAB	IQUANT	0	I/E Stability
CASPEED	IQUANT	4	Control Amp Speed
CONVENTION	IQUANT	1	Current Convention
ICHRANGE	IQUANT	2	Ich Range
ICHRANGEMODE	TOGGLE	F	Ich Auto Range
ICHOFFSETENABLE	TOGGLE	T	Ich Offset Enable
ICHOFFSET	QUANT	0	Ich Offset (V)
ICHFILTER	IQUANT	3	Ich Filter
VCHRANGE	IQUANT	2	Vch Range
VCHRANGEMODE	TOGGLE	F	Vch Auto Range
VCHOFFSETENABLE	TOGGLE	T	Vch Offset Enable
VCHOFFSET	QUANT	0	Vch Offset (V)
VCHFILTER	IQUANT	3	Vch Filter
ACHRANGE	IQUANT	2	Ach Range
ACHOFFSETENABLE	TOGGLE	F	Ach Offset Enable
ACHOFFSET	QUANT	0	Ach Offset (V)
ACHFILTER	IQUANT	1	Ach Filter
IERANGELOWERLIMIT	IQUANT	1	I/E Range Lower Limit
IERANGEMODE	TOGGLE	F	I/E AutoRange
IERANGE	IQUANT	7	I/E Range
POSFEEDENABLE	TOGGLE	F	Positive Feedback IR Comp
POSFEEDRESISTANCE	QUANT	0	Positive Feedback Resistance (ohm)
ACHSELECT	IQUANT	4	Ach Select
SENSECABLEID	IQUANT	14	Sense Cable ID
PWRCABLEID	IQUANT	14	Power Cable ID
DCCALDATE	LABEL		DC Calibration Date
ACCALDATE	LABEL		AC Calibration Date
THERMOSELECT	IQUANT	1	Thermo Select
FRAMEWORKVERSION	LABEL	7.10.3	Framework Version
INSTRUMENTVERSION	LABEL	4.91	Instrument Version
COMMVERSION	LABEL	2.24	Communications Version
CPUPLDVERSION	LABEL	0.00	CPU PLD Version
CTRLPLDVERSION	LABEL	0.00	CTRL PLD Version
PSTATPLDVERSION	LABEL	0.00	PSTAT PLD Version
ZCURVE	TABLE
	Pt	Time	Freq	Zreal	Zimag	Zsig	Zmod	Zphz	Idc	Vdc	IERange	Imod	Vmod	Temp
	#	s	Hz	ohm	ohm	V	ohm	°	A	V	#	A	V	°C
	0	5	100078.1	0.1062717	0.2372949	1	0.2600048	65.87495	0.0003572	3.858635	11	0.1616232	0.0417421	-327.67
	1	7	79453.13	0.0879409	0.1977712	1	0.2164418	66.02721	0.000354	3.858643	11	0.1663106	0.0358316	-327.67
	2	8	63140.62	0.0737618	0.1641402	1	0.1799522	65.80165	0.0003388	3.858656	11	0.1639846	0.0294189	-327.67
	3	10	50203.12	0.0629108	0.1357164	1	0.1495885	65.1301	0.0003361	3.858671	11	0.1629442	0.0243255	-327.67
	4	12	39890.62	0.0546599	0.1118025	1	0.1244488	63.94613	0.0003224	3.858685	11	0.1622973	0.0201713	-327.67
	5	14	31640.63	0.0483775	0.0918142	1	0.1037797	62.21497	0.0003168	3.858694	11	0.1618422	0.0167819	-327.67
	6	15	25171.88	0.0436257	0.075592	1	0.0872774	60.00989	0.0003169	3.858701	11	0.1615541	0.0140925	-327.67
	7	17	20015.62	0.0398705	0.0622503	1	0.073924	57.36097	0.0003096	3.85866	11	0.1613624	0.0119245	-327.67
	8	19	15890.62	0.0367612	0.0512248	1	0.0630505	54.33507	0.0003101	3.858678	11	0.1612316	0.0101635	-327.67
	9	20	12609.38	0.034161	0.0420698	1	0.0541926	50.92311	0.0003112	3.85868	11	0.1611417	0.0087315	-327.67
	10	22	10078.13	0.0320687	0.0346273	1	0.0471959	47.19689	0.0003164	3.85869	11	0.1610845	0.0076019	-327.67
	11	23	8015.625	0.0303621	0.0281734	1	0.0414197	42.85867	0.000323	3.858696	11	0.1610553	0.0066705	-327.67
	12	25	6328.125	0.0290425	0.0225628	1	0.036777	37.84326	0.0003211	3.858713	11	0.16103	0.005922	-327.67
	13	26	5015.625	0.0281279	0.0179434	1	0.0333639	32.53473	0.000317	3.858716	11	0.1610158	0.005372	-327.67
	14	28	3984.375	0.02755	0.014139	1	0.0309664	27.16749	0.0003226	3.858733	11	0.1610112	0.0049859	-327.67
	15	30	3170.956	0.0272123	0.0110001	1	0.0293515	22.01016	0.0003139	3.858736	11	0.1610038	0.0047257	-327.67
	16	31	2527.573	0.0270738	0.0084317	1	0.0283564	17.29831	0.0003104	3.858735	11	0.1610082	0.0045656	-327.67
	17	33	1976.103	0.0270885	0.0061845	1	0.0277855	12.86059	0.0003046	3.858749	11	0.160998	0.0044734	-327.67
	18	35	1577.524	0.027205	0.0045181	1	0.0275776	9.429417	0.0003161	3.858763	11	0.1610063	0.0044402	-327.67
	19	36	1265.625	0.0273702	0.0031765	1	0.0275539	6.619969	0.0003164	3.858771	11	0.1609927	0.004436	-327.67
	20	38	998.264	0.0276129	0.0020152	1	0.0276863	4.173985	0.0003171	3.858778	11	0.1609979	0.0044574	-327.67
	21	39	796.875	0.027892	0.0011613	1	0.0279162	2.38412	0.0003216	3.858788	11	0.1610031	0.0044946	-327.67
	22	41	627.7902	0.0282267	0.0004094	1	0.0282297	0.8309625	0.0003217	3.858786	11	0.1609995	0.004545	-327.67
	23	42	505.5147	0.0283925	0.0001126	1	0.0283927	0.2271981	0.0003101	3.858716	11	0.1595841	0.004531	-327.67
	24	44	397.9953	0.0288094	-0.0004051	1	0.0288123	-0.8055151	0.0003069	3.858724	11	0.16262	0.0046855	-327.67
	25	45	315.5048	0.0292045	-0.0007871	1	0.0292151	-1.54387	0.0002989	3.858729	11	0.1613404	0.0047136	-327.67
	26	47	252.4038	0.0295721	-0.001039	1	0.0295904	-2.012303	0.0002953	3.858739	11	0.160971	0.0047632	-327.67
	27	48	198.6229	0.0299543	-0.0012322	1	0.0299796	-2.355614	0.0002988	3.858747	11	0.160873	0.0048229	-327.67
	28	50	158.3615	0.0303005	-0.0013446	1	0.0303303	-2.540928	0.0003019	3.858755	11	0.1608897	0.0048798	-327.67
	29	52	125.558	0.0306362	-0.0014087	1	0.0306685	-2.632679	0.000304	3.858763	11	0.1609113	0.0049349	-327.67
	30	53	100.4464	0.0309411	-0.0014179	1	0.0309736	-2.623726	0.0003111	3.85877	11	0.1609451	0.004985	-327.67
	31	55	79.00281	0.0312499	-0.0013977	1	0.0312811	-2.560953	0.0003096	3.858783	11	0.1609497	0.0050347	-327.67
	32	56	63.3446	0.0315081	-0.0013482	1	0.031537	-2.450178	0.0003098	3.858788	11	0.1609774	0.0050767	-327.67
	33	58	50.22321	0.0317508	-0.0012715	1	0.0317762	-2.293207	0.0003079	3.8588	11	0.1609837	0.0051155	-327.67
	34	59	38.42213	0.0319915	-0.0011503	1	0.0320121	-2.059212	0.0003067	3.858807	11	0.1609868	0.0051535	-327.67
	35	61	31.25	0.032147	-0.0010552	1	0.0321643	-1.880009	0.0003243	3.858812	11	0.1609886	0.0051781	-327.67
	36	62	24.93351	0.0322904	-0.0009528	1	0.0323044	-1.690107	0.0003089	3.858825	11	0.1610013	0.0052011	-327.67
	37	64	19.86229	0.0324192	-0.0008475	1	0.0324303	-1.49756	0.000303	3.858827	11	0.1609988	0.0052212	-327.67
	38	66	15.625	0.0325066	-0.0007704	1	0.0325157	-1.35764	0.0002951	3.858841	11	0.1609793	0.0052344	-327.67
	39	67	12.40079	0.032598	-0.000704	1	0.0326056	-1.237126	0.0002862	3.858839	11	0.1609939	0.0052493	-327.67
	40	68	9.93114	0.0326617	-0.0006429	1	0.032668	-1.127595	0.0002888	3.858844	11	0.1610102	0.0052599	-327.67
	41	70	7.944915	0.032708	-0.0006048	1	0.0327136	-1.059359	0.0003313	3.858846	11	0.1609935	0.0052667	-327.67
	42	72	6.317385	0.0327731	-0.0005827	1	0.0327783	-1.018667	0.0002266	3.858863	11	0.1610163	0.0052778	-327.67
	43	74	5.008013	0.0328228	-0.0005803	1	0.0328279	-1.012941	0.0003456	3.858876	11	0.1609844	0.0052848	-327.67
	44	77	3.945707	0.0328695	-0.0005937	1	0.0328749	-1.034742	0.0003278	3.858878	11	0.1609943	0.0052927	-327.67
	45	79	3.158693	0.0329263	-0.0006123	1	0.032932	-1.065411	0.0004159	3.858867	11	0.1609689	0.005301	-327.67
	46	82	2.504006	0.0328599	-0.0005491	1	0.0328644	-0.95735	0.0003146	3.858841	11	0.1574292	0.0051738	-327.67
	47	85	1.998082	0.0329501	-0.000639	1	0.0329563	-1.110987	0.0005214	3.858892	11	0.163446	0.0053866	-327.67
	48	89	1.584686	0.033053	-0.0007433	1	0.0330614	-1.288316	0.0003769	3.858901	11	0.1618175	0.0053499	-327.67
	49	93	1.266892	0.0331431	-0.0008391	1	0.0331538	-1.450325	0.0001957	3.858982	11	0.161327	0.0053486	-327.67
	50	101	0.999041	0.0332441	-0.0009503	1	0.0332577	-1.637337	0.0001459	3.858997	11	0.1611275	0.0053587	-327.67
	51	105	0.7923428	0.0333602	-0.001078	1	0.0333776	-1.850799	0.0002821	3.859041	11	0.1612565	0.0053824	-327.67
	52	113	0.6334459	0.0334836	-0.0012232	1	0.0335059	-2.092123	0.0002819	3.859089	11	0.1609825	0.0053939	-327.67
	53	121	0.5040323	0.0336285	-0.0013942	1	0.0336573	-2.374002	0.0002826	3.859128	11	0.1609808	0.0054182	-327.67
	54	130	0.400641	0.0337973	-0.0015846	1	0.0338344	-2.684432	0.0002824	3.859185	11	0.1609877	0.0054469	-327.67
	55	142	0.316723	0.0339913	-0.0018012	1	0.034039	-3.033225	0.0002818	3.859252	11	0.1609896	0.0054799	-327.67
	56	159	0.2520161	0.0342144	-0.0020372	1	0.034275	-3.4075	0.0002806	3.859333	11	0.1609944	0.0055181	-327.67
	57	181	0.2003205	0.0344678	-0.0022896	1	0.0345438	-3.800354	0.0002798	3.859444	11	0.1609946	0.0055614	-327.67
	58	207	0.1588983	0.0347482	-0.002567	1	0.0348429	-4.225029	0.0002815	3.859565	11	0.1609972	0.0056096	-327.67
	59	232	0.1260081	0.035098	-0.002867	1	0.0352149	-4.669822	0.0002785	3.859797	11	0.1609971	0.0056695	-327.67
	60	262	0.1001603	0.0354806	-0.0031806	1	0.0356229	-5.122509	0.0002814	3.860129	11	0.1610011	0.0057353	-327.67
	61	309	0.0794492	0.0358889	-0.0035466	1	0.0360637	-5.643753	0.0002805	3.860496	11	0.1609974	0.0058062	-327.67
	62	361	0.0631739	0.0362258	-0.0039666	1	0.0364423	-6.248768	0.0002813	3.86051	11	0.1610016	0.0058673	-327.67
	63	425	0.0501337	0.0366412	-0.0044434	1	0.0369096	-6.914359	0.0002805	3.860637	11	0.1609981	0.0059424	-327.67
	64	487	0.0398258	0.0370807	-0.00498	1	0.0374136	-7.649194	0.0002785	3.86082	11	0.1610009	0.0060236	-327.67
	65	589	0.0316296	0.0376073	-0.0056085	1	0.0380232	-8.482185	0.0002807	3.861044	11	0.1609998	0.0061217	-327.67
	66	685	0.0251206	0.0381766	-0.0063714	1	0.0387046	-9.474979	0.0002824	3.861269	11	0.1610005	0.0062315	-327.67
	67	806	0.0199553	0.0388053	-0.0072613	1	0.0394789	-10.59867	0.0002816	3.86153	11	0.1609994	0.0063561	-327.67
	68	1008	0.0158522	0.0395324	-0.0082927	1	0.0403928	-11.84716	0.0002804	3.861825	11	0.161001	0.0065033	-327.67
	69	1262	0.0125907	0.0404183	-0.0095239	1	0.0415252	-13.25894	0.0002822	3.862158	11	0.1609993	0.0066855	-327.67
	70	1581	0.0100011	0.0414977	-0.0109065	1	0.042907	-14.72554	0.0002796	3.862472	11	0.161001	0.0069081	-327.67
