EXPLAIN
TAG	GALVEIS
TITLE	LABEL	Galvanostatic EIS	Test Identifier
DATE	LABEL	8.2.2024	Date
TIME	LABEL	16:58:00	Time
NOTES	NOTES	1	Notes...
	
PSTAT	PSTAT	REF600-12055	Potentiostat
FREQINIT	QUANT	1.00000E+005	Initial Freq. (Hz)
FREQFINAL	QUANT	1.00000E-002	Final Freq. (Hz)
PTSPERDEC	QUANT	1.00000E+001	Points/decade
IACREQ	QUANT	1.59000E-001	AC Current (A rms)
IDCREQ	QUANT	0.00000E+000	DC Current (A)
AREA	QUANT	1.00000E+000	Sample Area (cm^2)
SPEED	SELECTOR	1	Optimize for:
DRIFTCOR	SELECTOR	0	Drift Correction
THD	SELECTOR	0	THD
ZGUESS	QUANT	1.00000E-001	Estimated Z (ohms)
EOC	QUANT	3.233897	Open Circuit (V)
SEQUENCER	TOGGLE	TRUE	Run as Sequence
PSTATMODEL	IQUANT	4	Pstat Model
PSTATSECTION	LABEL	REF600-12055	Pstat Section
PSTATSERIALNO	LABEL	12055	Pstat Serial Number
CTRLMODE	IQUANT	0	Control Mode
ELECTROMETER	IQUANT	0	RE=0 or CS=1
IESTAB	IQUANT	0	I/E Stability
CASPEED	IQUANT	4	Control Amp Speed
CONVENTION	IQUANT	1	Current Convention
ICHRANGE	IQUANT	2	Ich Range
ICHRANGEMODE	TOGGLE	F	Ich Auto Range
ICHOFFSETENABLE	TOGGLE	T	Ich Offset Enable
ICHOFFSET	QUANT	0	Ich Offset (V)
ICHFILTER	IQUANT	3	Ich Filter
VCHRANGE	IQUANT	2	Vch Range
VCHRANGEMODE	TOGGLE	F	Vch Auto Range
VCHOFFSETENABLE	TOGGLE	T	Vch Offset Enable
VCHOFFSET	QUANT	0	Vch Offset (V)
VCHFILTER	IQUANT	3	Vch Filter
ACHRANGE	IQUANT	2	Ach Range
ACHOFFSETENABLE	TOGGLE	F	Ach Offset Enable
ACHOFFSET	QUANT	0	Ach Offset (V)
ACHFILTER	IQUANT	1	Ach Filter
IERANGELOWERLIMIT	IQUANT	1	I/E Range Lower Limit
IERANGEMODE	TOGGLE	F	I/E AutoRange
IERANGE	IQUANT	7	I/E Range
POSFEEDENABLE	TOGGLE	F	Positive Feedback IR Comp
POSFEEDRESISTANCE	QUANT	0	Positive Feedback Resistance (ohm)
ACHSELECT	IQUANT	4	Ach Select
SENSECABLEID	IQUANT	14	Sense Cable ID
PWRCABLEID	IQUANT	14	Power Cable ID
DCCALDATE	LABEL		DC Calibration Date
ACCALDATE	LABEL		AC Calibration Date
THERMOSELECT	IQUANT	1	Thermo Select
FRAMEWORKVERSION	LABEL	7.10.3	Framework Version
INSTRUMENTVERSION	LABEL	4.91	Instrument Version
COMMVERSION	LABEL	2.24	Communications Version
CPUPLDVERSION	LABEL	0.00	CPU PLD Version
CTRLPLDVERSION	LABEL	0.00	CTRL PLD Version
PSTATPLDVERSION	LABEL	0.00	PSTAT PLD Version
ZCURVE	TABLE
	Pt	Time	Freq	Zreal	Zimag	Zsig	Zmod	Zphz	Idc	Vdc	IERange	Imod	Vmod	Temp
	#	s	Hz	ohm	ohm	V	ohm	°	A	V	#	A	V	°C
	0	5	100078.1	0.1048428	0.2389164	1	0.2609081	66.30687	0.0003574	3.233122	11	0.1596397	0.0413731	-327.67
	1	7	79453.13	0.0870564	0.1987955	1	0.2170218	66.35045	0.0003395	3.233146	11	0.1642424	0.0354809	-327.67
	2	8	63140.62	0.073281	0.1647817	1	0.1803416	66.02454	0.0003276	3.233181	11	0.1619588	0.0291184	-327.67
	3	10	50203.12	0.06272	0.1361137	1	0.1498691	65.26017	0.0003342	3.233211	11	0.160902	0.0240657	-327.67
	4	12	39890.62	0.0546863	0.1120422	1	0.1246758	63.98361	0.0003283	3.233228	11	0.160273	0.0199561	-327.67
	5	13	31640.63	0.0485535	0.0919504	1	0.1039823	62.16415	0.0003191	3.233256	11	0.1598348	0.0166061	-327.67
	6	15	25171.88	0.0439031	0.0756527	1	0.0874689	59.87239	0.0003171	3.233282	11	0.1595441	0.0139477	-327.67
	7	17	20015.62	0.0402414	0.0622596	1	0.0741325	57.12346	0.0003225	3.233262	11	0.1593572	0.0118095	-327.67
	8	19	15890.62	0.0371871	0.0511979	1	0.063278	54.00755	0.0003213	3.233285	11	0.1592234	0.0100732	-327.67
	9	20	12609.38	0.0346285	0.0420278	1	0.0544561	50.51344	0.0003223	3.233298	11	0.1591386	0.0086649	-327.67
	10	22	10078.13	0.0325778	0.0345644	1	0.0474975	46.69484	0.00032	3.233327	11	0.1590885	0.0075556	-327.67
	11	24	8015.625	0.0308879	0.0280985	1	0.0417563	42.29261	0.0003209	3.233346	11	0.1590518	0.0066411	-327.67
	12	25	6328.125	0.0295951	0.0224751	1	0.0371618	37.21368	0.0003192	3.233374	11	0.159032	0.0059097	-327.67
	13	27	5015.625	0.0287053	0.0178523	1	0.0338038	31.87816	0.0003137	3.233398	11	0.1590162	0.0053752	-327.67
	14	28	3984.375	0.0281283	0.0140304	1	0.0314333	26.51002	0.0003197	3.233413	11	0.1590111	0.0049982	-327.67
	15	30	3170.956	0.0278052	0.0108889	1	0.0298613	21.38604	0.0003211	3.233432	11	0.1590038	0.004748	-327.67
	16	31	2527.573	0.0276701	0.0083247	1	0.0288953	16.7442	0.0003179	3.233452	11	0.1590055	0.0045945	-327.67
	17	33	1976.103	0.0276946	0.0060846	1	0.0283551	12.39124	0.0003157	3.233473	11	0.1590048	0.0045086	-327.67
	18	35	1577.524	0.027813	0.004369	1	0.0281541	8.927425	0.0003173	3.2335	11	0.1589961	0.0044764	-327.67
	19	36	1265.625	0.0280013	0.0029718	1	0.0281585	6.058156	0.0003157	3.233518	11	0.1590015	0.0044772	-327.67
	20	38	998.264	0.0282842	0.0018702	1	0.028346	3.783	0.000316	3.23354	11	0.1590046	0.0045071	-327.67
	21	40	796.875	0.028574	0.0008771	1	0.0285875	1.758261	0.000318	3.233561	11	0.1589935	0.0045452	-327.67
	22	41	627.7902	0.0289016	0.0001578	1	0.028902	0.3128527	0.0003138	3.233573	11	0.1590074	0.0045956	-327.67
	23	43	505.5147	0.0291039	-0.0001945	1	0.0291046	-0.3829596	0.0003078	3.233518	11	0.1575876	0.0045865	-327.67
	24	44	397.9953	0.0295527	-0.0007861	1	0.0295632	-1.52375	0.0003113	3.233537	11	0.1606092	0.0047481	-327.67
	25	46	315.5048	0.0299883	-0.0012242	1	0.0300133	-2.337728	0.0003085	3.233555	11	0.1593356	0.0047822	-327.67
	26	47	252.4038	0.0304043	-0.0015594	1	0.0304443	-2.936029	0.0003088	3.233576	11	0.1589739	0.0048398	-327.67
	27	49	198.6229	0.0308437	-0.0018401	1	0.0308985	-3.414119	0.0003081	3.233598	11	0.1588777	0.0049091	-327.67
	28	50	158.3615	0.0312582	-0.0020569	1	0.0313258	-3.764912	0.0003077	3.233617	11	0.1588835	0.0049772	-327.67
	29	52	125.558	0.0316718	-0.002233	1	0.0317505	-4.033007	0.0002963	3.233638	11	0.158912	0.0050455	-327.67
	30	53	100.4464	0.0320784	-0.0023768	1	0.0321663	-4.23754	0.0002974	3.23366	11	0.1589421	0.0051126	-327.67
	31	55	79.00281	0.0325166	-0.0025045	1	0.0326129	-4.404319	0.0003093	3.233684	11	0.1589594	0.0051841	-327.67
	32	57	63.3446	0.0329195	-0.0026025	1	0.0330222	-4.520223	0.0003086	3.233711	11	0.1589721	0.0052496	-327.67
	33	58	50.22321	0.0333367	-0.0026895	1	0.033445	-4.61247	0.0003074	3.233736	11	0.1589861	0.0053173	-327.67
	34	60	38.42213	0.0338338	-0.0027844	1	0.0339482	-4.704559	0.0003125	3.233742	11	0.1589897	0.0053974	-327.67
	35	61	31.25	0.0342097	-0.0028543	1	0.0343286	-4.769361	0.0002976	3.233776	11	0.1589907	0.0054579	-327.67
	36	63	24.93351	0.0346191	-0.0029344	1	0.0347432	-4.844905	0.0003082	3.233788	11	0.1589981	0.0055241	-327.67
	37	65	19.86229	0.0350298	-0.0030232	1	0.03516	-4.932588	0.0002963	3.233835	11	0.1589938	0.0055902	-327.67
	38	66	15.625	0.0354912	-0.0031407	1	0.0356299	-5.057073	0.0003138	3.23383	11	0.1589807	0.0056645	-327.67
	39	68	12.40079	0.0359574	-0.0032365	1	0.0361028	-5.143356	0.0003166	3.233862	11	0.1590023	0.0057404	-327.67
	40	69	9.93114	0.0364252	-0.0033636	1	0.0365802	-5.275866	0.0003101	3.233883	11	0.1590122	0.0058167	-327.67
	41	71	7.944915	0.0369348	-0.0034696	1	0.0370974	-5.366475	0.0003096	3.233919	11	0.1589769	0.0058976	-327.67
	42	72	6.317385	0.0374911	-0.003566	1	0.0376603	-5.433464	0.0003213	3.233903	11	0.1589762	0.0059871	-327.67
	43	75	5.008013	0.038079	-0.0036431	1	0.0382529	-5.465014	0.0003333	3.233902	11	0.1590383	0.0060837	-327.67
	44	77	3.945707	0.0387082	-0.0036748	1	0.0388822	-5.423115	0.0003052	3.233939	11	0.1590072	0.0061825	-327.67
	45	79	3.158693	0.0392776	-0.0036705	1	0.0394487	-5.338789	0.0003701	3.233939	11	0.159	0.0062723	-327.67
	46	82	2.504006	0.0397442	-0.0035336	1	0.039901	-5.080791	0.0003656	3.233907	11	0.1553935	0.0062003	-327.67
	47	85	1.998082	0.0403421	-0.0035265	1	0.0404959	-4.995754	0.0002217	3.233917	11	0.1613721	0.0065349	-327.67
	48	89	1.584686	0.0408928	-0.0034862	1	0.0410411	-4.872761	4.099403E-005	3.233969	11	0.1600299	0.0065678	-327.67
	49	93	1.266892	0.0413766	-0.0034	1	0.041516	-4.697618	0.0004947	3.234137	11	0.1592276	0.0066105	-327.67
	50	99	0.999041	0.0418645	-0.0033459	1	0.041998	-4.569478	0.000444	3.23425	11	0.159043	0.0066795	-327.67
	51	104	0.7923428	0.0423142	-0.0033106	1	0.0424435	-4.473589	0.0002801	3.234353	11	0.1592678	0.0067599	-327.67
	52	112	0.6334459	0.0427062	-0.0033076	1	0.0428341	-4.428682	0.0002751	3.234457	11	0.1589817	0.0068098	-327.67
	53	120	0.5040323	0.0430925	-0.0033436	1	0.0432221	-4.436781	0.0002806	3.234584	11	0.1589836	0.0068716	-327.67
	54	129	0.400641	0.0434683	-0.0034396	1	0.0436042	-4.524294	0.0002782	3.234726	11	0.158986	0.0069325	-327.67
	55	141	0.316723	0.0438453	-0.0035897	1	0.043992	-4.680538	0.0002796	3.23492	11	0.1589909	0.0069943	-327.67
	56	158	0.2520161	0.0442246	-0.0037922	1	0.0443869	-4.901009	0.0002791	3.235171	11	0.1589924	0.0070572	-327.67
	57	180	0.2003205	0.0446181	-0.0040598	1	0.0448024	-5.198966	0.0002793	3.235436	11	0.1589978	0.0071235	-327.67
	58	201	0.1588983	0.0450333	-0.0044078	1	0.0452485	-5.590211	0.0002741	3.235786	11	0.1589953	0.0071943	-327.67
	59	233	0.1260081	0.045492	-0.0048246	1	0.0457471	-6.053847	0.0002796	3.236446	11	0.1589998	0.0072738	-327.67
	60	271	0.1001603	0.0460276	-0.0053191	1	0.046334	-6.592065	0.0002786	3.237445	11	0.158997	0.007367	-327.67
	61	307	0.0794492	0.0465712	-0.0059233	1	0.0469464	-7.248485	0.0002785	3.238552	11	0.1589997	0.0074645	-327.67
	62	346	0.0631739	0.0470121	-0.0066846	1	0.047485	-8.092629	0.0002808	3.238836	11	0.1589994	0.0075501	-327.67
	63	395	0.0501337	0.0475404	-0.0075851	1	0.0481417	-9.065204	0.0002777	3.239385	11	0.1590015	0.0076546	-327.67
	64	457	0.0398258	0.0481193	-0.0086657	1	0.0488933	-10.20885	0.000278	3.240177	11	0.1589992	0.007774	-327.67
	65	559	0.0316296	0.0487854	-0.0099835	1	0.0497964	-11.56538	0.0002793	3.241134	11	0.1590004	0.0079177	-327.67
	66	655	0.0251206	0.0494938	-0.0115998	1	0.0508349	-13.19027	0.0002785	3.24229	11	0.1589987	0.0080827	-327.67
	67	816	0.0199553	0.0503145	-0.0135753	1	0.0521137	-15.09938	0.0002807	3.243605	11	0.1590013	0.0082861	-327.67
	68	968	0.0158522	0.051281	-0.0159844	1	0.0537144	-17.31243	0.0002779	3.245003	11	0.1589985	0.0085405	-327.67
	69	1159	0.0125907	0.0524918	-0.0188869	1	0.0557863	-19.78907	0.0002797	3.246634	11	0.1590013	0.0088701	-327.67
	70	1398	0.0100011	0.0539853	-0.0223015	1	0.0584103	-22.44565	0.0002787	3.248522	11	0.1589992	0.0092872	-327.67
