EXPLAIN
TAG	GALVEIS
TITLE	LABEL	Galvanostatic EIS	Test Identifier
DATE	LABEL	8.2.2024	Date
TIME	LABEL	14:17:25	Time
NOTES	NOTES	1	Notes...
	
PSTAT	PSTAT	REF600-12055	Potentiostat
FREQINIT	QUANT	1.00000E+005	Initial Freq. (Hz)
FREQFINAL	QUANT	1.00000E-002	Final Freq. (Hz)
PTSPERDEC	QUANT	1.00000E+001	Points/decade
IACREQ	QUANT	1.59000E-001	AC Current (A rms)
IDCREQ	QUANT	0.00000E+000	DC Current (A)
AREA	QUANT	1.00000E+000	Sample Area (cm^2)
SPEED	SELECTOR	1	Optimize for:
DRIFTCOR	SELECTOR	0	Drift Correction
THD	SELECTOR	0	THD
ZGUESS	QUANT	1.00000E-001	Estimated Z (ohms)
EOC	QUANT	3.529867	Open Circuit (V)
SEQUENCER	TOGGLE	TRUE	Run as Sequence
PSTATMODEL	IQUANT	4	Pstat Model
PSTATSECTION	LABEL	REF600-12055	Pstat Section
PSTATSERIALNO	LABEL	12055	Pstat Serial Number
CTRLMODE	IQUANT	0	Control Mode
ELECTROMETER	IQUANT	0	RE=0 or CS=1
IESTAB	IQUANT	0	I/E Stability
CASPEED	IQUANT	4	Control Amp Speed
CONVENTION	IQUANT	1	Current Convention
ICHRANGE	IQUANT	2	Ich Range
ICHRANGEMODE	TOGGLE	F	Ich Auto Range
ICHOFFSETENABLE	TOGGLE	T	Ich Offset Enable
ICHOFFSET	QUANT	0	Ich Offset (V)
ICHFILTER	IQUANT	3	Ich Filter
VCHRANGE	IQUANT	2	Vch Range
VCHRANGEMODE	TOGGLE	F	Vch Auto Range
VCHOFFSETENABLE	TOGGLE	T	Vch Offset Enable
VCHOFFSET	QUANT	0	Vch Offset (V)
VCHFILTER	IQUANT	3	Vch Filter
ACHRANGE	IQUANT	2	Ach Range
ACHOFFSETENABLE	TOGGLE	F	Ach Offset Enable
ACHOFFSET	QUANT	0	Ach Offset (V)
ACHFILTER	IQUANT	1	Ach Filter
IERANGELOWERLIMIT	IQUANT	1	I/E Range Lower Limit
IERANGEMODE	TOGGLE	F	I/E AutoRange
IERANGE	IQUANT	7	I/E Range
POSFEEDENABLE	TOGGLE	F	Positive Feedback IR Comp
POSFEEDRESISTANCE	QUANT	0	Positive Feedback Resistance (ohm)
ACHSELECT	IQUANT	4	Ach Select
SENSECABLEID	IQUANT	14	Sense Cable ID
PWRCABLEID	IQUANT	14	Power Cable ID
DCCALDATE	LABEL		DC Calibration Date
ACCALDATE	LABEL		AC Calibration Date
THERMOSELECT	IQUANT	1	Thermo Select
FRAMEWORKVERSION	LABEL	7.10.3	Framework Version
INSTRUMENTVERSION	LABEL	4.91	Instrument Version
COMMVERSION	LABEL	2.24	Communications Version
CPUPLDVERSION	LABEL	0.00	CPU PLD Version
CTRLPLDVERSION	LABEL	0.00	CTRL PLD Version
PSTATPLDVERSION	LABEL	0.00	PSTAT PLD Version
ZCURVE	TABLE
	Pt	Time	Freq	Zreal	Zimag	Zsig	Zmod	Zphz	Idc	Vdc	IERange	Imod	Vmod	Temp
	#	s	Hz	ohm	ohm	V	ohm	°	A	V	#	A	V	°C
	0	5	100078.1	0.1060338	0.237973	1	0.260527	65.98365	0.0003591	3.529043	11	0.1596786	0.0413227	-327.67
	1	6	79453.13	0.0877808	0.1982519	1	0.2168162	66.11748	0.0003534	3.529051	11	0.1642426	0.0354473	-327.67
	2	8	63140.62	0.0736643	0.1644786	1	0.1802211	65.87405	0.0003417	3.529051	11	0.1619496	0.0290972	-327.67
	3	10	50203.12	0.0628594	0.1359732	1	0.1498	65.18926	0.0003336	3.529054	11	0.1609311	0.0240589	-327.67
	4	12	39890.62	0.0546495	0.1119921	1	0.1246146	63.98872	0.0003273	3.529053	11	0.1602724	0.0199462	-327.67
	5	13	31640.63	0.0483897	0.091955	1	0.10391	62.2452	0.0003267	3.529054	11	0.1598437	0.0165955	-327.67
	6	15	25171.88	0.0436628	0.0756958	1	0.0873859	60.02282	0.0003244	3.529056	11	0.1595446	0.0139345	-327.67
	7	17	20015.62	0.0399204	0.0623289	1	0.0740171	57.36131	0.0003252	3.52902	11	0.1593554	0.011791	-327.67
	8	18	15890.62	0.036824	0.0512756	1	0.0631284	54.31567	0.0003188	3.529014	11	0.1592279	0.0100496	-327.67
	9	20	12609.38	0.0342239	0.0421124	1	0.0542653	50.89995	0.0003193	3.529016	11	0.1591416	0.0086347	-327.67
	10	21	10078.13	0.0321404	0.0346549	1	0.0472649	47.15589	0.000307	3.52902	11	0.1590875	0.0075186	-327.67
	11	23	8015.625	0.0304304	0.0282025	1	0.0414897	42.82399	0.0003085	3.529027	11	0.1590504	0.0065986	-327.67
	12	24	6328.125	0.0291107	0.0225796	1	0.0368411	37.79885	0.0003097	3.529032	11	0.1590314	0.0058587	-327.67
	13	26	5015.625	0.0281957	0.0179575	1	0.0334286	32.49252	0.0003098	3.529033	11	0.1590214	0.0053157	-327.67
	14	28	3984.375	0.0276081	0.0141492	1	0.0310227	27.13511	0.0003191	3.529036	11	0.1590059	0.0049327	-327.67
	15	29	3170.956	0.0272794	0.0110037	1	0.0294151	21.96761	0.00032	3.529035	11	0.1590047	0.0046771	-327.67
	16	31	2527.573	0.0271434	0.0084056	1	0.0284152	17.20638	0.0003101	3.529026	11	0.159005	0.0045181	-327.67
	17	32	1976.103	0.0271533	0.0061951	1	0.0278511	12.85213	0.0003043	3.52903	11	0.1590066	0.0044285	-327.67
	18	34	1577.524	0.0272554	0.004453	1	0.0276167	9.278941	0.0003105	3.529027	11	0.1589949	0.0043909	-327.67
	19	36	1265.625	0.0274198	0.0031915	1	0.0276049	6.63904	0.0003149	3.529034	11	0.1590081	0.0043894	-327.67
	20	37	998.264	0.0276909	0.0020331	1	0.0277654	4.199138	0.0003198	3.529033	11	0.1589968	0.0044146	-327.67
	21	39	796.875	0.0279761	0.0010949	1	0.0279976	2.241193	0.0003159	3.529033	11	0.1589988	0.0044516	-327.67
	22	40	627.7902	0.0282864	0.000316	1	0.0282881	0.6400237	0.0003202	3.529051	11	0.1589938	0.0044976	-327.67
	23	42	505.5147	0.0284724	4.352241E-005	1	0.0284724	0.0875813	0.0003091	3.528961	11	0.1576029	0.0044873	-327.67
	24	43	397.9953	0.0288964	-0.0004999	1	0.0289008	-0.991029	0.0003092	3.528955	11	0.1606027	0.0046415	-327.67
	25	45	315.5048	0.0293012	-0.0008919	1	0.0293147	-1.743555	0.0003082	3.52896	11	0.1593361	0.0046709	-327.67
	26	46	252.4038	0.0296824	-0.0011653	1	0.0297053	-2.24818	0.0003071	3.528965	11	0.1589736	0.0047224	-327.67
	27	48	198.6229	0.0300833	-0.0013769	1	0.0301148	-2.62062	0.0003093	3.528967	11	0.1588785	0.0047846	-327.67
	28	49	158.3615	0.0304539	-0.0015106	1	0.0304914	-2.839775	0.0003077	3.528971	11	0.1588837	0.0048446	-327.67
	29	51	125.558	0.0308209	-0.0015987	1	0.0308623	-2.969229	0.0003112	3.528972	11	0.1589147	0.0049045	-327.67
	30	52	100.4464	0.0311532	-0.0016348	1	0.031196	-3.003901	0.0003127	3.528976	11	0.1589446	0.0049584	-327.67
	31	54	79.00281	0.0315008	-0.0016313	1	0.0315431	-2.964476	0.0003076	3.528978	11	0.1589545	0.0050139	-327.67
	32	55	63.3446	0.0318028	-0.0015924	1	0.0318427	-2.866489	0.0003069	3.528977	11	0.1589722	0.0050621	-327.67
	33	57	50.22321	0.0320977	-0.0015214	1	0.0321337	-2.713695	0.0002973	3.528983	11	0.1589864	0.0051088	-327.67
	34	59	38.42213	0.0324017	-0.0014131	1	0.0324325	-2.497219	0.0003115	3.528983	11	0.1589897	0.0051564	-327.67
	35	60	31.25	0.0326056	-0.0013215	1	0.0326323	-2.32089	0.0002939	3.528995	11	0.1589846	0.005188	-327.67
	36	62	24.93351	0.0328027	-0.0011976	1	0.0328245	-2.09085	0.0003076	3.528991	11	0.1590047	0.0052193	-327.67
	37	64	19.86229	0.0329603	-0.0010691	1	0.0329776	-1.85779	0.0002968	3.529	11	0.1589906	0.0052431	-327.67
	38	65	15.625	0.0331077	-0.0009656	1	0.0331218	-1.67059	0.0003115	3.528989	11	0.1589937	0.0052662	-327.67
	39	66	12.40079	0.033231	-0.000855	1	0.033242	-1.473831	0.0002998	3.52899	11	0.1589971	0.0052854	-327.67
	40	68	9.93114	0.0333139	-0.0007784	1	0.033323	-1.338575	0.000309	3.528997	11	0.1590066	0.0052986	-327.67
	41	69	7.944915	0.0333831	-0.0007134	1	0.0333908	-1.22429	0.0002991	3.529008	11	0.1589775	0.0053084	-327.67
	42	71	6.317385	0.0334494	-0.0006536	1	0.0334558	-1.119343	0.0003967	3.52903	11	0.1590346	0.0053206	-327.67
	43	74	5.008013	0.0335093	-0.0006161	1	0.033515	-1.053255	0.000261	3.529038	11	0.1589626	0.0053276	-327.67
	44	76	3.945707	0.0335753	-0.0005923	1	0.0335805	-1.010641	0.00032	3.529036	11	0.1590241	0.0053401	-327.67
	45	79	3.158693	0.0336152	-0.0005814	1	0.0336202	-0.990922	0.0002601	3.529051	11	0.1590085	0.0053459	-327.67
	46	81	2.504006	0.0335416	-0.0004994	1	0.0335453	-0.8530896	0.0002644	3.529042	11	0.1553857	0.0052125	-327.67
	47	84	1.998082	0.0336291	-0.0005715	1	0.033634	-0.973647	0.0004387	3.529069	11	0.1613821	0.0054279	-327.67
	48	88	1.584686	0.0337169	-0.0006336	1	0.0337229	-1.076487	0.0005948	3.529074	11	0.1600395	0.005397	-327.67
	49	92	1.266892	0.0338086	-0.0006992	1	0.0338158	-1.18484	0.0001133	3.529026	11	0.1592316	0.0053846	-327.67
	50	97	0.999041	0.0338963	-0.0007676	1	0.033905	-1.2972	0.0001661	3.529013	11	0.1590316	0.005392	-327.67
	51	102	0.7923428	0.0339983	-0.0008456	1	0.0340088	-1.424741	0.0002781	3.529099	11	0.1592646	0.0054164	-327.67
	52	108	0.6334459	0.0340868	-0.0009402	1	0.0340997	-1.579946	0.000275	3.529098	11	0.1589845	0.0054213	-327.67
	53	118	0.5040323	0.0342014	-0.0010587	1	0.0342178	-1.773036	0.0002795	3.529109	11	0.1589828	0.00544	-327.67
	54	127	0.400641	0.0343203	-0.0011894	1	0.0343409	-1.984827	0.0002789	3.529125	11	0.1589859	0.0054597	-327.67
	55	139	0.316723	0.0344724	-0.0013424	1	0.0344985	-2.229986	0.0002793	3.529148	11	0.1589909	0.005485	-327.67
	56	153	0.2520161	0.0346364	-0.0014997	1	0.0346689	-2.479224	0.0002858	3.529173	11	0.1589923	0.0055121	-327.67
	57	170	0.2003205	0.0348272	-0.001679	1	0.0348677	-2.760023	0.0002788	3.5292	11	0.1589969	0.0055439	-327.67
	58	192	0.1588983	0.0350356	-0.001879	1	0.035086	-3.069928	0.0002803	3.52924	11	0.1589956	0.0055785	-327.67
	59	217	0.1260081	0.0352858	-0.002089	1	0.0353476	-3.388045	0.0002793	3.52937	11	0.1589992	0.0056202	-327.67
	60	247	0.1001603	0.035554	-0.0023345	1	0.0356306	-3.756657	0.0002777	3.529576	11	0.1589984	0.0056652	-327.67
	61	293	0.0794492	0.0358426	-0.0026091	1	0.0359375	-4.16333	0.0002786	3.529812	11	0.1590015	0.0057141	-327.67
	62	345	0.0631739	0.0360512	-0.0029268	1	0.0361698	-4.641325	0.000279	3.529756	11	0.1589982	0.0057509	-327.67
	63	410	0.0501337	0.0363393	-0.0032938	1	0.0364883	-5.179187	0.00028	3.529802	11	0.1589998	0.0058016	-327.67
	64	472	0.0398258	0.0366659	-0.003733	1	0.0368554	-5.813391	0.0002747	3.529876	11	0.1590015	0.0058601	-327.67
	65	548	0.0316296	0.0369998	-0.0042775	1	0.0372463	-6.594555	0.0002799	3.529974	11	0.1589987	0.0059221	-327.67
	66	676	0.0251206	0.0373924	-0.0049111	1	0.0377135	-7.482305	0.0002822	3.530104	11	0.1589998	0.0059964	-327.67
	67	797	0.0199553	0.0378352	-0.0056937	1	0.0382612	-8.558083	0.0002802	3.530254	11	0.1590014	0.0060836	-327.67
	68	999	0.0158522	0.0383941	-0.0066182	1	0.0389603	-9.78021	0.000279	3.530448	11	0.158999	0.0061947	-327.67
	69	1190	0.0125907	0.039067	-0.0077102	1	0.0398206	-11.16438	0.0002801	3.53067	11	0.1590007	0.0063315	-327.67
	70	1509	0.0100011	0.0399995	-0.008984	1	0.040996	-12.65871	0.0002801	3.530965	11	0.159	0.0065184	-327.67
