EXPLAIN
TAG	GALVEIS
TITLE	LABEL	Galvanostatic EIS	Test Identifier
DATE	LABEL	8.2.2024	Date
TIME	LABEL	5:55:15	Time
NOTES	NOTES	1	Notes...
	
PSTAT	PSTAT	REF600-12055	Potentiostat
FREQINIT	QUANT	1.00000E+005	Initial Freq. (Hz)
FREQFINAL	QUANT	1.00000E-002	Final Freq. (Hz)
PTSPERDEC	QUANT	1.00000E+001	Points/decade
IACREQ	QUANT	1.59000E-001	AC Current (A rms)
IDCREQ	QUANT	0.00000E+000	DC Current (A)
AREA	QUANT	1.00000E+000	Sample Area (cm^2)
SPEED	SELECTOR	1	Optimize for:
DRIFTCOR	SELECTOR	0	Drift Correction
THD	SELECTOR	0	THD
ZGUESS	QUANT	1.00000E-001	Estimated Z (ohms)
EOC	QUANT	4.033623	Open Circuit (V)
SEQUENCER	TOGGLE	TRUE	Run as Sequence
PSTATMODEL	IQUANT	4	Pstat Model
PSTATSECTION	LABEL	REF600-12055	Pstat Section
PSTATSERIALNO	LABEL	12055	Pstat Serial Number
CTRLMODE	IQUANT	0	Control Mode
ELECTROMETER	IQUANT	0	RE=0 or CS=1
IESTAB	IQUANT	0	I/E Stability
CASPEED	IQUANT	4	Control Amp Speed
CONVENTION	IQUANT	1	Current Convention
ICHRANGE	IQUANT	2	Ich Range
ICHRANGEMODE	TOGGLE	F	Ich Auto Range
ICHOFFSETENABLE	TOGGLE	T	Ich Offset Enable
ICHOFFSET	QUANT	0	Ich Offset (V)
ICHFILTER	IQUANT	3	Ich Filter
VCHRANGE	IQUANT	2	Vch Range
VCHRANGEMODE	TOGGLE	F	Vch Auto Range
VCHOFFSETENABLE	TOGGLE	T	Vch Offset Enable
VCHOFFSET	QUANT	0	Vch Offset (V)
VCHFILTER	IQUANT	3	Vch Filter
ACHRANGE	IQUANT	2	Ach Range
ACHOFFSETENABLE	TOGGLE	F	Ach Offset Enable
ACHOFFSET	QUANT	0	Ach Offset (V)
ACHFILTER	IQUANT	1	Ach Filter
IERANGELOWERLIMIT	IQUANT	1	I/E Range Lower Limit
IERANGEMODE	TOGGLE	F	I/E AutoRange
IERANGE	IQUANT	7	I/E Range
POSFEEDENABLE	TOGGLE	F	Positive Feedback IR Comp
POSFEEDRESISTANCE	QUANT	0	Positive Feedback Resistance (ohm)
ACHSELECT	IQUANT	4	Ach Select
SENSECABLEID	IQUANT	14	Sense Cable ID
PWRCABLEID	IQUANT	14	Power Cable ID
DCCALDATE	LABEL		DC Calibration Date
ACCALDATE	LABEL		AC Calibration Date
THERMOSELECT	IQUANT	1	Thermo Select
FRAMEWORKVERSION	LABEL	7.10.3	Framework Version
INSTRUMENTVERSION	LABEL	4.91	Instrument Version
COMMVERSION	LABEL	2.24	Communications Version
CPUPLDVERSION	LABEL	0.00	CPU PLD Version
CTRLPLDVERSION	LABEL	0.00	CTRL PLD Version
PSTATPLDVERSION	LABEL	0.00	PSTAT PLD Version
ZCURVE	TABLE
	Pt	Time	Freq	Zreal	Zimag	Zsig	Zmod	Zphz	Idc	Vdc	IERange	Imod	Vmod	Temp
	#	s	Hz	ohm	ohm	V	ohm	°	A	V	#	A	V	°C
	0	5	100078.1	0.1064082	0.2371708	1	0.2599475	65.8363	0.0003688	4.03269	11	0.159675	0.0412299	-327.67
	1	6	79453.13	0.088024	0.1976914	1	0.2164026	65.99851	0.0003385	4.032689	11	0.1642462	0.0353805	-327.67
	2	8	63140.62	0.073795	0.1640796	1	0.1799106	65.78412	0.0003311	4.032683	11	0.1619786	0.0290523	-327.67
	3	10	50203.12	0.0629195	0.1356758	1	0.1495553	65.12054	0.0003337	4.032702	11	0.1609293	0.0240193	-327.67
	4	12	39890.62	0.0546556	0.1117719	1	0.1244194	63.94174	0.0003187	4.032703	11	0.1602782	0.0199157	-327.67
	5	13	31640.63	0.0483713	0.0917821	1	0.1037484	62.20969	0.0003235	4.032698	11	0.1598462	0.0165699	-327.67
	6	15	25171.88	0.043615	0.0755638	1	0.0872476	60.00671	0.0003239	4.032704	11	0.1595488	0.0139128	-327.67
	7	17	20015.62	0.0398663	0.062225	1	0.0739005	57.35313	0.0003238	4.03266	11	0.1593524	0.0117722	-327.67
	8	18	15890.62	0.0367572	0.0511985	1	0.0630268	54.32415	0.0003213	4.032665	11	0.1592342	0.0100339	-327.67
	9	20	12609.38	0.0341602	0.0420532	1	0.0541793	50.91271	0.0003192	4.032664	11	0.1591373	0.0086208	-327.67
	10	22	10078.13	0.0320707	0.0345991	1	0.0471765	47.17186	0.0003176	4.032668	11	0.1590868	0.0075045	-327.67
	11	23	8015.625	0.0303577	0.0281657	1	0.0414113	42.85498	0.0003189	4.03268	11	0.1590572	0.0065864	-327.67
	12	25	6328.125	0.0290495	0.0225433	1	0.0367705	37.81252	0.0003186	4.032676	11	0.1590327	0.0058475	-327.67
	13	27	5015.625	0.0281334	0.0179335	1	0.0333632	32.51527	0.000321	4.032689	11	0.1590161	0.0053052	-327.67
	14	28	3984.375	0.0275331	0.014108	1	0.0309371	27.13067	0.0003158	4.03267	11	0.1590039	0.0049191	-327.67
	15	30	3170.956	0.0272099	0.0109721	1	0.0293389	21.96121	0.0003135	4.032673	11	0.1590103	0.0046651	-327.67
	16	31	2527.573	0.0270682	0.0083921	1	0.0283393	17.22525	0.0003218	4.032682	11	0.1589993	0.0045059	-327.67
	17	33	1976.103	0.0270773	0.0061404	1	0.0277649	12.77702	0.0003214	4.032687	11	0.1590001	0.0044146	-327.67
	18	35	1577.524	0.0271882	0.0044637	1	0.0275521	9.323466	0.0003211	4.032685	11	0.1590016	0.0043808	-327.67
	19	36	1265.625	0.0273698	0.0031347	1	0.0275487	6.533622	0.0003161	4.032681	11	0.1590018	0.0043803	-327.67
	20	38	998.264	0.0276293	0.0019824	1	0.0277004	4.10387	0.0003191	4.032695	11	0.1590009	0.0044044	-327.67
	21	39	796.875	0.0279207	0.0011567	1	0.0279447	2.372226	0.0003095	4.032694	11	0.1590108	0.0044435	-327.67
	22	41	627.7902	0.0282258	0.0004036	1	0.0282287	0.8191429	0.0003103	4.032694	11	0.1589904	0.0044881	-327.67
	23	42	505.5147	0.0283834	0.0001103	1	0.0283836	0.2226956	0.0002963	4.032604	11	0.1575976	0.0044732	-327.67
	24	44	397.9953	0.0287946	-0.0004162	1	0.0287976	-0.8281826	0.0002979	4.032609	11	0.1606036	0.004625	-327.67
	25	45	315.5048	0.029189	-0.0007992	1	0.0292	-1.568373	0.0002987	4.03261	11	0.159343	0.0046528	-327.67
	26	47	252.4038	0.0295507	-0.0010718	1	0.0295702	-2.077108	0.0002985	4.032611	11	0.1589683	0.0047007	-327.67
	27	48	198.6229	0.0299342	-0.0012727	1	0.0299612	-2.434567	0.0003004	4.032606	11	0.1588786	0.0047602	-327.67
	28	50	158.3615	0.0302745	-0.0014085	1	0.0303072	-2.66369	0.0003076	4.032612	11	0.1588836	0.0048153	-327.67
	29	51	125.558	0.0306181	-0.001494	1	0.0306546	-2.793484	0.0003032	4.032618	11	0.1589117	0.0048714	-327.67
	30	53	100.4464	0.030936	-0.001536	1	0.0309741	-2.842378	0.000303	4.032619	11	0.1589467	0.0049232	-327.67
	31	55	79.00281	0.0312676	-0.0015394	1	0.0313055	-2.818486	0.0003089	4.032621	11	0.1589546	0.0049761	-327.67
	32	56	63.3446	0.0315535	-0.0015057	1	0.0315894	-2.732073	0.0003095	4.032623	11	0.1589761	0.005022	-327.67
	33	58	50.22321	0.0318295	-0.0014406	1	0.031862	-2.591404	0.0003062	4.032623	11	0.1589824	0.0050655	-327.67
	34	60	38.42213	0.0321236	-0.001342	1	0.0321516	-2.392197	0.0003119	4.032623	11	0.1589911	0.0051118	-327.67
	35	61	31.25	0.0323147	-0.0012508	1	0.0323389	-2.216716	0.0002925	4.032632	11	0.1589851	0.0051414	-327.67
	36	63	24.93351	0.032498	-0.0011412	1	0.0325181	-2.011229	0.000306	4.032623	11	0.1589977	0.0051703	-327.67
	37	64	19.86229	0.0326475	-0.001026	1	0.0326636	-1.79994	0.0002787	4.032635	11	0.158985	0.005193	-327.67
	38	65	15.625	0.0327869	-0.0009371	1	0.0328003	-1.637193	0.0002995	4.032627	11	0.1590058	0.0052154	-327.67
	39	67	12.40079	0.0328977	-0.0008382	1	0.0329084	-1.4596	0.000288	4.032623	11	0.1589865	0.005232	-327.67
	40	68	9.93114	0.032987	-0.0007823	1	0.0329963	-1.358492	0.000281	4.032613	11	0.1590028	0.0052465	-327.67
	41	70	7.944915	0.0330505	-0.0007372	1	0.0330588	-1.277729	0.0003338	4.032624	11	0.1590151	0.0052568	-327.67
	42	72	6.317385	0.0331214	-0.0006914	1	0.0331286	-1.195933	0.0002256	4.032611	11	0.1590037	0.0052676	-327.67
	43	74	5.008013	0.0331851	-0.0006586	1	0.0331916	-1.136882	0.0003512	4.032615	11	0.1589684	0.0052764	-327.67
	44	76	3.945707	0.0332392	-0.0006608	1	0.0332457	-1.13891	0.0003317	4.032612	11	0.1590047	0.0052862	-327.67
	45	79	3.158693	0.0333059	-0.0006724	1	0.0333127	-1.15652	0.0004041	4.032602	11	0.1589884	0.0052963	-327.67
	46	82	2.504006	0.0332333	-0.000602	1	0.0332387	-1.037709	0.0003013	4.032578	11	0.155456	0.0051672	-327.67
	47	85	1.998082	0.0333335	-0.0007002	1	0.0333408	-1.203383	0.0005549	4.03262	11	0.1614774	0.0053838	-327.67
	48	89	1.584686	0.0334386	-0.0007835	1	0.0334478	-1.342312	0.0004803	4.032613	11	0.1597939	0.0053447	-327.67
	49	93	1.266892	0.0335453	-0.0008719	1	0.0335566	-1.488909	0.0001198	4.032663	11	0.1593455	0.0053471	-327.67
	50	97	0.999041	0.0336432	-0.0009815	1	0.0336575	-1.671147	8.850824E-005	4.03264	11	0.1591214	0.0053556	-327.67
	51	103	0.7923428	0.0337821	-0.0011076	1	0.0338002	-1.877915	0.0002813	4.032675	11	0.1591874	0.0053806	-327.67
	52	111	0.6334459	0.0339102	-0.0012486	1	0.0339332	-2.108719	0.0002743	4.032684	11	0.1589817	0.0053948	-327.67
	53	120	0.5040323	0.0340623	-0.0014125	1	0.0340916	-2.37461	0.0002809	4.032698	11	0.1589835	0.00542	-327.67
	54	130	0.400641	0.0342448	-0.0015888	1	0.0342817	-2.656341	0.0002785	4.032713	11	0.1589868	0.0054503	-327.67
	55	141	0.316723	0.0344449	-0.0018007	1	0.0344919	-2.992611	0.0002805	4.032732	11	0.1589885	0.0054838	-327.67
	56	159	0.2520161	0.0346839	-0.0020175	1	0.0347425	-3.329007	0.000286	4.03275	11	0.158994	0.0055239	-327.67
	57	180	0.2003205	0.0349415	-0.0022441	1	0.0350135	-3.674825	0.0002798	4.032779	11	0.158995	0.005567	-327.67
	58	206	0.1588983	0.0352451	-0.0025082	1	0.0353343	-4.070552	0.0002798	4.03281	11	0.1590004	0.0056182	-327.67
	59	232	0.1260081	0.0355992	-0.0027819	1	0.0357077	-4.468255	0.0002817	4.032925	11	0.1589968	0.0056774	-327.67
	60	270	0.1001603	0.0359948	-0.0030676	1	0.0361253	-4.871202	0.0002788	4.033131	11	0.1589985	0.0057439	-327.67
	61	316	0.0794492	0.0364183	-0.0033911	1	0.0365759	-5.319799	0.0002826	4.033319	11	0.1589988	0.0058155	-327.67
	62	368	0.0631739	0.0367768	-0.0037675	1	0.0369692	-5.849135	0.0002793	4.03322	11	0.1590014	0.0058782	-327.67
	63	417	0.0501337	0.0372101	-0.0042011	1	0.0374465	-6.441573	0.0002802	4.033216	11	0.1589993	0.005954	-327.67
	64	498	0.0398258	0.0376968	-0.0046771	1	0.0379858	-7.072567	0.0002791	4.033264	11	0.1590001	0.0060397	-327.67
	65	600	0.0316296	0.0382193	-0.005235	1	0.0385762	-7.799439	0.0002807	4.033347	11	0.1589984	0.0061335	-327.67
	66	728	0.0251206	0.0388232	-0.0058883	1	0.0392672	-8.624235	0.0002821	4.033446	11	0.1590007	0.0062435	-327.67
	67	849	0.0199553	0.0394698	-0.0066448	1	0.0400252	-9.55629	0.0002822	4.033534	11	0.1589994	0.006364	-327.67
	68	1051	0.0158522	0.0402512	-0.0075406	1	0.0409514	-10.61068	0.0002805	4.033659	11	0.1589998	0.0065113	-327.67
	69	1242	0.0125907	0.0411591	-0.008605	1	0.042049	-11.80851	0.0002813	4.033785	11	0.1590004	0.0066858	-327.67
	70	1561	0.0100011	0.0422618	-0.0098001	1	0.0433832	-13.0556	0.0002808	4.033949	11	0.1590003	0.0068979	-327.67
