EXPLAIN
TAG	GALVEIS
TITLE	LABEL	Galvanostatic EIS	Test Identifier
DATE	LABEL	8.2.2024	Date
TIME	LABEL	13:02:04	Time
NOTES	NOTES	1	Notes...
	
PSTAT	PSTAT	REF600-12055	Potentiostat
FREQINIT	QUANT	1.00000E+005	Initial Freq. (Hz)
FREQFINAL	QUANT	1.00000E-002	Final Freq. (Hz)
PTSPERDEC	QUANT	1.00000E+001	Points/decade
IACREQ	QUANT	1.59000E-001	AC Current (A rms)
IDCREQ	QUANT	0.00000E+000	DC Current (A)
AREA	QUANT	1.00000E+000	Sample Area (cm^2)
SPEED	SELECTOR	1	Optimize for:
DRIFTCOR	SELECTOR	0	Drift Correction
THD	SELECTOR	0	THD
ZGUESS	QUANT	1.00000E-001	Estimated Z (ohms)
EOC	QUANT	3.602053	Open Circuit (V)
SEQUENCER	TOGGLE	TRUE	Run as Sequence
PSTATMODEL	IQUANT	4	Pstat Model
PSTATSECTION	LABEL	REF600-12055	Pstat Section
PSTATSERIALNO	LABEL	12055	Pstat Serial Number
CTRLMODE	IQUANT	0	Control Mode
ELECTROMETER	IQUANT	0	RE=0 or CS=1
IESTAB	IQUANT	0	I/E Stability
CASPEED	IQUANT	4	Control Amp Speed
CONVENTION	IQUANT	1	Current Convention
ICHRANGE	IQUANT	2	Ich Range
ICHRANGEMODE	TOGGLE	F	Ich Auto Range
ICHOFFSETENABLE	TOGGLE	T	Ich Offset Enable
ICHOFFSET	QUANT	0	Ich Offset (V)
ICHFILTER	IQUANT	3	Ich Filter
VCHRANGE	IQUANT	2	Vch Range
VCHRANGEMODE	TOGGLE	F	Vch Auto Range
VCHOFFSETENABLE	TOGGLE	T	Vch Offset Enable
VCHOFFSET	QUANT	0	Vch Offset (V)
VCHFILTER	IQUANT	3	Vch Filter
ACHRANGE	IQUANT	2	Ach Range
ACHOFFSETENABLE	TOGGLE	F	Ach Offset Enable
ACHOFFSET	QUANT	0	Ach Offset (V)
ACHFILTER	IQUANT	1	Ach Filter
IERANGELOWERLIMIT	IQUANT	1	I/E Range Lower Limit
IERANGEMODE	TOGGLE	F	I/E AutoRange
IERANGE	IQUANT	7	I/E Range
POSFEEDENABLE	TOGGLE	F	Positive Feedback IR Comp
POSFEEDRESISTANCE	QUANT	0	Positive Feedback Resistance (ohm)
ACHSELECT	IQUANT	4	Ach Select
SENSECABLEID	IQUANT	14	Sense Cable ID
PWRCABLEID	IQUANT	14	Power Cable ID
DCCALDATE	LABEL		DC Calibration Date
ACCALDATE	LABEL		AC Calibration Date
THERMOSELECT	IQUANT	1	Thermo Select
FRAMEWORKVERSION	LABEL	7.10.3	Framework Version
INSTRUMENTVERSION	LABEL	4.91	Instrument Version
COMMVERSION	LABEL	2.24	Communications Version
CPUPLDVERSION	LABEL	0.00	CPU PLD Version
CTRLPLDVERSION	LABEL	0.00	CTRL PLD Version
PSTATPLDVERSION	LABEL	0.00	PSTAT PLD Version
ZCURVE	TABLE
	Pt	Time	Freq	Zreal	Zimag	Zsig	Zmod	Zphz	Idc	Vdc	IERange	Imod	Vmod	Temp
	#	s	Hz	ohm	ohm	V	ohm	°	A	V	#	A	V	°C
	0	5	100078.1	0.1061193	0.2376487	1	0.2602656	65.9374	0.0003596	3.601151	11	0.1596485	0.0412735	-327.67
	1	6	79453.13	0.0878631	0.1980062	1	0.216625	66.07127	0.000348	3.601156	11	0.1642559	0.0354189	-327.67
	2	8	63140.62	0.0737211	0.1643044	1	0.1800854	65.83488	0.0003389	3.601167	11	0.1619707	0.0290791	-327.67
	3	10	50203.12	0.0629049	0.1358238	1	0.1496834	65.14946	0.0003334	3.601175	11	0.1609273	0.0240396	-327.67
	4	12	39890.62	0.0546862	0.1118831	1	0.1245327	63.95156	0.0003295	3.601183	11	0.1602851	0.0199347	-327.67
	5	13	31640.63	0.0484236	0.0918827	1	0.1038618	62.21011	0.0003256	3.601189	11	0.1598429	0.0165877	-327.67
	6	15	25171.88	0.0436852	0.0756323	1	0.0873421	59.98927	0.0003237	3.601189	11	0.1595446	0.0139275	-327.67
	7	17	20015.62	0.0399457	0.062282	1	0.0739912	57.32518	0.0003228	3.60116	11	0.1593558	0.0117869	-327.67
	8	18	15890.62	0.0368392	0.0512428	1	0.0631106	54.28709	0.0003194	3.60118	11	0.159229	0.0100469	-327.67
	9	20	12609.38	0.0342379	0.042089	1	0.054256	50.87289	0.0003074	3.60119	11	0.1591473	0.0086335	-327.67
	10	22	10078.13	0.0321548	0.034636	1	0.0472608	47.12747	0.0003068	3.601192	11	0.1590836	0.0075178	-327.67
	11	23	8015.625	0.0304408	0.0281836	1	0.0414844	42.79504	0.0003191	3.601198	11	0.1590542	0.0065979	-327.67
	12	25	6328.125	0.0291288	0.022562	1	0.0368446	37.75998	0.0003204	3.601209	11	0.1590355	0.0058594	-327.67
	13	26	5015.625	0.0282171	0.0179291	1	0.0334314	32.43183	0.000322	3.601205	11	0.1590108	0.0053158	-327.67
	14	28	3984.375	0.0276245	0.0141148	1	0.0310216	27.06478	0.0003215	3.601225	11	0.1590064	0.0049326	-327.67
	15	30	3170.956	0.0272949	0.0109895	1	0.0294242	21.93078	0.000318	3.601221	11	0.1590078	0.0046786	-327.67
	16	31	2527.573	0.0271551	0.0084348	1	0.0284349	17.25561	0.0003218	3.601234	11	0.1590048	0.0045213	-327.67
	17	33	1976.103	0.0271722	0.0061697	1	0.0278638	12.79271	0.0003161	3.601229	11	0.1590077	0.0044305	-327.67
	18	35	1577.524	0.0272944	0.0045093	1	0.0276644	9.381158	0.0003179	3.601242	11	0.1589981	0.0043986	-327.67
	19	36	1265.625	0.0274643	0.0031228	1	0.0276413	6.486983	0.0003122	3.601253	11	0.1589973	0.0043949	-327.67
	20	38	998.264	0.0277301	0.0019694	1	0.0277999	4.062374	0.0003195	3.601258	11	0.1590018	0.0044202	-327.67
	21	39	796.875	0.0279987	0.0010886	1	0.0280199	2.22646	0.00032	3.601263	11	0.1589926	0.0044549	-327.67
	22	41	627.7902	0.0283353	0.0003858	1	0.028338	0.7799997	0.0003201	3.601273	11	0.1590098	0.004506	-327.67
	23	42	505.5147	0.0285147	5.312472E-005	1	0.0285148	0.1067456	0.0002978	3.601189	11	0.1575919	0.0044937	-327.67
	24	44	397.9953	0.0289394	-0.0004774	1	0.0289434	-0.9450248	0.0003115	3.601196	11	0.1606039	0.0046484	-327.67
	25	45	315.5048	0.0293512	-0.0008569	1	0.0293637	-1.672338	0.0003063	3.601202	11	0.1593383	0.0046788	-327.67
	26	47	252.4038	0.0297332	-0.0011247	1	0.0297545	-2.166162	0.0003121	3.601204	11	0.1589678	0.00473	-327.67
	27	48	198.6229	0.0301318	-0.0013172	1	0.0301606	-2.503063	0.0003094	3.60121	11	0.1588788	0.0047919	-327.67
	28	50	158.3615	0.0304909	-0.0014326	1	0.0305245	-2.690035	0.000308	3.601216	11	0.1588904	0.00485	-327.67
	29	52	125.558	0.0308437	-0.0014944	1	0.0308799	-2.773927	0.0003005	3.601224	11	0.1589153	0.0049073	-327.67
	30	53	100.4464	0.0311691	-0.0015143	1	0.0312059	-2.781389	0.0003127	3.601236	11	0.158939	0.0049598	-327.67
	31	55	79.00281	0.0314865	-0.0014799	1	0.0315213	-2.690979	0.0003077	3.60124	11	0.1589551	0.0050105	-327.67
	32	56	63.3446	0.0317628	-0.0014268	1	0.0317949	-2.571995	0.0002981	3.601247	11	0.1589756	0.0050546	-327.67
	33	58	50.22321	0.0320219	-0.0013431	1	0.0320501	-2.401743	0.0003134	3.601254	11	0.1589849	0.0050955	-327.67
	34	60	38.42213	0.0322768	-0.0012119	1	0.0322995	-2.150338	0.0003068	3.601263	11	0.1589857	0.0051352	-327.67
	35	61	31.25	0.0324471	-0.0011163	1	0.0324663	-1.970469	0.0003148	3.601263	11	0.1589906	0.0051618	-327.67
	36	63	24.93351	0.0325992	-0.0010082	1	0.0326148	-1.77135	0.0002982	3.601275	11	0.1589993	0.0051857	-327.67
	37	64	19.86229	0.0327237	-0.0008908	1	0.0327358	-1.559283	0.0003328	3.601277	11	0.158976	0.0052042	-327.67
	38	66	15.625	0.0328339	-0.0007962	1	0.0328436	-1.389037	0.0002964	3.601293	11	0.1590068	0.0052224	-327.67
	39	67	12.40079	0.0329304	-0.000708	1	0.032938	-1.231675	0.0003112	3.601304	11	0.1590076	0.0052374	-327.67
	40	69	9.93114	0.0329913	-0.0006443	1	0.0329976	-1.118878	0.0003359	3.601316	11	0.1589849	0.0052461	-327.67
	41	71	7.944915	0.0330408	-0.0005883	1	0.0330461	-1.02012	0.000316	3.601301	11	0.158994	0.0052541	-327.67
	42	72	6.317385	0.0330951	-0.0005525	1	0.0330997	-0.956438	0.0002523	3.601321	11	0.1589936	0.0052626	-327.67
	43	74	5.008013	0.0331389	-0.0005329	1	0.0331432	-0.9212425	0.0002546	3.601343	11	0.1590048	0.0052699	-327.67
	44	77	3.945707	0.0331969	-0.0005314	1	0.0332012	-0.9170604	0.0003319	3.601336	11	0.1589979	0.0052789	-327.67
	45	79	3.158693	0.0332346	-0.000518	1	0.0332386	-0.8929371	0.0003733	3.601338	11	0.1590186	0.0052856	-327.67
	46	83	2.504006	0.0331521	-0.000444	1	0.0331551	-0.7673535	0.0002786	3.601325	11	0.1554175	0.0051529	-327.67
	47	86	1.998082	0.0332332	-0.0005217	1	0.0332373	-0.8993663	0.0005862	3.601372	11	0.1615187	0.0053684	-327.67
	48	90	1.584686	0.0333222	-0.0005959	1	0.0333275	-1.024544	0.0005673	3.601384	11	0.1598381	0.005327	-327.67
	49	95	1.266892	0.0334028	-0.0006661	1	0.0334095	-1.14237	6.290886E-005	3.601411	11	0.1593384	0.0053234	-327.67
	50	100	0.999041	0.0334863	-0.000752	1	0.0334947	-1.286518	5.115371E-005	3.601402	11	0.1591036	0.0053291	-327.67
	51	104	0.7923428	0.0335925	-0.0008345	1	0.0336029	-1.42302	0.0002817	3.601453	11	0.1591395	0.0053475	-327.67
	52	112	0.6334459	0.0336813	-0.0009336	1	0.0336943	-1.5878	0.000279	3.601481	11	0.1589829	0.0053568	-327.67
	53	122	0.5040323	0.0337925	-0.0010517	1	0.0338089	-1.782664	0.0002792	3.601521	11	0.1589816	0.005375	-327.67
	54	133	0.400641	0.033932	-0.0011859	1	0.0339527	-2.00163	0.0002809	3.601566	11	0.1589872	0.005398	-327.67
	55	145	0.316723	0.0340816	-0.0013292	1	0.0341075	-2.233441	0.0002796	3.601614	11	0.1589905	0.0054228	-327.67
	56	159	0.2520161	0.0342537	-0.0014911	1	0.0342861	-2.492553	0.0002825	3.601677	11	0.1589937	0.0054513	-327.67
	57	180	0.2003205	0.0344411	-0.0016534	1	0.0344808	-2.74851	0.0002806	3.601753	11	0.1589953	0.0054823	-327.67
	58	202	0.1588983	0.0346605	-0.0018315	1	0.0347089	-3.024719	0.000278	3.601846	11	0.1589968	0.0055186	-327.67
	59	233	0.1260081	0.0348966	-0.0020298	1	0.0349556	-3.328988	0.0002799	3.602033	11	0.1589986	0.0055579	-327.67
	60	271	0.1001603	0.0351726	-0.0022313	1	0.0352433	-3.629966	0.000281	3.602305	11	0.1589993	0.0056037	-327.67
	61	308	0.0794492	0.0354765	-0.0024764	1	0.0355628	-3.99301	0.0002795	3.602582	11	0.1589987	0.0056544	-327.67
	62	347	0.0631739	0.0356854	-0.0027492	1	0.0357911	-4.405311	0.0002834	3.602591	11	0.1589978	0.0056907	-327.67
	63	396	0.0501337	0.0359549	-0.0030798	1	0.0360865	-4.895895	0.000281	3.602689	11	0.1590022	0.0057378	-327.67
	64	457	0.0398258	0.0362469	-0.0034585	1	0.0364115	-5.450428	0.0002808	3.602876	11	0.1590001	0.0057894	-327.67
	65	559	0.0316296	0.0365849	-0.0039111	1	0.0367934	-6.101965	0.0002811	3.603089	11	0.1589996	0.0058501	-327.67
	66	656	0.0251206	0.0369716	-0.0044633	1	0.03724	-6.88354	0.000279	3.603308	11	0.1590004	0.0059212	-327.67
	67	777	0.0199553	0.0374326	-0.0051341	1	0.0377831	-7.809752	0.0002815	3.60357	11	0.158999	0.0060075	-327.67
	68	979	0.0158522	0.0379842	-0.0059312	1	0.0384445	-8.87509	0.0002783	3.603877	11	0.1590009	0.0061127	-327.67
	69	1169	0.0125907	0.0386673	-0.0068795	1	0.0392745	-10.08819	0.0002773	3.604167	11	0.1590001	0.0062447	-327.67
	70	1409	0.0100011	0.0395173	-0.0079373	1	0.0403065	-11.35715	0.0002791	3.60446	11	0.1590001	0.0064087	-327.67
