EXPLAIN
TAG	GALVEIS
TITLE	LABEL	Galvanostatic EIS	Test Identifier
DATE	LABEL	8.2.2024	Date
TIME	LABEL	11:29:19	Time
NOTES	NOTES	1	Notes...
	
PSTAT	PSTAT	REF600-12055	Potentiostat
FREQINIT	QUANT	1.00000E+005	Initial Freq. (Hz)
FREQFINAL	QUANT	1.00000E-002	Final Freq. (Hz)
PTSPERDEC	QUANT	1.00000E+001	Points/decade
IACREQ	QUANT	1.59000E-001	AC Current (A rms)
IDCREQ	QUANT	0.00000E+000	DC Current (A)
AREA	QUANT	1.00000E+000	Sample Area (cm^2)
SPEED	SELECTOR	1	Optimize for:
DRIFTCOR	SELECTOR	0	Drift Correction
THD	SELECTOR	0	THD
ZGUESS	QUANT	1.00000E-001	Estimated Z (ohms)
EOC	QUANT	3.663071	Open Circuit (V)
SEQUENCER	TOGGLE	TRUE	Run as Sequence
PSTATMODEL	IQUANT	4	Pstat Model
PSTATSECTION	LABEL	REF600-12055	Pstat Section
PSTATSERIALNO	LABEL	12055	Pstat Serial Number
CTRLMODE	IQUANT	0	Control Mode
ELECTROMETER	IQUANT	0	RE=0 or CS=1
IESTAB	IQUANT	0	I/E Stability
CASPEED	IQUANT	4	Control Amp Speed
CONVENTION	IQUANT	1	Current Convention
ICHRANGE	IQUANT	2	Ich Range
ICHRANGEMODE	TOGGLE	F	Ich Auto Range
ICHOFFSETENABLE	TOGGLE	T	Ich Offset Enable
ICHOFFSET	QUANT	0	Ich Offset (V)
ICHFILTER	IQUANT	3	Ich Filter
VCHRANGE	IQUANT	2	Vch Range
VCHRANGEMODE	TOGGLE	F	Vch Auto Range
VCHOFFSETENABLE	TOGGLE	T	Vch Offset Enable
VCHOFFSET	QUANT	0	Vch Offset (V)
VCHFILTER	IQUANT	3	Vch Filter
ACHRANGE	IQUANT	2	Ach Range
ACHOFFSETENABLE	TOGGLE	F	Ach Offset Enable
ACHOFFSET	QUANT	0	Ach Offset (V)
ACHFILTER	IQUANT	1	Ach Filter
IERANGELOWERLIMIT	IQUANT	1	I/E Range Lower Limit
IERANGEMODE	TOGGLE	F	I/E AutoRange
IERANGE	IQUANT	7	I/E Range
POSFEEDENABLE	TOGGLE	F	Positive Feedback IR Comp
POSFEEDRESISTANCE	QUANT	0	Positive Feedback Resistance (ohm)
ACHSELECT	IQUANT	4	Ach Select
SENSECABLEID	IQUANT	14	Sense Cable ID
PWRCABLEID	IQUANT	14	Power Cable ID
DCCALDATE	LABEL		DC Calibration Date
ACCALDATE	LABEL		AC Calibration Date
THERMOSELECT	IQUANT	1	Thermo Select
FRAMEWORKVERSION	LABEL	7.10.3	Framework Version
INSTRUMENTVERSION	LABEL	4.91	Instrument Version
COMMVERSION	LABEL	2.24	Communications Version
CPUPLDVERSION	LABEL	0.00	CPU PLD Version
CTRLPLDVERSION	LABEL	0.00	CTRL PLD Version
PSTATPLDVERSION	LABEL	0.00	PSTAT PLD Version
ZCURVE	TABLE
	Pt	Time	Freq	Zreal	Zimag	Zsig	Zmod	Zphz	Idc	Vdc	IERange	Imod	Vmod	Temp
	#	s	Hz	ohm	ohm	V	ohm	°	A	V	#	A	V	°C
	0	5	100078.1	0.1061244	0.2374688	1	0.2601035	65.92021	0.0003682	3.662207	11	0.1596585	0.0412504	-327.67
	1	6	79453.13	0.0878567	0.197882	1	0.2165089	66.05947	0.0003501	3.6622	11	0.1642539	0.0353995	-327.67
	2	8	63140.62	0.0737178	0.1642155	1	0.1800029	65.82427	0.0003391	3.662207	11	0.1619693	0.0290655	-327.67
	3	10	50203.12	0.0628941	0.1357602	1	0.1496212	65.14295	0.0003324	3.662208	11	0.160934	0.0240306	-327.67
	4	12	39890.62	0.0546616	0.1118343	1	0.1244781	63.95185	0.0003316	3.66222	11	0.1602827	0.0199257	-327.67
	5	13	31640.63	0.0484005	0.0918351	1	0.1038089	62.20908	0.0003289	3.662213	11	0.1598399	0.016579	-327.67
	6	15	25171.88	0.0436533	0.0756054	1	0.0873028	59.99859	0.0003278	3.662223	11	0.1595503	0.0139218	-327.67
	7	17	20015.62	0.0399114	0.0622616	1	0.0739556	57.33897	0.000321	3.662186	11	0.1593537	0.0117811	-327.67
	8	18	15890.62	0.0368092	0.0512292	1	0.0630821	54.30198	0.0003217	3.662187	11	0.1592269	0.0100422	-327.67
	9	20	12609.38	0.034205	0.0420709	1	0.0542212	50.88777	0.000323	3.662202	11	0.1591418	0.0086277	-327.67
	10	22	10078.13	0.0321174	0.0346195	1	0.0472233	47.1471	0.000322	3.662205	11	0.1590869	0.0075119	-327.67
	11	23	8015.625	0.0304244	0.0281695	1	0.0414628	42.7962	0.000321	3.662208	11	0.159057	0.0065946	-327.67
	12	25	6328.125	0.0290967	0.0225582	1	0.036817	37.78584	0.0003162	3.662209	11	0.1590317	0.0058549	-327.67
	13	26	5015.625	0.0281827	0.0179231	1	0.0333991	32.45472	0.0003168	3.66221	11	0.1590167	0.0053109	-327.67
	14	28	3984.375	0.0275942	0.014112	1	0.0309934	27.08578	0.0003171	3.662227	11	0.1590042	0.004928	-327.67
	15	30	3170.956	0.0272668	0.010995	1	0.0294002	21.96106	0.0003196	3.662227	11	0.1590101	0.0046749	-327.67
	16	31	2527.573	0.0271307	0.0084373	1	0.0284124	17.27497	0.0003099	3.662223	11	0.1590018	0.0045176	-327.67
	17	33	1976.103	0.027144	0.0061199	1	0.0278253	12.70551	0.0003226	3.662242	11	0.1590047	0.0044243	-327.67
	18	34	1577.524	0.0272461	0.0044994	1	0.0276151	9.37721	0.0003214	3.662239	11	0.1589964	0.0043907	-327.67
	19	36	1265.625	0.0274338	0.0031066	1	0.0276092	6.460608	0.0003207	3.662234	11	0.1590027	0.0043899	-327.67
	20	38	998.264	0.0276792	0.0020083	1	0.0277519	4.149976	0.0003163	3.662234	11	0.1589964	0.0044125	-327.67
	21	39	796.875	0.0279819	0.0010977	1	0.0280035	2.246464	0.0003174	3.662253	11	0.1590013	0.0044526	-327.67
	22	41	627.7902	0.0283325	0.0003848	1	0.0283351	0.7781554	0.0003039	3.662248	11	0.1590132	0.0045057	-327.67
	23	42	505.5147	0.0284878	6.402664E-005	1	0.0284879	0.1287726	0.0002993	3.66217	11	0.1575846	0.0044893	-327.67
	24	44	397.9953	0.0289126	-0.0004596	1	0.0289163	-0.9107544	0.0002985	3.662178	11	0.1606045	0.0046441	-327.67
	25	45	315.5048	0.0293156	-0.0008362	1	0.0293276	-1.63379	0.0002989	3.662178	11	0.1593367	0.004673	-327.67
	26	47	252.4038	0.0296941	-0.0010914	1	0.0297142	-2.104908	0.0002956	3.662186	11	0.1589742	0.0047238	-327.67
	27	48	198.6229	0.0300903	-0.0012823	1	0.0301176	-2.440131	0.0002981	3.662189	11	0.158878	0.004785	-327.67
	28	50	158.3615	0.0304472	-0.0013891	1	0.0304789	-2.612263	0.0003099	3.662196	11	0.1588845	0.0048426	-327.67
	29	51	125.558	0.0307885	-0.0014424	1	0.0308223	-2.682329	0.0003134	3.662195	11	0.1589138	0.0048981	-327.67
	30	53	100.4464	0.0311038	-0.0014551	1	0.0311378	-2.678434	0.0003145	3.662199	11	0.1589458	0.0049492	-327.67
	31	54	79.00281	0.031415	-0.0014186	1	0.031447	-2.585479	0.0003078	3.662201	11	0.1589537	0.0049986	-327.67
	32	56	63.3446	0.0316726	-0.0013522	1	0.0317014	-2.444603	0.0003073	3.662202	11	0.1589745	0.0050397	-327.67
	33	58	50.22321	0.0319205	-0.0012636	1	0.0319455	-2.266856	0.0003109	3.662206	11	0.1589801	0.0050787	-327.67
	34	60	38.42213	0.0321573	-0.0011442	1	0.0321777	-2.037883	0.0003095	3.662215	11	0.1589871	0.0051158	-327.67
	35	61	31.25	0.0323141	-0.0010446	1	0.0323309	-1.851569	0.0003076	3.662215	11	0.1590005	0.0051406	-327.67
	36	63	24.93351	0.0324516	-0.0009366	1	0.0324651	-1.653182	0.0003102	3.662219	11	0.1589931	0.0051617	-327.67
	37	65	19.86229	0.032565	-0.0008394	1	0.0325759	-1.476507	0.0003156	3.662212	11	0.1589938	0.0051794	-327.67
	38	66	15.625	0.0326723	-0.0007245	1	0.0326803	-1.270348	0.0003005	3.662233	11	0.1589873	0.0051958	-327.67
	39	67	12.40079	0.0327468	-0.0006639	1	0.0327535	-1.161409	0.0003058	3.662241	11	0.1590018	0.0052079	-327.67
	40	69	9.93114	0.0328021	-0.000601	1	0.0328076	-1.049644	0.0003069	3.662236	11	0.1590065	0.0052166	-327.67
	41	71	7.944915	0.0328581	-0.0005588	1	0.0328628	-0.974225	0.0003095	3.662227	11	0.1589768	0.0052244	-327.67
	42	72	6.317385	0.0329049	-0.000528	1	0.0329092	-0.9193177	0.0002835	3.662251	11	0.1589791	0.0052319	-327.67
	43	75	5.008013	0.0329478	-0.0005053	1	0.0329517	-0.8785616	0.0002803	3.662268	11	0.1590349	0.0052405	-327.67
	44	77	3.945707	0.0329968	-0.0004934	1	0.0330005	-0.8566784	0.0003147	3.662268	11	0.1590061	0.0052473	-327.67
	45	80	3.158693	0.0330316	-0.0005091	1	0.0330356	-0.883067	0.0002345	3.662284	11	0.1589889	0.0052523	-327.67
	46	83	2.504006	0.0329498	-0.0004435	1	0.0329528	-0.7711931	0.0002694	3.66228	11	0.155409	0.0051212	-327.67
	47	87	1.998082	0.0330435	-0.0005226	1	0.0330476	-0.9060625	0.0003964	3.66231	11	0.1613625	0.0053326	-327.67
	48	90	1.584686	0.0331217	-0.0005963	1	0.0331271	-1.03132	0.0005688	3.662317	11	0.1600186	0.0053009	-327.67
	49	95	1.266892	0.0332061	-0.0006704	1	0.0332129	-1.156552	0.0001514	3.66227	11	0.1592377	0.0052887	-327.67
	50	100	0.999041	0.0333044	-0.0007561	1	0.033313	-1.300525	0.000216	3.662266	11	0.1590378	0.005298	-327.67
	51	104	0.7923428	0.033404	-0.0008411	1	0.0334146	-1.442332	0.0002818	3.662356	11	0.159297	0.0053228	-327.67
	52	111	0.6334459	0.0334855	-0.0009443	1	0.0334988	-1.615338	0.0002781	3.662353	11	0.1589824	0.0053257	-327.67
	53	120	0.5040323	0.0336144	-0.0010751	1	0.0336316	-1.831873	0.0002787	3.662371	11	0.1589845	0.0053469	-327.67
	54	130	0.400641	0.0337413	-0.0012095	1	0.033763	-2.05289	0.0002845	3.662391	11	0.1589846	0.0053678	-327.67
	55	144	0.316723	0.0338856	-0.0013641	1	0.033913	-2.305214	0.0002795	3.662423	11	0.1589909	0.0053919	-327.67
	56	161	0.2520161	0.0340701	-0.0015262	1	0.0341042	-2.564939	0.0002816	3.662463	11	0.1589929	0.0054223	-327.67
	57	178	0.2003205	0.0342808	-0.0016972	1	0.0343228	-2.834256	0.0002791	3.662499	11	0.1589971	0.0054572	-327.67
	58	200	0.1588983	0.034496	-0.001877	1	0.034547	-3.114492	0.0002822	3.662553	11	0.1589956	0.0054928	-327.67
	59	225	0.1260081	0.0347524	-0.0020769	1	0.0348144	-3.420084	0.0002791	3.662684	11	0.1589979	0.0055354	-327.67
	60	255	0.1001603	0.0350508	-0.0022897	1	0.0351255	-3.737598	0.0002808	3.66287	11	0.1589998	0.005585	-327.67
	61	302	0.0794492	0.035366	-0.0025251	1	0.035456	-4.083875	0.0002802	3.663081	11	0.158999	0.0056375	-327.67
	62	341	0.0631739	0.0355879	-0.002805	1	0.0356983	-4.506707	0.0002785	3.663043	11	0.1590012	0.0056761	-327.67
	63	390	0.0501337	0.0358815	-0.0031216	1	0.036017	-4.972044	0.0002798	3.663084	11	0.1589985	0.0057266	-327.67
	64	451	0.0398258	0.036199	-0.0034991	1	0.0363677	-5.521248	0.0002795	3.663154	11	0.1590024	0.0057826	-327.67
	65	553	0.0316296	0.0365441	-0.0039556	1	0.0367576	-6.177804	0.0002842	3.663291	11	0.1589976	0.0058444	-327.67
	66	681	0.0251206	0.0369428	-0.004509	1	0.037217	-6.958797	0.0002796	3.663431	11	0.1590004	0.0059175	-327.67
	67	842	0.0199553	0.0373903	-0.0051499	1	0.0377432	-7.842161	0.0002797	3.66361	11	0.1589994	0.0060012	-327.67
	68	1044	0.0158522	0.0379483	-0.0059348	1	0.0384095	-8.888666	0.0002774	3.663793	11	0.1590007	0.0061071	-327.67
	69	1298	0.0125907	0.0385875	-0.0068473	1	0.0391903	-10.06229	0.0002795	3.663981	11	0.159	0.0062313	-327.67
	70	1617	0.0100011	0.039381	-0.0078925	1	0.040164	-11.33271	0.0002805	3.664203	11	0.1589999	0.0063861	-327.67
