EXPLAIN
TAG	GALVEIS
TITLE	LABEL	Galvanostatic EIS	Test Identifier
DATE	LABEL	8.2.2024	Date
TIME	LABEL	10:04:23	Time
NOTES	NOTES	1	Notes...
	
PSTAT	PSTAT	REF600-12055	Potentiostat
FREQINIT	QUANT	1.00000E+005	Initial Freq. (Hz)
FREQFINAL	QUANT	1.00000E-002	Final Freq. (Hz)
PTSPERDEC	QUANT	1.00000E+001	Points/decade
IACREQ	QUANT	1.59000E-001	AC Current (A rms)
IDCREQ	QUANT	0.00000E+000	DC Current (A)
AREA	QUANT	1.00000E+000	Sample Area (cm^2)
SPEED	SELECTOR	1	Optimize for:
DRIFTCOR	SELECTOR	0	Drift Correction
THD	SELECTOR	0	THD
ZGUESS	QUANT	1.00000E-001	Estimated Z (ohms)
EOC	QUANT	3.749375	Open Circuit (V)
SEQUENCER	TOGGLE	TRUE	Run as Sequence
PSTATMODEL	IQUANT	4	Pstat Model
PSTATSECTION	LABEL	REF600-12055	Pstat Section
PSTATSERIALNO	LABEL	12055	Pstat Serial Number
CTRLMODE	IQUANT	0	Control Mode
ELECTROMETER	IQUANT	0	RE=0 or CS=1
IESTAB	IQUANT	0	I/E Stability
CASPEED	IQUANT	4	Control Amp Speed
CONVENTION	IQUANT	1	Current Convention
ICHRANGE	IQUANT	2	Ich Range
ICHRANGEMODE	TOGGLE	F	Ich Auto Range
ICHOFFSETENABLE	TOGGLE	T	Ich Offset Enable
ICHOFFSET	QUANT	0	Ich Offset (V)
ICHFILTER	IQUANT	3	Ich Filter
VCHRANGE	IQUANT	2	Vch Range
VCHRANGEMODE	TOGGLE	F	Vch Auto Range
VCHOFFSETENABLE	TOGGLE	T	Vch Offset Enable
VCHOFFSET	QUANT	0	Vch Offset (V)
VCHFILTER	IQUANT	3	Vch Filter
ACHRANGE	IQUANT	2	Ach Range
ACHOFFSETENABLE	TOGGLE	F	Ach Offset Enable
ACHOFFSET	QUANT	0	Ach Offset (V)
ACHFILTER	IQUANT	1	Ach Filter
IERANGELOWERLIMIT	IQUANT	1	I/E Range Lower Limit
IERANGEMODE	TOGGLE	F	I/E AutoRange
IERANGE	IQUANT	7	I/E Range
POSFEEDENABLE	TOGGLE	F	Positive Feedback IR Comp
POSFEEDRESISTANCE	QUANT	0	Positive Feedback Resistance (ohm)
ACHSELECT	IQUANT	4	Ach Select
SENSECABLEID	IQUANT	14	Sense Cable ID
PWRCABLEID	IQUANT	14	Power Cable ID
DCCALDATE	LABEL		DC Calibration Date
ACCALDATE	LABEL		AC Calibration Date
THERMOSELECT	IQUANT	1	Thermo Select
FRAMEWORKVERSION	LABEL	7.10.3	Framework Version
INSTRUMENTVERSION	LABEL	4.91	Instrument Version
COMMVERSION	LABEL	2.24	Communications Version
CPUPLDVERSION	LABEL	0.00	CPU PLD Version
CTRLPLDVERSION	LABEL	0.00	CTRL PLD Version
PSTATPLDVERSION	LABEL	0.00	PSTAT PLD Version
ZCURVE	TABLE
	Pt	Time	Freq	Zreal	Zimag	Zsig	Zmod	Zphz	Idc	Vdc	IERange	Imod	Vmod	Temp
	#	s	Hz	ohm	ohm	V	ohm	°	A	V	#	A	V	°C
	0	5	100078.1	0.1062543	0.2374084	1	0.2601014	65.88866	0.0003672	3.748587	11	0.1596576	0.0412498	-327.67
	1	7	79453.13	0.0879349	0.1978562	1	0.2165171	66.03779	0.0003486	3.748596	11	0.1642571	0.0354015	-327.67
	2	8	63140.62	0.0737635	0.1642068	1	0.1800137	65.80986	0.0003397	3.7486	11	0.1619724	0.0290678	-327.67
	3	10	50203.12	0.0629113	0.1357688	1	0.1496363	65.13837	0.0003347	3.748602	11	0.1609288	0.0240323	-327.67
	4	12	39890.62	0.0546641	0.1118499	1	0.1244933	63.95398	0.0003271	3.748604	11	0.160286	0.0199285	-327.67
	5	13	31640.63	0.0483866	0.0918501	1	0.1038158	62.21975	0.0003247	3.748604	11	0.1598353	0.0165796	-327.67
	6	15	25171.88	0.0436449	0.0756112	1	0.0873036	60.00525	0.0003185	3.748615	11	0.1595441	0.0139213	-327.67
	7	17	20015.62	0.0398891	0.0622637	1	0.0739454	57.35443	0.0003203	3.748578	11	0.1593619	0.0117801	-327.67
	8	19	15890.62	0.0367876	0.051234	1	0.0630734	54.32053	0.0003231	3.748591	11	0.1592278	0.0100409	-327.67
	9	20	12609.38	0.0341787	0.0420747	1	0.0542076	50.91189	0.0003089	3.748583	11	0.1591399	0.0086254	-327.67
	10	22	10078.13	0.0320946	0.0346294	1	0.047215	47.17562	0.0003211	3.748595	11	0.1590894	0.0075108	-327.67
	11	23	8015.625	0.0303796	0.0281918	1	0.0414451	42.86089	0.0003224	3.748604	11	0.1590522	0.0065916	-327.67
	12	25	6328.125	0.0290589	0.0225622	1	0.0367896	37.82682	0.0003212	3.748596	11	0.1590345	0.0058506	-327.67
	13	27	5015.625	0.0281477	0.0179471	1	0.0333825	32.52177	0.0003138	3.748604	11	0.1590114	0.0053081	-327.67
	14	28	3984.375	0.0275579	0.0141384	1	0.030973	27.15977	0.0003164	3.748618	11	0.1590134	0.0049251	-327.67
	15	29	3170.956	0.0272439	0.0109863	1	0.0293756	21.96207	0.0003082	3.748612	11	0.1590015	0.0046707	-327.67
	16	31	2527.573	0.0270843	0.0084501	1	0.0283719	17.32755	0.0003103	3.748613	11	0.1590034	0.0045112	-327.67
	17	33	1976.103	0.0270952	0.0061973	1	0.0277949	12.88332	0.000306	3.748621	11	0.1590054	0.0044195	-327.67
	18	34	1577.524	0.0272005	0.0045168	1	0.027573	9.428264	0.0003213	3.748627	11	0.158998	0.004384	-327.67
	19	36	1265.625	0.0274059	0.0031995	1	0.027592	6.658808	0.0003135	3.748629	11	0.1590075	0.0043873	-327.67
	20	37	998.264	0.0276315	0.0020438	1	0.027707	4.230201	0.0003175	3.748647	11	0.1589952	0.0044053	-327.67
	21	39	796.875	0.0279217	0.0011048	1	0.0279435	2.265823	0.0003192	3.748648	11	0.1589945	0.0044429	-327.67
	22	40	627.7902	0.0282476	0.000408	1	0.0282505	0.8274176	0.0003205	3.748642	11	0.159006	0.004492	-327.67
	23	42	505.5147	0.0284209	0.0001041	1	0.0284211	0.2098521	0.0003121	3.748564	11	0.1575995	0.0044792	-327.67
	24	43	397.9953	0.0288426	-0.000418	1	0.0288456	-0.8302149	0.0003137	3.748568	11	0.1605989	0.0046326	-327.67
	25	45	315.5048	0.0292379	-0.0007964	1	0.0292488	-1.560287	0.0003099	3.748572	11	0.1593396	0.0046605	-327.67
	26	46	252.4038	0.0296149	-0.0010559	1	0.0296337	-2.041908	0.0002965	3.748578	11	0.1589719	0.0047109	-327.67
	27	48	198.6229	0.0299985	-0.001241	1	0.0300242	-2.368875	0.0002991	3.748582	11	0.1588737	0.0047701	-327.67
	28	49	158.3615	0.0303453	-0.0013556	1	0.0303755	-2.557821	0.0002934	3.748584	11	0.1588925	0.0048264	-327.67
	29	51	125.558	0.0306846	-0.0014111	1	0.030717	-2.633003	0.0003021	3.748586	11	0.1589087	0.0048812	-327.67
	30	52	100.4464	0.0309874	-0.0014218	1	0.03102	-2.627065	0.0002973	3.74859	11	0.1589393	0.0049303	-327.67
	31	54	79.00281	0.0312973	-0.0013919	1	0.0313283	-2.546467	0.0003097	3.7486	11	0.1589615	0.00498	-327.67
	32	56	63.3446	0.0315566	-0.0013357	1	0.0315849	-2.423666	0.0003097	3.748605	11	0.158976	0.0050212	-327.67
	33	57	50.22321	0.0317936	-0.0012465	1	0.0318181	-2.24515	0.0003066	3.748606	11	0.1589796	0.0050584	-327.67
	34	59	38.42213	0.0320354	-0.0011295	1	0.0320553	-2.01932	0.0002974	3.748612	11	0.1589918	0.0050965	-327.67
	35	61	31.25	0.0321822	-0.0010353	1	0.0321988	-1.842551	0.0002959	3.748616	11	0.1589966	0.0051195	-327.67
	36	63	24.93351	0.0323269	-0.0009245	1	0.0323401	-1.638105	0.0002996	3.748624	11	0.1589883	0.0051417	-327.67
	37	64	19.86229	0.0324541	-0.0008349	1	0.0324649	-1.473581	0.0003271	3.748631	11	0.1589776	0.0051612	-327.67
	38	65	15.625	0.0325505	-0.0007408	1	0.0325589	-1.303737	0.0003251	3.748629	11	0.1590028	0.005177	-327.67
	39	67	12.40079	0.0326242	-0.0006623	1	0.032631	-1.163052	0.0003267	3.748645	11	0.1589961	0.0051882	-327.67
	40	68	9.93114	0.03268	-0.0006044	1	0.0326856	-1.059594	0.0003217	3.748648	11	0.1590137	0.0051975	-327.67
	41	70	7.944915	0.0327346	-0.0005668	1	0.0327395	-0.992051	0.0003353	3.748636	11	0.1589939	0.0052054	-327.67
	42	72	6.317385	0.0327826	-0.0005382	1	0.032787	-0.9405535	0.0002244	3.748641	11	0.1590195	0.0052138	-327.67
	43	74	5.008013	0.0328273	-0.0005139	1	0.0328313	-0.8969098	0.0003635	3.74864	11	0.1589592	0.0052188	-327.67
	44	76	3.945707	0.0328723	-0.000521	1	0.0328765	-0.9080423	0.0003415	3.74864	11	0.1590082	0.0052276	-327.67
	45	79	3.158693	0.0329231	-0.0005328	1	0.0329275	-0.9270633	0.0004122	3.748634	11	0.1589767	0.0052347	-327.67
	46	81	2.504006	0.0328437	-0.0004548	1	0.0328469	-0.7933972	0.0002984	3.748608	11	0.1554662	0.0051066	-327.67
	47	84	1.998082	0.032924	-0.0005398	1	0.0329284	-0.9393337	0.0005274	3.748644	11	0.1614372	0.0053159	-327.67
	48	88	1.584686	0.0330123	-0.0006222	1	0.0330182	-1.079782	0.0004159	3.748648	11	0.1598001	0.0052763	-327.67
	49	93	1.266892	0.0331004	-0.0006964	1	0.0331077	-1.205267	0.0001569	3.748695	11	0.1593374	0.0052753	-327.67
	50	99	0.999041	0.0331847	-0.0007806	1	0.0331939	-1.347503	0.0001192	3.748701	11	0.1591233	0.0052819	-327.67
	51	103	0.7923428	0.0332887	-0.0008892	1	0.0333005	-1.530189	0.0002823	3.74873	11	0.1592255	0.0053023	-327.67
	52	110	0.6334459	0.0333952	-0.0010063	1	0.0334104	-1.725933	0.0002851	3.748744	11	0.1589831	0.0053117	-327.67
	53	118	0.5040323	0.03352	-0.0011346	1	0.0335392	-1.93865	0.0002817	3.748765	11	0.1589827	0.0053321	-327.67
	54	129	0.400641	0.0336547	-0.0012853	1	0.0336792	-2.187133	0.0002802	3.7488	11	0.1589868	0.0053545	-327.67
	55	143	0.316723	0.0338301	-0.0014564	1	0.0338615	-2.465127	0.000281	3.748843	11	0.1589891	0.0053836	-327.67
	56	157	0.2520161	0.0340182	-0.0016323	1	0.0340574	-2.747127	0.0002797	3.748879	11	0.1589941	0.0054149	-327.67
	57	179	0.2003205	0.0342254	-0.0018212	1	0.0342739	-3.045922	0.0002831	3.748939	11	0.158996	0.0054494	-327.67
	58	205	0.1588983	0.0344671	-0.0020296	1	0.0345268	-3.370008	0.0002806	3.749013	11	0.1589973	0.0054897	-327.67
	59	237	0.1260081	0.0347448	-0.0022533	1	0.0348178	-3.710521	0.0002805	3.749172	11	0.1589982	0.005536	-327.67
	60	275	0.1001603	0.035061	-0.0024913	1	0.0351494	-4.064394	0.0002806	3.749409	11	0.1589987	0.0055887	-327.67
	61	321	0.0794492	0.035417	-0.0027661	1	0.0355249	-4.465715	0.0002809	3.749668	11	0.1589998	0.0056484	-327.67
	62	360	0.0631739	0.0356568	-0.0030821	1	0.0357897	-4.940319	0.0002791	3.749648	11	0.1589974	0.0056905	-327.67
	63	409	0.0501337	0.0359978	-0.0034581	1	0.0361635	-5.487197	0.0002831	3.749726	11	0.1590018	0.0057501	-327.67
	64	491	0.0398258	0.0363497	-0.0038978	1	0.0365581	-6.120409	0.000281	3.74987	11	0.1589988	0.0058127	-327.67
	65	593	0.0316296	0.0367576	-0.0044163	1	0.0370219	-6.851018	0.0002797	3.750041	11	0.1589992	0.0058865	-327.67
	66	689	0.0251206	0.0372195	-0.0050604	1	0.037562	-7.742505	0.0002802	3.75021	11	0.1590011	0.0059724	-327.67
	67	810	0.0199553	0.0377411	-0.0058531	1	0.0381923	-8.81558	0.0002812	3.750423	11	0.1590006	0.0060726	-327.67
	68	1012	0.0158522	0.0383811	-0.006771	1	0.0389738	-10.00496	0.0002783	3.750663	11	0.1589992	0.0061968	-327.67
	69	1203	0.0125907	0.0391577	-0.0078828	1	0.0399432	-11.38203	0.0002812	3.750912	11	0.1590002	0.006351	-327.67
	70	1522	0.0100011	0.0401414	-0.0091714	1	0.0411757	-12.86983	0.0002781	3.751204	11	0.1590009	0.006547	-327.67
