EXPLAIN
TAG	GALVEIS
TITLE	LABEL	Galvanostatic EIS	Test Identifier
DATE	LABEL	8.2.2024	Date
TIME	LABEL	15:41:14	Time
NOTES	NOTES	1	Notes...
	
PSTAT	PSTAT	REF600-12055	Potentiostat
FREQINIT	QUANT	1.00000E+005	Initial Freq. (Hz)
FREQFINAL	QUANT	1.00000E-002	Final Freq. (Hz)
PTSPERDEC	QUANT	1.00000E+001	Points/decade
IACREQ	QUANT	1.59000E-001	AC Current (A rms)
IDCREQ	QUANT	0.00000E+000	DC Current (A)
AREA	QUANT	1.00000E+000	Sample Area (cm^2)
SPEED	SELECTOR	1	Optimize for:
DRIFTCOR	SELECTOR	0	Drift Correction
THD	SELECTOR	0	THD
ZGUESS	QUANT	1.00000E-001	Estimated Z (ohms)
EOC	QUANT	3.431831	Open Circuit (V)
SEQUENCER	TOGGLE	TRUE	Run as Sequence
PSTATMODEL	IQUANT	4	Pstat Model
PSTATSECTION	LABEL	REF600-12055	Pstat Section
PSTATSERIALNO	LABEL	12055	Pstat Serial Number
CTRLMODE	IQUANT	0	Control Mode
ELECTROMETER	IQUANT	0	RE=0 or CS=1
IESTAB	IQUANT	0	I/E Stability
CASPEED	IQUANT	4	Control Amp Speed
CONVENTION	IQUANT	1	Current Convention
ICHRANGE	IQUANT	2	Ich Range
ICHRANGEMODE	TOGGLE	F	Ich Auto Range
ICHOFFSETENABLE	TOGGLE	T	Ich Offset Enable
ICHOFFSET	QUANT	0	Ich Offset (V)
ICHFILTER	IQUANT	3	Ich Filter
VCHRANGE	IQUANT	2	Vch Range
VCHRANGEMODE	TOGGLE	F	Vch Auto Range
VCHOFFSETENABLE	TOGGLE	T	Vch Offset Enable
VCHOFFSET	QUANT	0	Vch Offset (V)
VCHFILTER	IQUANT	3	Vch Filter
ACHRANGE	IQUANT	2	Ach Range
ACHOFFSETENABLE	TOGGLE	F	Ach Offset Enable
ACHOFFSET	QUANT	0	Ach Offset (V)
ACHFILTER	IQUANT	1	Ach Filter
IERANGELOWERLIMIT	IQUANT	1	I/E Range Lower Limit
IERANGEMODE	TOGGLE	F	I/E AutoRange
IERANGE	IQUANT	7	I/E Range
POSFEEDENABLE	TOGGLE	F	Positive Feedback IR Comp
POSFEEDRESISTANCE	QUANT	0	Positive Feedback Resistance (ohm)
ACHSELECT	IQUANT	4	Ach Select
SENSECABLEID	IQUANT	14	Sense Cable ID
PWRCABLEID	IQUANT	14	Power Cable ID
DCCALDATE	LABEL		DC Calibration Date
ACCALDATE	LABEL		AC Calibration Date
THERMOSELECT	IQUANT	1	Thermo Select
FRAMEWORKVERSION	LABEL	7.10.3	Framework Version
INSTRUMENTVERSION	LABEL	4.91	Instrument Version
COMMVERSION	LABEL	2.24	Communications Version
CPUPLDVERSION	LABEL	0.00	CPU PLD Version
CTRLPLDVERSION	LABEL	0.00	CTRL PLD Version
PSTATPLDVERSION	LABEL	0.00	PSTAT PLD Version
ZCURVE	TABLE
	Pt	Time	Freq	Zreal	Zimag	Zsig	Zmod	Zphz	Idc	Vdc	IERange	Imod	Vmod	Temp
	#	s	Hz	ohm	ohm	V	ohm	°	A	V	#	A	V	°C
	0	4	100078.1	0.1059968	0.2383621	1	0.2608675	66.02586	0.000363	3.430852	11	0.15966	0.0413719	-327.67
	1	6	79453.13	0.0877475	0.1985434	1	0.2170693	66.15668	0.0003491	3.430858	11	0.1642576	0.0354919	-327.67
	2	8	63140.62	0.0736375	0.1647095	1	0.1804209	65.91177	0.0003426	3.430864	11	0.1619449	0.0291287	-327.67
	3	10	50203.12	0.0628517	0.1361292	1	0.1499383	65.21693	0.0003333	3.430879	11	0.160925	0.0240802	-327.67
	4	11	39890.62	0.0546487	0.1121098	1	0.12472	64.01275	0.0003277	3.43087	11	0.1602809	0.0199642	-327.67
	5	13	31640.63	0.0484056	0.0920433	1	0.1039956	62.26013	0.0003257	3.430878	11	0.1598393	0.0166087	-327.67
	6	15	25171.88	0.0436747	0.0757635	1	0.0874505	60.0382	0.0003235	3.430884	11	0.159546	0.0139449	-327.67
	7	16	20015.62	0.0399463	0.062385	1	0.0740783	57.36782	0.0003241	3.430856	11	0.1593562	0.0118008	-327.67
	8	18	15890.62	0.0368449	0.0513188	1	0.0631757	54.3231	0.0003235	3.430853	11	0.1592286	0.0100572	-327.67
	9	20	12609.38	0.0342535	0.0421505	1	0.0543136	50.90103	0.0003215	3.430854	11	0.1591381	0.0086422	-327.67
	10	21	10078.13	0.0321674	0.034691	1	0.0473097	47.16161	0.0003189	3.43086	11	0.1590893	0.0075258	-327.67
	11	23	8015.625	0.0304696	0.0282386	1	0.0415429	42.82366	0.0003185	3.430871	11	0.1590543	0.0066072	-327.67
	12	25	6328.125	0.029144	0.0226108	1	0.0368866	37.80543	0.0003215	3.430882	11	0.1590346	0.005866	-327.67
	13	26	5015.625	0.028232	0.0179902	1	0.0334767	32.50641	0.0003199	3.430882	11	0.159011	0.0053231	-327.67
	14	28	3984.375	0.0276357	0.0141674	1	0.0310556	27.14183	0.0003201	3.430885	11	0.1590058	0.0049379	-327.67
	15	30	3170.956	0.0272953	0.0110253	1	0.0294379	21.99503	0.0003198	3.430888	11	0.1590127	0.004681	-327.67
	16	31	2527.573	0.0271588	0.0084906	1	0.028455	17.36063	0.0003164	3.430885	11	0.1590043	0.0045244	-327.67
	17	33	1976.103	0.0271574	0.006191	1	0.0278541	12.84203	0.0003192	3.430892	11	0.1590002	0.0044288	-327.67
	18	35	1577.524	0.0272503	0.0045631	1	0.0276297	9.50605	0.000309	3.430892	11	0.1590016	0.0043932	-327.67
	19	36	1265.625	0.0274164	0.0032195	1	0.0276048	6.697486	0.0003177	3.430894	11	0.1590008	0.0043892	-327.67
	20	38	998.264	0.0276681	0.0019793	1	0.0277388	4.091792	0.0003159	3.430896	11	0.1589966	0.0044104	-327.67
	21	40	796.875	0.0279398	0.0011301	1	0.0279627	2.31627	0.000317	3.430905	11	0.1589981	0.004446	-327.67
	22	41	627.7902	0.02827	0.0003649	1	0.0282724	0.7394729	0.0003142	3.430903	11	0.158998	0.0044952	-327.67
	23	43	505.5147	0.0284276	5.63221E-005	1	0.0284277	0.1135169	0.0003093	3.430826	11	0.1576039	0.0044803	-327.67
	24	44	397.9953	0.0288411	-0.0005008	1	0.0288454	-0.994708	0.0003108	3.430831	11	0.1605976	0.0046325	-327.67
	25	46	315.5048	0.0292401	-0.0009078	1	0.0292542	-1.778282	0.000309	3.430837	11	0.1593429	0.0046614	-327.67
	26	47	252.4038	0.0296129	-0.0012116	1	0.0296377	-2.34298	0.0003059	3.43084	11	0.1589694	0.0047115	-327.67
	27	49	198.6229	0.0300135	-0.001448	1	0.0300484	-2.762129	0.0003108	3.430842	11	0.1588799	0.0047741	-327.67
	28	50	158.3615	0.0303827	-0.0016233	1	0.030426	-3.058252	0.0003079	3.430845	11	0.158884	0.0048342	-327.67
	29	52	125.558	0.0307564	-0.0017453	1	0.0308059	-3.247852	0.0002948	3.43085	11	0.158913	0.0048955	-327.67
	30	53	100.4464	0.0311029	-0.0018274	1	0.0311565	-3.362385	0.0002948	3.430853	11	0.1589395	0.004952	-327.67
	31	55	79.00281	0.0314736	-0.0018845	1	0.0315299	-3.426568	0.0002913	3.430857	11	0.1589619	0.0050121	-327.67
	32	56	63.3446	0.0318055	-0.0019032	1	0.0318624	-3.424511	0.0003066	3.430866	11	0.158976	0.0050654	-327.67
	33	58	50.22321	0.0321571	-0.0019007	1	0.0322132	-3.382611	0.0003079	3.430871	11	0.1589739	0.0051211	-327.67
	34	60	38.42213	0.0325398	-0.0018618	1	0.032593	-3.274699	0.0003051	3.430873	11	0.1589901	0.005182	-327.67
	35	61	31.25	0.032825	-0.001817	1	0.0328753	-3.168378	0.0003196	3.430873	11	0.1589943	0.005227	-327.67
	36	63	24.93351	0.0331223	-0.0017477	1	0.0331684	-3.020456	0.0002971	3.430877	11	0.1589992	0.0052738	-327.67
	37	65	19.86229	0.0333937	-0.001657	1	0.0334348	-2.840722	0.0002986	3.430875	11	0.1589937	0.0053159	-327.67
	38	66	15.625	0.0336628	-0.0015596	1	0.0336989	-2.652569	0.0002927	3.430888	11	0.1589812	0.0053575	-327.67
	39	67	12.40079	0.0339087	-0.0014436	1	0.0339394	-2.437738	0.0002913	3.43088	11	0.1590035	0.0053965	-327.67
	40	69	9.93114	0.034096	-0.0013306	1	0.034122	-2.234905	0.0002851	3.430877	11	0.1589888	0.005425	-327.67
	41	71	7.944915	0.034279	-0.0012296	1	0.034301	-2.054323	0.0003346	3.430887	11	0.1590143	0.0054544	-327.67
	42	72	6.317385	0.034419	-0.0011264	1	0.0344375	-1.874362	0.0002464	3.430872	11	0.1589886	0.0054752	-327.67
	43	75	5.008013	0.0345579	-0.0010399	1	0.0345735	-1.723563	0.0003545	3.430875	11	0.1589997	0.0054972	-327.67
	44	77	3.945707	0.034673	-0.0009606	1	0.0346863	-1.587021	0.000278	3.430898	11	0.1590027	0.0055152	-327.67
	45	80	3.158693	0.0347644	-0.0009051	1	0.0347762	-1.491405	0.0002888	3.430904	11	0.1590367	0.0055307	-327.67
	46	83	2.504006	0.0347196	-0.000779	1	0.0347284	-1.285357	0.000365	3.430872	11	0.1553743	0.0053959	-327.67
	47	86	1.998082	0.034845	-0.0008116	1	0.0348544	-1.334207	6.948458E-005	3.430835	11	0.1615014	0.005629	-327.67
	48	89	1.584686	0.0349537	-0.0008339	1	0.0349636	-1.366608	-5.921116E-006	3.430847	11	0.1599714	0.0055932	-327.67
	49	94	1.266892	0.0350571	-0.0008683	1	0.0350678	-1.418847	0.0005871	3.430885	11	0.1592684	0.0055852	-327.67
	50	99	0.999041	0.0351637	-0.0009225	1	0.0351758	-1.50284	0.0005619	3.430928	11	0.1590677	0.0055953	-327.67
	51	104	0.7923428	0.0352831	-0.0009808	1	0.0352967	-1.59235	0.0002729	3.430969	11	0.1591418	0.0056172	-327.67
	52	111	0.6334459	0.0353882	-0.0010615	1	0.0354041	-1.718053	0.0002764	3.430984	11	0.1589838	0.0056287	-327.67
	53	119	0.5040323	0.0355016	-0.0011616	1	0.0355206	-1.874092	0.000278	3.431004	11	0.1589828	0.0056472	-327.67
	54	129	0.400641	0.0356385	-0.0012803	1	0.0356615	-2.057523	0.0002845	3.431025	11	0.1589841	0.0056696	-327.67
	55	143	0.316723	0.0357907	-0.0014254	1	0.0358191	-2.280611	0.0002796	3.431059	11	0.1589907	0.0056949	-327.67
	56	160	0.2520161	0.0359506	-0.0015792	1	0.0359852	-2.515235	0.0002741	3.431098	11	0.1589948	0.0057215	-327.67
	57	182	0.2003205	0.0361223	-0.0017677	1	0.0361656	-2.801613	0.0002802	3.431147	11	0.158995	0.0057501	-327.67
	58	203	0.1588983	0.0363325	-0.0019788	1	0.0363864	-3.117456	0.0002798	3.431211	11	0.1589966	0.0057853	-327.67
	59	228	0.1260081	0.0365636	-0.0022118	1	0.0366305	-3.461643	0.000275	3.431375	11	0.1589997	0.0058242	-327.67
	60	258	0.1001603	0.0368231	-0.0024892	1	0.0369072	-3.867233	0.0002772	3.431629	11	0.1589977	0.0058682	-327.67
	61	305	0.0794492	0.0371195	-0.0028126	1	0.0372259	-4.333066	0.0002791	3.431929	11	0.1590014	0.005919	-327.67
	62	344	0.0631739	0.0373156	-0.0032105	1	0.0374534	-4.917471	0.0002789	3.431877	11	0.1589987	0.005955	-327.67
	63	409	0.0501337	0.0375968	-0.003677	1	0.0377762	-5.585809	0.0002801	3.431939	11	0.1589992	0.0060064	-327.67
	64	470	0.0398258	0.0379206	-0.0042374	1	0.0381566	-6.37604	0.000275	3.432053	11	0.1590008	0.0060669	-327.67
	65	572	0.0316296	0.038294	-0.0049069	1	0.0386071	-7.30203	0.0002785	3.432221	11	0.1589999	0.0061385	-327.67
	66	700	0.0251206	0.0387263	-0.0057086	1	0.0391448	-8.385585	0.0002793	3.432422	11	0.1590004	0.006224	-327.67
	67	861	0.0199553	0.0392543	-0.0066545	1	0.0398144	-9.62153	0.0002795	3.432677	11	0.1589984	0.0063304	-327.67
	68	1063	0.0158522	0.0399067	-0.0077867	1	0.0406593	-11.04094	0.00028	3.432934	11	0.1590014	0.0064649	-327.67
	69	1254	0.0125907	0.040712	-0.009099	1	0.0417164	-12.5984	0.0002768	3.433234	11	0.159	0.0066329	-327.67
	70	1573	0.0100011	0.0417435	-0.0105872	1	0.0430652	-14.23153	0.0002804	3.433619	11	0.1589997	0.0068473	-327.67
