EXPLAIN
TAG	GALVEIS
TITLE	LABEL	Galvanostatic EIS	Test Identifier
DATE	LABEL	8.2.2024	Date
TIME	LABEL	7:18:44	Time
NOTES	NOTES	1	Notes...
	
PSTAT	PSTAT	REF600-12055	Potentiostat
FREQINIT	QUANT	1.00000E+005	Initial Freq. (Hz)
FREQFINAL	QUANT	1.00000E-002	Final Freq. (Hz)
PTSPERDEC	QUANT	1.00000E+001	Points/decade
IACREQ	QUANT	1.59000E-001	AC Current (A rms)
IDCREQ	QUANT	0.00000E+000	DC Current (A)
AREA	QUANT	1.00000E+000	Sample Area (cm^2)
SPEED	SELECTOR	1	Optimize for:
DRIFTCOR	SELECTOR	0	Drift Correction
THD	SELECTOR	0	THD
ZGUESS	QUANT	1.00000E-001	Estimated Z (ohms)
EOC	QUANT	3.93564	Open Circuit (V)
SEQUENCER	TOGGLE	TRUE	Run as Sequence
PSTATMODEL	IQUANT	4	Pstat Model
PSTATSECTION	LABEL	REF600-12055	Pstat Section
PSTATSERIALNO	LABEL	12055	Pstat Serial Number
CTRLMODE	IQUANT	0	Control Mode
ELECTROMETER	IQUANT	0	RE=0 or CS=1
IESTAB	IQUANT	0	I/E Stability
CASPEED	IQUANT	4	Control Amp Speed
CONVENTION	IQUANT	1	Current Convention
ICHRANGE	IQUANT	2	Ich Range
ICHRANGEMODE	TOGGLE	F	Ich Auto Range
ICHOFFSETENABLE	TOGGLE	T	Ich Offset Enable
ICHOFFSET	QUANT	0	Ich Offset (V)
ICHFILTER	IQUANT	3	Ich Filter
VCHRANGE	IQUANT	2	Vch Range
VCHRANGEMODE	TOGGLE	F	Vch Auto Range
VCHOFFSETENABLE	TOGGLE	T	Vch Offset Enable
VCHOFFSET	QUANT	0	Vch Offset (V)
VCHFILTER	IQUANT	3	Vch Filter
ACHRANGE	IQUANT	2	Ach Range
ACHOFFSETENABLE	TOGGLE	F	Ach Offset Enable
ACHOFFSET	QUANT	0	Ach Offset (V)
ACHFILTER	IQUANT	1	Ach Filter
IERANGELOWERLIMIT	IQUANT	1	I/E Range Lower Limit
IERANGEMODE	TOGGLE	F	I/E AutoRange
IERANGE	IQUANT	7	I/E Range
POSFEEDENABLE	TOGGLE	F	Positive Feedback IR Comp
POSFEEDRESISTANCE	QUANT	0	Positive Feedback Resistance (ohm)
ACHSELECT	IQUANT	4	Ach Select
SENSECABLEID	IQUANT	14	Sense Cable ID
PWRCABLEID	IQUANT	14	Power Cable ID
DCCALDATE	LABEL		DC Calibration Date
ACCALDATE	LABEL		AC Calibration Date
THERMOSELECT	IQUANT	1	Thermo Select
FRAMEWORKVERSION	LABEL	7.10.3	Framework Version
INSTRUMENTVERSION	LABEL	4.91	Instrument Version
COMMVERSION	LABEL	2.24	Communications Version
CPUPLDVERSION	LABEL	0.00	CPU PLD Version
CTRLPLDVERSION	LABEL	0.00	CTRL PLD Version
PSTATPLDVERSION	LABEL	0.00	PSTAT PLD Version
ZCURVE	TABLE
	Pt	Time	Freq	Zreal	Zimag	Zsig	Zmod	Zphz	Idc	Vdc	IERange	Imod	Vmod	Temp
	#	s	Hz	ohm	ohm	V	ohm	°	A	V	#	A	V	°C
	0	5	100078.1	0.1062835	0.2371687	1	0.2598945	65.8612	0.0003653	3.93475	11	0.1596773	0.0412221	-327.67
	1	6	79453.13	0.0879468	0.1976783	1	0.2163593	66.01579	0.0003526	3.934751	11	0.1642439	0.0353729	-327.67
	2	8	63140.62	0.0737524	0.1640616	1	0.1798767	65.79414	0.0003293	3.934763	11	0.1619784	0.0290468	-327.67
	3	10	50203.12	0.0628928	0.1356583	1	0.1495281	65.12701	0.000332	3.934763	11	0.1609284	0.0240148	-327.67
	4	12	39890.62	0.0546485	0.1117522	1	0.1243986	63.94067	0.0003275	3.934768	11	0.1602777	0.0199123	-327.67
	5	13	31640.63	0.0483675	0.0917758	1	0.1037411	62.20998	0.0003128	3.93476	11	0.1598472	0.0165689	-327.67
	6	15	25171.88	0.0436232	0.0755599	1	0.0872484	60.00072	0.00031	3.934765	11	0.1595481	0.0139129	-327.67
	7	17	20015.62	0.0398704	0.0622147	1	0.0738939	57.34614	0.0003099	3.93473	11	0.1593615	0.0117718	-327.67
	8	18	15890.62	0.0367621	0.0512	1	0.0630309	54.3213	0.0003225	3.934744	11	0.1592273	0.0100341	-327.67
	9	20	12609.38	0.0341589	0.0420515	1	0.0541772	50.91265	0.0003223	3.934742	11	0.159138	0.0086205	-327.67
	10	22	10078.13	0.03208	0.0346105	1	0.0471912	47.173	0.0003169	3.934744	11	0.1590887	0.0075069	-327.67
	11	23	8015.625	0.0303641	0.0281644	1	0.0414151	42.84766	0.0003198	3.934754	11	0.1590502	0.0065867	-327.67
	12	25	6328.125	0.029038	0.0225466	1	0.0367635	37.8276	0.0003162	3.934747	11	0.1590402	0.0058467	-327.67
	13	26	5015.625	0.0281315	0.017928	1	0.0333586	32.50911	0.0003176	3.934748	11	0.1590098	0.0053042	-327.67
	14	28	3984.375	0.0275439	0.0141289	1	0.0309563	27.15601	0.0003208	3.934761	11	0.1590132	0.0049224	-327.67
	15	30	3170.956	0.0272099	0.0109978	1	0.0293484	22.00773	0.0003188	3.93476	11	0.1590041	0.0046665	-327.67
	16	31	2527.573	0.0270735	0.0084467	1	0.0283606	17.32754	0.0003044	3.934761	11	0.1590034	0.0045094	-327.67
	17	33	1976.103	0.027073	0.0061705	1	0.0277673	12.8396	0.0003107	3.934772	11	0.1590028	0.0044151	-327.67
	18	34	1577.524	0.0271828	0.0044637	1	0.0275468	9.325421	0.0003193	3.934776	11	0.1589964	0.0043798	-327.67
	19	36	1265.625	0.0273685	0.0031641	1	0.0275508	6.59473	0.0003162	3.934775	11	0.1590022	0.0043806	-327.67
	20	37	998.264	0.0276247	0.0019929	1	0.0276965	4.126211	0.0003205	3.934781	11	0.1589974	0.0044037	-327.67
	21	39	796.875	0.0279095	0.0011199	1	0.027932	2.297889	0.0003208	3.934778	11	0.1590048	0.0044413	-327.67
	22	40	627.7902	0.0282237	0.0004096	1	0.0282267	0.8313975	0.0003168	3.93478	11	0.1589974	0.004488	-327.67
	23	42	505.5147	0.0283965	0.0001077	1	0.0283967	0.217215	0.0003083	3.934696	11	0.157595	0.0044752	-327.67
	24	43	397.9953	0.0288099	-0.0004172	1	0.028813	-0.8295801	0.0003107	3.934695	11	0.1606096	0.0046276	-327.67
	25	45	315.5048	0.029204	-0.0007963	1	0.0292148	-1.561922	0.0003079	3.934694	11	0.1593348	0.0046549	-327.67
	26	47	252.4038	0.0295751	-0.0010529	1	0.0295938	-2.038872	0.0003129	3.934697	11	0.1589687	0.0047045	-327.67
	27	48	198.6229	0.0299552	-0.0012511	1	0.0299813	-2.391596	0.0003099	3.9347	11	0.1588783	0.0047634	-327.67
	28	49	158.3615	0.0302995	-0.0013688	1	0.0303304	-2.586567	0.0003084	3.9347	11	0.1588892	0.0048192	-327.67
	29	51	125.558	0.0306416	-0.0014405	1	0.0306755	-2.691481	0.0003067	3.934704	11	0.1589134	0.0048747	-327.67
	30	53	100.4464	0.0309541	-0.0014569	1	0.0309883	-2.69467	0.0003054	3.934705	11	0.158944	0.0049254	-327.67
	31	54	79.00281	0.0312722	-0.0014416	1	0.0313054	-2.639356	0.0003089	3.934711	11	0.1589555	0.0049762	-327.67
	32	56	63.3446	0.0315346	-0.0013886	1	0.0315652	-2.521355	0.0003015	3.934713	11	0.1589734	0.005018	-327.67
	33	58	50.22321	0.0317852	-0.0013157	1	0.0318124	-2.370281	0.0002925	3.93472	11	0.1589847	0.0050577	-327.67
	34	59	38.42213	0.0320402	-0.0011998	1	0.0320627	-2.144476	0.000312	3.934718	11	0.1589904	0.0050977	-327.67
	35	61	31.25	0.0322012	-0.0011073	1	0.0322202	-1.969509	0.0003014	3.93472	11	0.1589928	0.0051228	-327.67
	36	62	24.93351	0.0323559	-0.0009944	1	0.0323712	-1.760409	0.0003094	3.934723	11	0.1589922	0.0051468	-327.67
	37	64	19.86229	0.0324893	-0.0009026	1	0.0325018	-1.591402	0.0003002	3.934714	11	0.1589923	0.0051675	-327.67
	38	65	15.625	0.0325871	-0.0008047	1	0.032597	-1.414622	0.0003264	3.934718	11	0.1589861	0.0051825	-327.67
	39	67	12.40079	0.0326802	-0.0007449	1	0.0326887	-1.305798	0.0003163	3.934744	11	0.1590019	0.0051976	-327.67
	40	69	9.93114	0.0327566	-0.0006787	1	0.0327637	-1.18693	0.0003296	3.934746	11	0.1589967	0.0052093	-327.67
	41	70	7.944915	0.0328072	-0.0006351	1	0.0328133	-1.108956	0.0003233	3.934728	11	0.1589995	0.0052173	-327.67
	42	72	6.317385	0.0328619	-0.0006035	1	0.0328675	-1.05204	0.0002367	3.934715	11	0.1590088	0.0052262	-327.67
	43	74	5.008013	0.0329164	-0.0005953	1	0.0329218	-1.036167	0.000337	3.934736	11	0.1590016	0.0052346	-327.67
	44	77	3.945707	0.0329643	-0.0005959	1	0.0329697	-1.035547	0.0003408	3.93473	11	0.1589789	0.0052415	-327.67
	45	80	3.158693	0.033026	-0.0006223	1	0.0330319	-1.079435	0.0004073	3.934714	11	0.1589869	0.0052516	-327.67
	46	83	2.504006	0.0329574	-0.0005579	1	0.0329621	-0.969869	0.000302	3.93469	11	0.1554626	0.0051244	-327.67
	47	86	1.998082	0.0330407	-0.0006594	1	0.0330472	-1.143286	0.0005467	3.934724	11	0.1614406	0.0053352	-327.67
	48	91	1.584686	0.0331501	-0.0007483	1	0.0331585	-1.293182	0.0004368	3.934721	11	0.1598001	0.0052987	-327.67
	49	95	1.266892	0.0332389	-0.0008442	1	0.0332496	-1.454967	0.0001433	3.934775	11	0.1593344	0.0052978	-327.67
	50	102	0.999041	0.0333388	-0.0009573	1	0.0333526	-1.644687	0.0001071	3.934767	11	0.1591299	0.0053074	-327.67
	51	108	0.7923428	0.0334628	-0.0010785	1	0.0334802	-1.845941	0.0002807	3.934802	11	0.1592182	0.0053307	-327.67
	52	115	0.6334459	0.0335889	-0.0012217	1	0.0336111	-2.083049	0.0002733	3.934814	11	0.1589839	0.0053436	-327.67
	53	125	0.5040323	0.0337357	-0.0013854	1	0.0337641	-2.351605	0.0002815	3.934832	11	0.1589821	0.0053679	-327.67
	54	134	0.400641	0.0339048	-0.0015753	1	0.0339414	-2.660113	0.0002811	3.934842	11	0.1589859	0.0053962	-327.67
	55	148	0.316723	0.0341035	-0.0017859	1	0.0341502	-2.997636	0.0002802	3.934874	11	0.1589901	0.0054295	-327.67
	56	166	0.2520161	0.0343225	-0.0020033	1	0.0343809	-3.340434	0.0002771	3.934899	11	0.1589922	0.0054663	-327.67
	57	187	0.2003205	0.0345637	-0.0022501	1	0.0346368	-3.724639	0.0002781	3.934944	11	0.1589974	0.0055072	-327.67
	58	213	0.1588983	0.034866	-0.0025204	1	0.034957	-4.134672	0.0002767	3.934993	11	0.1589959	0.005558	-327.67
	59	239	0.1260081	0.0352019	-0.0027879	1	0.0353121	-4.528202	0.0002814	3.935139	11	0.1589995	0.0056146	-327.67
	60	269	0.1001603	0.0355794	-0.0031022	1	0.0357144	-4.983013	0.0002804	3.935356	11	0.1589983	0.0056785	-327.67
	61	315	0.0794492	0.0359913	-0.0034326	1	0.0361546	-5.447926	0.000281	3.93557	11	0.1590007	0.0057486	-327.67
	62	367	0.0631739	0.036304	-0.0038269	1	0.0365051	-6.017453	0.0002807	3.935478	11	0.1589993	0.0058043	-327.67
	63	432	0.0501337	0.0367154	-0.0042779	1	0.0369638	-6.645837	0.0002775	3.935494	11	0.1590009	0.0058773	-327.67
	64	513	0.0398258	0.0371878	-0.0047879	1	0.0374948	-7.336418	0.0002782	3.935561	11	0.1589967	0.0059615	-327.67
	65	590	0.0316296	0.0376943	-0.0053777	1	0.038076	-8.119354	0.0002806	3.935633	11	0.1590022	0.0060542	-327.67
	66	718	0.0251206	0.0382736	-0.0060794	1	0.0387535	-9.025455	0.0002821	3.935735	11	0.1589998	0.0061618	-327.67
	67	839	0.0199553	0.0388982	-0.0069067	1	0.0395067	-10.06842	0.0002787	3.935838	11	0.1589988	0.0062815	-327.67
	68	1041	0.0158522	0.0396416	-0.0078775	1	0.0404167	-11.23927	0.00028	3.935978	11	0.1590011	0.0064263	-327.67
	69	1295	0.0125907	0.0404868	-0.0090185	1	0.0414791	-12.5577	0.0002768	3.936144	11	0.1589998	0.0065952	-327.67
	70	1614	0.0100011	0.0415387	-0.0103025	1	0.0427973	-13.92946	0.0002788	3.936325	11	0.1590006	0.0068048	-327.67
