EXPLAIN
TAG	GALVEIS
TITLE	LABEL	Galvanostatic EIS	Test Identifier
DATE	LABEL	8.2.2024	Date
TIME	LABEL	4:37:48	Time
NOTES	NOTES	1	Notes...
	
PSTAT	PSTAT	REF600-12055	Potentiostat
FREQINIT	QUANT	1.00000E+005	Initial Freq. (Hz)
FREQFINAL	QUANT	1.00000E-002	Final Freq. (Hz)
PTSPERDEC	QUANT	1.00000E+001	Points/decade
IACREQ	QUANT	1.59000E-001	AC Current (A rms)
IDCREQ	QUANT	0.00000E+000	DC Current (A)
AREA	QUANT	1.00000E+000	Sample Area (cm^2)
SPEED	SELECTOR	1	Optimize for:
DRIFTCOR	SELECTOR	0	Drift Correction
THD	SELECTOR	0	THD
ZGUESS	QUANT	1.00000E-001	Estimated Z (ohms)
EOC	QUANT	4.088515	Open Circuit (V)
SEQUENCER	TOGGLE	TRUE	Run as Sequence
PSTATMODEL	IQUANT	4	Pstat Model
PSTATSECTION	LABEL	REF600-12055	Pstat Section
PSTATSERIALNO	LABEL	12055	Pstat Serial Number
CTRLMODE	IQUANT	0	Control Mode
ELECTROMETER	IQUANT	0	RE=0 or CS=1
IESTAB	IQUANT	0	I/E Stability
CASPEED	IQUANT	4	Control Amp Speed
CONVENTION	IQUANT	1	Current Convention
ICHRANGE	IQUANT	2	Ich Range
ICHRANGEMODE	TOGGLE	F	Ich Auto Range
ICHOFFSETENABLE	TOGGLE	T	Ich Offset Enable
ICHOFFSET	QUANT	0	Ich Offset (V)
ICHFILTER	IQUANT	3	Ich Filter
VCHRANGE	IQUANT	2	Vch Range
VCHRANGEMODE	TOGGLE	F	Vch Auto Range
VCHOFFSETENABLE	TOGGLE	T	Vch Offset Enable
VCHOFFSET	QUANT	0	Vch Offset (V)
VCHFILTER	IQUANT	3	Vch Filter
ACHRANGE	IQUANT	2	Ach Range
ACHOFFSETENABLE	TOGGLE	F	Ach Offset Enable
ACHOFFSET	QUANT	0	Ach Offset (V)
ACHFILTER	IQUANT	1	Ach Filter
IERANGELOWERLIMIT	IQUANT	1	I/E Range Lower Limit
IERANGEMODE	TOGGLE	F	I/E AutoRange
IERANGE	IQUANT	7	I/E Range
POSFEEDENABLE	TOGGLE	F	Positive Feedback IR Comp
POSFEEDRESISTANCE	QUANT	0	Positive Feedback Resistance (ohm)
ACHSELECT	IQUANT	4	Ach Select
SENSECABLEID	IQUANT	14	Sense Cable ID
PWRCABLEID	IQUANT	14	Power Cable ID
DCCALDATE	LABEL		DC Calibration Date
ACCALDATE	LABEL		AC Calibration Date
THERMOSELECT	IQUANT	1	Thermo Select
FRAMEWORKVERSION	LABEL	7.10.3	Framework Version
INSTRUMENTVERSION	LABEL	4.91	Instrument Version
COMMVERSION	LABEL	2.24	Communications Version
CPUPLDVERSION	LABEL	0.00	CPU PLD Version
CTRLPLDVERSION	LABEL	0.00	CTRL PLD Version
PSTATPLDVERSION	LABEL	0.00	PSTAT PLD Version
ZCURVE	TABLE
	Pt	Time	Freq	Zreal	Zimag	Zsig	Zmod	Zphz	Idc	Vdc	IERange	Imod	Vmod	Temp
	#	s	Hz	ohm	ohm	V	ohm	°	A	V	#	A	V	°C
	0	5	100078.1	0.1062976	0.2371692	1	0.2599008	65.85841	0.0003713	4.087728	11	0.159676	0.0412228	-327.67
	1	6	79453.13	0.08794	0.1976779	1	0.2163562	66.01738	0.0003522	4.087745	11	0.1642545	0.0353747	-327.67
	2	8	63140.62	0.073748	0.1640775	1	0.1798894	65.79749	0.0003438	4.087743	11	0.1619745	0.0290482	-327.67
	3	10	50203.12	0.062874	0.1356583	1	0.1495203	65.13355	0.0003347	4.087744	11	0.1609332	0.0240143	-327.67
	4	12	39890.62	0.0546268	0.1117535	1	0.1243902	63.94994	0.0003192	4.087749	11	0.1602765	0.0199108	-327.67
	5	13	31640.63	0.0483418	0.0917601	1	0.1037152	62.21845	0.0003281	4.087739	11	0.1598535	0.0165654	-327.67
	6	15	25171.88	0.0435942	0.0755344	1	0.0872118	60.00887	0.0003261	4.087754	11	0.1595505	0.0139073	-327.67
	7	17	20015.62	0.039854	0.0621953	1	0.0738688	57.34872	0.0003261	4.08771	11	0.1593566	0.0117675	-327.67
	8	18	15890.62	0.0367446	0.051162	1	0.0629898	54.31404	0.0003252	4.087719	11	0.1592316	0.0100278	-327.67
	9	20	12609.38	0.0341503	0.0420154	1	0.0541437	50.8957	0.0003244	4.087724	11	0.1591436	0.0086154	-327.67
	10	22	10078.13	0.0320701	0.0345719	1	0.0471562	47.14988	0.0003198	4.087716	11	0.1590886	0.0075014	-327.67
	11	24	8015.625	0.0303628	0.028133	1	0.0413928	42.81704	0.0003186	4.087721	11	0.1590521	0.0065832	-327.67
	12	25	6328.125	0.0290501	0.0225069	1	0.0367487	37.76718	0.0003186	4.087727	11	0.1590327	0.005844	-327.67
	13	27	5015.625	0.0281464	0.0178793	1	0.033345	32.42468	0.0003088	4.087726	11	0.1590165	0.0053023	-327.67
	14	28	3984.375	0.0275697	0.0140756	1	0.0309549	27.04637	0.0003209	4.087731	11	0.1590054	0.0049219	-327.67
	15	30	3170.956	0.027235	0.0109282	1	0.0293458	21.86348	0.0003176	4.087722	11	0.1590053	0.0046661	-327.67
	16	31	2527.573	0.0271043	0.0083373	1	0.0283576	17.09785	0.0003205	4.087723	11	0.1590058	0.004509	-327.67
	17	33	1976.103	0.0271385	0.0061281	1	0.0278218	12.72439	0.0003187	4.087737	11	0.1590062	0.0044238	-327.67
	18	35	1577.524	0.0272444	0.0043936	1	0.0275964	9.160947	0.0003212	4.087729	11	0.1589949	0.0043877	-327.67
	19	36	1265.625	0.0274352	0.0030564	1	0.027605	6.356773	0.0003225	4.087743	11	0.1590014	0.0043892	-327.67
	20	38	998.264	0.0277079	0.0019727	1	0.027778	4.072425	0.0003187	4.087736	11	0.159005	0.0044168	-327.67
	21	39	796.875	0.0279683	0.0010901	1	0.0279895	2.232107	0.000319	4.087739	11	0.1590007	0.0044504	-327.67
	22	41	627.7902	0.0283086	0.0003089	1	0.0283103	0.625093	0.0003235	4.087744	11	0.158991	0.0045011	-327.67
	23	42	505.5147	0.0284882	1.753374E-005	1	0.0284882	0.0352641	0.0003101	4.087659	11	0.1576036	0.0044898	-327.67
	24	44	397.9953	0.0289167	-0.0005164	1	0.0289213	-1.022994	0.000311	4.087662	11	0.1606033	0.0046449	-327.67
	25	45	315.5048	0.0293177	-0.0009059	1	0.0293317	-1.769928	0.0003108	4.087664	11	0.1593376	0.0046736	-327.67
	26	47	252.4038	0.029684	-0.0011849	1	0.0297076	-2.28593	0.0003122	4.087665	11	0.1589698	0.0047226	-327.67
	27	48	198.6229	0.0300722	-0.0014055	1	0.030105	-2.67583	0.000309	4.087666	11	0.1588785	0.004783	-327.67
	28	50	158.3615	0.0304351	-0.0015613	1	0.0304751	-2.936679	0.0002977	4.087668	11	0.1588828	0.004842	-327.67
	29	51	125.558	0.0307886	-0.0016754	1	0.0308341	-3.114747	0.0002978	4.087671	11	0.1589203	0.0049002	-327.67
	30	53	100.4464	0.0311253	-0.0017478	1	0.0311743	-3.214035	0.0003123	4.087674	11	0.1589376	0.0049548	-327.67
	31	55	79.00281	0.0314863	-0.0017847	1	0.0315369	-3.244209	0.0003102	4.087673	11	0.1589543	0.0050129	-327.67
	32	56	63.3446	0.031807	-0.0017983	1	0.0318578	-3.235872	0.0003101	4.087678	11	0.1589821	0.0050648	-327.67
	33	58	50.22321	0.0321331	-0.0017766	1	0.0321822	-3.164541	0.0003084	4.087682	11	0.1589756	0.0051162	-327.67
	34	59	38.42213	0.0324949	-0.0017213	1	0.0325404	-3.032272	0.0003118	4.087686	11	0.1589898	0.0051736	-327.67
	35	61	31.25	0.032758	-0.0016652	1	0.0328003	-2.91	0.0003254	4.087684	11	0.158992	0.005215	-327.67
	36	62	24.93351	0.0330274	-0.0015919	1	0.0330657	-2.759476	0.0003076	4.087688	11	0.159	0.0052574	-327.67
	37	64	19.86229	0.0332748	-0.001495	1	0.0333084	-2.572541	0.0003402	4.087682	11	0.1589733	0.0052951	-327.67
	38	66	15.625	0.0335179	-0.0013902	1	0.0335467	-2.375127	0.0002958	4.087696	11	0.1590123	0.0053343	-327.67
	39	67	12.40079	0.0337062	-0.0012743	1	0.0337303	-2.165162	0.0003227	4.087699	11	0.1589921	0.0053628	-327.67
	40	69	9.93114	0.0338673	-0.0011633	1	0.0338872	-1.96731	0.0002788	4.087684	11	0.1589861	0.0053876	-327.67
	41	70	7.944915	0.0339958	-0.0010828	1	0.0340131	-1.824304	0.000318	4.087703	11	0.1590001	0.0054081	-327.67
	42	72	6.317385	0.0341238	-0.0009944	1	0.0341383	-1.669181	0.0003034	4.08768	11	0.1589779	0.0054272	-327.67
	43	74	5.008013	0.0342335	-0.0009332	1	0.0342463	-1.561514	0.000365	4.087679	11	0.1590166	0.0054457	-327.67
	44	77	3.945707	0.0343287	-0.0008756	1	0.0343398	-1.461063	0.0003163	4.087685	11	0.1590266	0.0054609	-327.67
	45	80	3.158693	0.0344069	-0.0008581	1	0.0344176	-1.428682	0.0004018	4.087677	11	0.15896	0.005471	-327.67
	46	83	2.504006	0.0343627	-0.0007564	1	0.034371	-1.260969	0.0003468	4.087638	11	0.1554575	0.0053432	-327.67
	47	86	1.998082	0.0344905	-0.0008137	1	0.0345001	-1.35143	0.0003962	4.087649	11	0.1613453	0.0055664	-327.67
	48	89	1.584686	0.034604	-0.0008787	1	0.0346152	-1.454531	0.0002004	4.087646	11	0.1599073	0.0055352	-327.67
	49	93	1.266892	0.0347068	-0.0009401	1	0.0347195	-1.551663	0.0003522	4.087714	11	0.1592762	0.00553	-327.67
	50	100	0.999041	0.0348342	-0.0010212	1	0.0348491	-1.679131	0.0002859	4.087719	11	0.1590848	0.005544	-327.67
	51	105	0.7923428	0.034966	-0.0011094	1	0.0349836	-1.817258	0.000284	4.087737	11	0.1593249	0.0055738	-327.67
	52	112	0.6334459	0.0350961	-0.0012224	1	0.0351174	-1.994825	0.0002772	4.087739	11	0.158984	0.0055831	-327.67
	53	121	0.5040323	0.0352615	-0.0013476	1	0.0352873	-2.188596	0.0002827	4.087749	11	0.1589815	0.00561	-327.67
	54	133	0.400641	0.0354341	-0.0014951	1	0.0354656	-2.416035	0.0002789	4.087763	11	0.1589871	0.0056386	-327.67
	55	144	0.316723	0.0356464	-0.0016596	1	0.035685	-2.665646	0.0002807	4.087775	11	0.1589898	0.0056736	-327.67
	56	161	0.2520161	0.0358692	-0.0018236	1	0.0359155	-2.910486	0.0002822	4.087792	11	0.1589931	0.0057103	-327.67
	57	183	0.2003205	0.0361209	-0.0019969	1	0.0361761	-3.164241	0.0002821	4.087823	11	0.1589961	0.0057519	-327.67
	58	204	0.1588983	0.0363944	-0.0021945	1	0.0364605	-3.450646	0.0002825	4.087847	11	0.1589969	0.0057971	-327.67
	59	236	0.1260081	0.03672	-0.0023913	1	0.0367977	-3.725934	0.0002829	4.087953	11	0.1589987	0.0058508	-327.67
	60	266	0.1001603	0.0370721	-0.0025972	1	0.0371629	-4.007512	0.0002817	4.088087	11	0.1589995	0.0059089	-327.67
	61	312	0.0794492	0.0374313	-0.0028389	1	0.0375388	-4.337128	0.0002827	4.088212	11	0.1589991	0.0059686	-327.67
	62	364	0.0631739	0.0377356	-0.0031177	1	0.0378642	-4.723072	0.0002772	4.088147	11	0.158997	0.0060203	-327.67
	63	413	0.0501337	0.0381098	-0.0034371	1	0.0382645	-5.153566	0.0002816	4.088156	11	0.1590015	0.0060841	-327.67
	64	495	0.0398258	0.0385169	-0.0037938	1	0.0387033	-5.625345	0.0002799	4.088194	11	0.1589994	0.0061538	-327.67
	65	597	0.0316296	0.0389653	-0.0042054	1	0.0391916	-6.159913	0.0002827	4.088259	11	0.1590005	0.0062315	-327.67
	66	693	0.0251206	0.0394383	-0.0046934	1	0.0397165	-6.786665	0.000284	4.088318	11	0.159001	0.006315	-327.67
	67	854	0.0199553	0.0399759	-0.0052554	1	0.0403199	-7.48943	0.0002806	4.088402	11	0.1589994	0.0064108	-327.67
	68	1056	0.0158522	0.0405875	-0.0059086	1	0.0410153	-8.28275	0.000279	4.088495	11	0.1589997	0.0065214	-327.67
	69	1247	0.0125907	0.0412923	-0.006649	1	0.0418242	-9.147453	0.0002814	4.088593	11	0.1590007	0.0066501	-327.67
	70	1566	0.0100011	0.0421682	-0.0074788	1	0.0428262	-10.05717	0.0002813	4.088696	11	0.1590002	0.0068094	-327.67
