EXPLAIN
TAG	GALVEIS
TITLE	LABEL	Galvanostatic EIS	Test Identifier
DATE	LABEL	7.2.2024	Date
TIME	LABEL	18:04:27	Time
NOTES	NOTES	1	Notes...
	
PSTAT	PSTAT	REF600-12055	Potentiostat
FREQINIT	QUANT	1.00000E+005	Initial Freq. (Hz)
FREQFINAL	QUANT	1.00000E-002	Final Freq. (Hz)
PTSPERDEC	QUANT	1.00000E+001	Points/decade
IACREQ	QUANT	1.59000E-001	AC Current (A rms)
IDCREQ	QUANT	0.00000E+000	DC Current (A)
AREA	QUANT	1.00000E+000	Sample Area (cm^2)
SPEED	SELECTOR	1	Optimize for:
DRIFTCOR	SELECTOR	0	Drift Correction
THD	SELECTOR	0	THD
ZGUESS	QUANT	1.00000E-001	Estimated Z (ohms)
EOC	QUANT	3.573213	Open Circuit (V)
SEQUENCER	TOGGLE	TRUE	Run as Sequence
PSTATMODEL	IQUANT	4	Pstat Model
PSTATSECTION	LABEL	REF600-12055	Pstat Section
PSTATSERIALNO	LABEL	12055	Pstat Serial Number
CTRLMODE	IQUANT	0	Control Mode
ELECTROMETER	IQUANT	0	RE=0 or CS=1
IESTAB	IQUANT	0	I/E Stability
CASPEED	IQUANT	4	Control Amp Speed
CONVENTION	IQUANT	1	Current Convention
ICHRANGE	IQUANT	2	Ich Range
ICHRANGEMODE	TOGGLE	F	Ich Auto Range
ICHOFFSETENABLE	TOGGLE	T	Ich Offset Enable
ICHOFFSET	QUANT	0	Ich Offset (V)
ICHFILTER	IQUANT	3	Ich Filter
VCHRANGE	IQUANT	2	Vch Range
VCHRANGEMODE	TOGGLE	F	Vch Auto Range
VCHOFFSETENABLE	TOGGLE	T	Vch Offset Enable
VCHOFFSET	QUANT	0	Vch Offset (V)
VCHFILTER	IQUANT	3	Vch Filter
ACHRANGE	IQUANT	2	Ach Range
ACHOFFSETENABLE	TOGGLE	F	Ach Offset Enable
ACHOFFSET	QUANT	0	Ach Offset (V)
ACHFILTER	IQUANT	1	Ach Filter
IERANGELOWERLIMIT	IQUANT	1	I/E Range Lower Limit
IERANGEMODE	TOGGLE	F	I/E AutoRange
IERANGE	IQUANT	7	I/E Range
POSFEEDENABLE	TOGGLE	F	Positive Feedback IR Comp
POSFEEDRESISTANCE	QUANT	0	Positive Feedback Resistance (ohm)
ACHSELECT	IQUANT	4	Ach Select
SENSECABLEID	IQUANT	14	Sense Cable ID
PWRCABLEID	IQUANT	14	Power Cable ID
DCCALDATE	LABEL		DC Calibration Date
ACCALDATE	LABEL		AC Calibration Date
THERMOSELECT	IQUANT	1	Thermo Select
FRAMEWORKVERSION	LABEL	7.10.3	Framework Version
INSTRUMENTVERSION	LABEL	4.91	Instrument Version
COMMVERSION	LABEL	2.24	Communications Version
CPUPLDVERSION	LABEL	0.00	CPU PLD Version
CTRLPLDVERSION	LABEL	0.00	CTRL PLD Version
PSTATPLDVERSION	LABEL	0.00	PSTAT PLD Version
ZCURVE	TABLE
	Pt	Time	Freq	Zreal	Zimag	Zsig	Zmod	Zphz	Idc	Vdc	IERange	Imod	Vmod	Temp
	#	s	Hz	ohm	ohm	V	ohm	°	A	V	#	A	V	°C
	0	5	100078.1	0.1060996	0.2380276	1	0.2606036	65.97532	0.000369	3.572453	11	0.1596848	0.0413365	-327.67
	1	6	79453.13	0.0877807	0.1982971	1	0.2168576	66.12233	0.0003534	3.572448	11	0.1642473	0.0354551	-327.67
	2	8	63140.62	0.0736364	0.1645205	1	0.1802479	65.88757	0.0003393	3.57244	11	0.1619776	0.0291066	-327.67
	3	10	50203.12	0.0628101	0.1359798	1	0.1497852	65.20744	0.0003366	3.572441	11	0.1609381	0.0240576	-327.67
	4	11	39890.62	0.0545809	0.1119968	1	0.1245888	64.018	0.0003321	3.572424	11	0.1602755	0.0199425	-327.67
	5	13	31640.63	0.0483252	0.0919485	1	0.1038742	62.27502	0.0003245	3.572423	11	0.1598528	0.0165907	-327.67
	6	15	25171.88	0.0435925	0.0756837	1	0.0873403	60.05877	0.0003231	3.572422	11	0.1595507	0.0139278	-327.67
	7	17	20015.62	0.0398527	0.0623078	1	0.0739628	57.39664	0.0003261	3.572376	11	0.1593584	0.0117826	-327.67
	8	18	15890.62	0.0367581	0.0512506	1	0.0630697	54.35104	0.0003195	3.572376	11	0.159233	0.0100406	-327.67
	9	20	12609.38	0.0341689	0.0420872	1	0.0542112	50.92823	0.0003193	3.572363	11	0.1591416	0.0086261	-327.67
	10	22	10078.13	0.0320921	0.0346222	1	0.0472081	47.17188	0.0003221	3.572366	11	0.159087	0.0075095	-327.67
	11	23	8015.625	0.0303861	0.0281654	1	0.0414319	42.82791	0.000324	3.572361	11	0.1590516	0.0065895	-327.67
	12	25	6328.125	0.029071	0.0225506	1	0.036792	37.80092	0.000318	3.572346	11	0.1590347	0.005851	-327.67
	13	26	5015.625	0.0281596	0.0179167	1	0.0333762	32.46672	0.0003121	3.572344	11	0.1590167	0.0053073	-327.67
	14	28	3984.375	0.0275791	0.014101	1	0.0309749	27.08033	0.0003104	3.572344	11	0.1590059	0.0049251	-327.67
	15	29	3170.956	0.0272512	0.0109365	1	0.0293639	21.86662	0.0003176	3.57233	11	0.1590045	0.0046689	-327.67
	16	31	2527.573	0.0271047	0.0083775	1	0.0283698	17.17538	0.0003171	3.572331	11	0.1590076	0.004511	-327.67
	17	33	1976.103	0.0271276	0.0060817	1	0.027801	12.63608	0.0003249	3.57233	11	0.1590024	0.0044204	-327.67
	18	34	1577.524	0.0272394	0.0043827	1	0.0275897	9.14026	0.0003206	3.572316	11	0.1589967	0.0043867	-327.67
	19	36	1265.625	0.0274264	0.0030495	1	0.0275954	6.344635	0.0003185	3.57232	11	0.1590027	0.0043877	-327.67
	20	38	998.264	0.0276906	0.0019613	1	0.02776	4.051432	0.0003134	3.572311	11	0.1590051	0.004414	-327.67
	21	39	796.875	0.0280031	0.0010498	1	0.0280228	2.146886	0.0003176	3.572308	11	0.1590057	0.0044558	-327.67
	22	41	627.7902	0.0283436	0.0002105	1	0.0283444	0.4254411	0.000315	3.572303	11	0.1589894	0.0045064	-327.67
	23	42	505.5147	0.0285137	-6.845017E-005	1	0.0285138	-0.1375442	0.0003096	3.572216	11	0.1575986	0.0044937	-327.67
	24	44	397.9953	0.0289632	-0.000622	1	0.0289699	-1.230322	0.0003062	3.572208	11	0.1606046	0.0046527	-327.67
	25	45	315.5048	0.0293911	-0.0010247	1	0.0294089	-1.996743	0.00031	3.572208	11	0.1593365	0.0046859	-327.67
	26	47	252.4038	0.0297933	-0.0013106	1	0.0298221	-2.518831	0.0003082	3.572205	11	0.15897	0.0047408	-327.67
	27	48	198.6229	0.030212	-0.0015382	1	0.0302511	-2.914696	0.0003083	3.572199	11	0.1588787	0.0048063	-327.67
	28	50	158.3615	0.0306058	-0.0016822	1	0.030652	-3.145977	0.000307	3.572192	11	0.1588909	0.0048703	-327.67
	29	51	125.558	0.0309956	-0.001783	1	0.0310468	-3.292328	0.000304	3.572194	11	0.1589076	0.0049336	-327.67
	30	53	100.4464	0.0313585	-0.0018223	1	0.0314114	-3.325763	0.0003144	3.572191	11	0.158948	0.0049928	-327.67
	31	55	79.00281	0.0317417	-0.0018303	1	0.0317944	-3.300141	0.0003102	3.572186	11	0.1589552	0.0050539	-327.67
	32	56	63.3446	0.0320763	-0.0018054	1	0.032127	-3.221432	0.0003106	3.572186	11	0.158974	0.0051074	-327.67
	33	58	50.22321	0.0324069	-0.0017386	1	0.0324535	-3.07098	0.0003126	3.572182	11	0.1589836	0.0051596	-327.67
	34	60	38.42213	0.0327598	-0.0016285	1	0.0328002	-2.845796	0.0003001	3.572176	11	0.1589838	0.0052147	-327.67
	35	61	31.25	0.033004	-0.001527	1	0.0330394	-2.649018	0.0003112	3.572171	11	0.1590027	0.0052533	-327.67
	36	63	24.93351	0.0332422	-0.001401	1	0.0332717	-2.413328	0.000308	3.572174	11	0.1589869	0.0052898	-327.67
	37	64	19.86229	0.0334406	-0.0012736	1	0.0334649	-2.181082	0.0003021	3.572157	11	0.1589958	0.0053208	-327.67
	38	66	15.625	0.0336153	-0.0011327	1	0.0336344	-1.929923	0.0002975	3.57216	11	0.1589869	0.0053474	-327.67
	39	67	12.40079	0.0337607	-0.0010022	1	0.0337755	-1.700362	0.0003019	3.57215	11	0.1590059	0.0053705	-327.67
	40	69	9.93114	0.0338691	-0.0009046	1	0.0338812	-1.529945	0.0003074	3.572147	11	0.1590025	0.0053872	-327.67
	41	70	7.944915	0.0339599	-0.0008149	1	0.0339697	-1.374525	0.0003081	3.572148	11	0.1589793	0.0054005	-327.67
	42	72	6.317385	0.0340351	-0.0007429	1	0.0340432	-1.250391	0.0003404	3.57213	11	0.1589846	0.0054123	-327.67
	43	75	5.008013	0.0341058	-0.0006813	1	0.0341126	-1.144378	0.0003332	3.572113	11	0.1590333	0.005425	-327.67
	44	77	3.945707	0.0341699	-0.0006424	1	0.0341759	-1.077079	0.0002723	3.572118	11	0.1589767	0.0054332	-327.67
	45	80	3.158693	0.0342308	-0.0006146	1	0.0342364	-1.028561	0.0002315	3.572119	11	0.1590154	0.0054441	-327.67
	46	83	2.504006	0.0341454	-0.0005128	1	0.0341492	-0.8603578	0.0003448	3.57209	11	0.1554236	0.0053076	-327.67
	47	86	1.998082	0.034235	-0.000573	1	0.0342397	-0.958952	4.211057E-005	3.57205	11	0.16151	0.0055301	-327.67
	48	91	1.584686	0.0343267	-0.0006259	1	0.0343325	-1.044618	0.0001021	3.572037	11	0.1598064	0.0054865	-327.67
	49	96	1.266892	0.0344122	-0.0006668	1	0.0344186	-1.11011	0.0005436	3.572013	11	0.1593487	0.0054846	-327.67
	50	101	0.999041	0.0344888	-0.0007375	1	0.0344966	-1.224961	0.0005569	3.572025	11	0.1591111	0.0054888	-327.67
	51	105	0.7923428	0.034611	-0.0008109	1	0.0346205	-1.342057	0.0002788	3.572066	11	0.1591654	0.0055104	-327.67
	52	112	0.6334459	0.034693	-0.0008886	1	0.0347043	-1.467227	0.0002796	3.572039	11	0.1589827	0.0055174	-327.67
	53	120	0.5040323	0.0347959	-0.0009985	1	0.0348102	-1.643776	0.0002784	3.572015	11	0.1589812	0.0055342	-327.67
	54	131	0.400641	0.0349234	-0.0011161	1	0.0349413	-1.830494	0.0002805	3.571986	11	0.1589872	0.0055552	-327.67
	55	143	0.316723	0.0350662	-0.0012654	1	0.035089	-2.066616	0.000282	3.571957	11	0.15899	0.0055788	-327.67
	56	160	0.2520161	0.0352228	-0.0014219	1	0.0352514	-2.311725	0.0002816	3.571923	11	0.1589938	0.0056048	-327.67
	57	177	0.2003205	0.0353966	-0.0015997	1	0.0354327	-2.587644	0.0002793	3.571872	11	0.1589958	0.0056336	-327.67
	58	204	0.1588983	0.0356137	-0.0017916	1	0.0356588	-2.879971	0.0002807	3.571831	11	0.1589975	0.0056697	-327.67
	59	229	0.1260081	0.0358617	-0.0020013	1	0.0359175	-3.194177	0.0002794	3.571856	11	0.1589984	0.0057108	-327.67
	60	259	0.1001603	0.0361365	-0.0022367	1	0.0362056	-3.541786	0.0002793	3.571924	11	0.1589994	0.0057567	-327.67
	61	306	0.0794492	0.0364458	-0.0025051	1	0.0365318	-3.932042	0.0002778	3.571979	11	0.1589997	0.0058085	-327.67
	62	357	0.0631739	0.0366891	-0.0028146	1	0.0367969	-4.386909	0.0002806	3.571781	11	0.1589991	0.0058507	-327.67
	63	406	0.0501337	0.0369949	-0.0031797	1	0.0371313	-4.912465	0.0002845	3.571655	11	0.1589999	0.0059039	-327.67
	64	468	0.0398258	0.0373404	-0.0036082	1	0.0375143	-5.519365	0.0002802	3.571515	11	0.1590002	0.0059648	-327.67
	65	570	0.0316296	0.0377245	-0.0041143	1	0.0379482	-6.224175	0.0002795	3.571379	11	0.1590001	0.0060338	-327.67
	66	666	0.0251206	0.0381695	-0.0047324	1	0.0384618	-7.067719	0.0002793	3.571231	11	0.1589996	0.0061154	-327.67
	67	787	0.0199553	0.0386661	-0.0054638	1	0.0390503	-8.043053	0.0002791	3.571082	11	0.1589999	0.006209	-327.67
	68	939	0.0158522	0.0392772	-0.0063505	1	0.0397873	-9.184369	0.0002778	3.570915	11	0.1590016	0.0063262	-327.67
	69	1130	0.0125907	0.0400187	-0.0073684	1	0.0406914	-10.43275	0.00028	3.570733	11	0.1589992	0.0064699	-327.67
	70	1370	0.0100011	0.0409457	-0.0085347	1	0.0418257	-11.77419	0.000281	3.570504	11	0.1589994	0.0066503	-327.67
