EXPLAIN
TAG	GALVEIS
TITLE	LABEL	Galvanostatic EIS	Test Identifier
DATE	LABEL	7.2.2024	Date
TIME	LABEL	21:04:49	Time
NOTES	NOTES	1	Notes...
	
PSTAT	PSTAT	REF600-12055	Potentiostat
FREQINIT	QUANT	1.00000E+005	Initial Freq. (Hz)
FREQFINAL	QUANT	1.00000E-002	Final Freq. (Hz)
PTSPERDEC	QUANT	1.00000E+001	Points/decade
IACREQ	QUANT	1.59000E-001	AC Current (A rms)
IDCREQ	QUANT	0.00000E+000	DC Current (A)
AREA	QUANT	1.00000E+000	Sample Area (cm^2)
SPEED	SELECTOR	1	Optimize for:
DRIFTCOR	SELECTOR	0	Drift Correction
THD	SELECTOR	0	THD
ZGUESS	QUANT	1.00000E-001	Estimated Z (ohms)
EOC	QUANT	3.719113	Open Circuit (V)
SEQUENCER	TOGGLE	TRUE	Run as Sequence
PSTATMODEL	IQUANT	4	Pstat Model
PSTATSECTION	LABEL	REF600-12055	Pstat Section
PSTATSERIALNO	LABEL	12055	Pstat Serial Number
CTRLMODE	IQUANT	0	Control Mode
ELECTROMETER	IQUANT	0	RE=0 or CS=1
IESTAB	IQUANT	0	I/E Stability
CASPEED	IQUANT	4	Control Amp Speed
CONVENTION	IQUANT	1	Current Convention
ICHRANGE	IQUANT	2	Ich Range
ICHRANGEMODE	TOGGLE	F	Ich Auto Range
ICHOFFSETENABLE	TOGGLE	T	Ich Offset Enable
ICHOFFSET	QUANT	0	Ich Offset (V)
ICHFILTER	IQUANT	3	Ich Filter
VCHRANGE	IQUANT	2	Vch Range
VCHRANGEMODE	TOGGLE	F	Vch Auto Range
VCHOFFSETENABLE	TOGGLE	T	Vch Offset Enable
VCHOFFSET	QUANT	0	Vch Offset (V)
VCHFILTER	IQUANT	3	Vch Filter
ACHRANGE	IQUANT	2	Ach Range
ACHOFFSETENABLE	TOGGLE	F	Ach Offset Enable
ACHOFFSET	QUANT	0	Ach Offset (V)
ACHFILTER	IQUANT	1	Ach Filter
IERANGELOWERLIMIT	IQUANT	1	I/E Range Lower Limit
IERANGEMODE	TOGGLE	F	I/E AutoRange
IERANGE	IQUANT	7	I/E Range
POSFEEDENABLE	TOGGLE	F	Positive Feedback IR Comp
POSFEEDRESISTANCE	QUANT	0	Positive Feedback Resistance (ohm)
ACHSELECT	IQUANT	4	Ach Select
SENSECABLEID	IQUANT	14	Sense Cable ID
PWRCABLEID	IQUANT	14	Power Cable ID
DCCALDATE	LABEL		DC Calibration Date
ACCALDATE	LABEL		AC Calibration Date
THERMOSELECT	IQUANT	1	Thermo Select
FRAMEWORKVERSION	LABEL	7.10.3	Framework Version
INSTRUMENTVERSION	LABEL	4.91	Instrument Version
COMMVERSION	LABEL	2.24	Communications Version
CPUPLDVERSION	LABEL	0.00	CPU PLD Version
CTRLPLDVERSION	LABEL	0.00	CTRL PLD Version
PSTATPLDVERSION	LABEL	0.00	PSTAT PLD Version
ZCURVE	TABLE
	Pt	Time	Freq	Zreal	Zimag	Zsig	Zmod	Zphz	Idc	Vdc	IERange	Imod	Vmod	Temp
	#	s	Hz	ohm	ohm	V	ohm	°	A	V	#	A	V	°C
	0	5	100078.1	0.1063259	0.2375768	1	0.2602843	65.88943	0.000367	3.71815	11	0.1596511	0.0412771	-327.67
	1	7	79453.13	0.087935	0.1979874	1	0.216637	66.05186	0.0003512	3.718146	11	0.1642883	0.0354279	-327.67
	2	9	63140.62	0.073717	0.1643061	1	0.1800852	65.83631	0.0003429	3.718137	11	0.1619819	0.0290811	-327.67
	3	10	50203.12	0.0628341	0.1358305	1	0.1496598	65.17513	0.0003344	3.718136	11	0.1609359	0.0240371	-327.67
	4	12	39890.62	0.054572	0.1118892	1	0.1244881	63.99998	0.0003309	3.718135	11	0.1602817	0.0199271	-327.67
	5	14	31640.63	0.048292	0.0918736	1	0.1037925	62.27198	0.0003273	3.718124	11	0.1598546	0.0165779	-327.67
	6	15	25171.88	0.0435412	0.0756195	1	0.087259	60.06696	0.0003281	3.718109	11	0.159546	0.0139144	-327.67
	7	17	20015.62	0.0397979	0.0622599	1	0.0738929	57.41239	0.000312	3.718076	11	0.1593577	0.0117714	-327.67
	8	19	15890.62	0.0366876	0.051213	1	0.062998	54.38327	0.0003106	3.718058	11	0.1592354	0.0100294	-327.67
	9	20	12609.38	0.0341024	0.0420543	1	0.0541437	50.96095	0.0003255	3.718064	11	0.1591381	0.0086152	-327.67
	10	22	10078.13	0.0320131	0.0346028	1	0.0471401	47.22625	0.0003203	3.718056	11	0.1590895	0.0074988	-327.67
	11	24	8015.625	0.030312	0.0281551	1	0.0413706	42.88725	0.0003225	3.718059	11	0.1590543	0.0065798	-327.67
	12	25	6328.125	0.0289925	0.0225337	1	0.0367197	37.85534	0.0003199	3.718044	11	0.1590355	0.0058395	-327.67
	13	27	5015.625	0.0280855	0.0179004	1	0.0333049	32.51154	0.0003099	3.718045	11	0.1590136	0.0052958	-327.67
	14	29	3984.375	0.027505	0.014083	1	0.0309008	27.11323	0.0003221	3.718031	11	0.1590086	0.0049134	-327.67
	15	30	3170.956	0.0271832	0.0109381	1	0.0293013	21.9192	0.0003245	3.718035	11	0.1590085	0.0046591	-327.67
	16	32	2527.573	0.0270458	0.0083532	1	0.0283064	17.16341	0.0003206	3.718033	11	0.158998	0.0045006	-327.67
	17	34	1976.103	0.0270528	0.0061355	1	0.0277399	12.77836	0.0003198	3.718017	11	0.1590075	0.0044108	-327.67
	18	35	1577.524	0.0271866	0.0044775	1	0.0275528	9.352408	0.0003205	3.718024	11	0.1590067	0.0043811	-327.67
	19	37	1265.625	0.0273597	0.0031473	1	0.0275401	6.562168	0.0003235	3.718016	11	0.1589945	0.0043787	-327.67
	20	38	998.264	0.0276343	0.0019404	1	0.0277023	4.016499	0.0003235	3.718013	11	0.1589954	0.0044045	-327.67
	21	40	796.875	0.02793	0.0010554	1	0.02795	2.163935	0.0003199	3.718007	11	0.1590033	0.0044441	-327.67
	22	41	627.7902	0.028272	0.0002939	1	0.0282736	0.5956203	0.0003065	3.717988	11	0.1589981	0.0044954	-327.67
	23	43	505.5147	0.0284374	3.435444E-005	1	0.0284375	0.0692173	0.0002984	3.717907	11	0.1576019	0.0044818	-327.67
	24	44	397.9953	0.0288718	-0.0004917	1	0.0288759	-0.97567	0.0003123	3.717897	11	0.1606011	0.0046375	-327.67
	25	46	315.5048	0.0292921	-0.0008689	1	0.029305	-1.699004	0.0003075	3.717893	11	0.1593426	0.0046695	-327.67
	26	47	252.4038	0.0296735	-0.0011205	1	0.0296946	-2.162552	0.0002947	3.717889	11	0.158966	0.0047204	-327.67
	27	49	198.6229	0.0300708	-0.0013021	1	0.030099	-2.479466	0.0003091	3.717887	11	0.1588772	0.004782	-327.67
	28	50	158.3615	0.0304275	-0.0014053	1	0.0304599	-2.644412	0.0003074	3.717883	11	0.1588887	0.0048397	-327.67
	29	52	125.558	0.0307754	-0.0014588	1	0.0308099	-2.713833	0.0003117	3.717878	11	0.158914	0.0048961	-327.67
	30	53	100.4464	0.0310937	-0.0014616	1	0.031128	-2.691374	0.0003124	3.717877	11	0.1589429	0.0049476	-327.67
	31	55	79.00281	0.0314023	-0.001416	1	0.0314342	-2.581861	0.0003099	3.717874	11	0.1589538	0.0049966	-327.67
	32	57	63.3446	0.0316629	-0.0013526	1	0.0316918	-2.446181	0.0002989	3.717864	11	0.1589808	0.0050384	-327.67
	33	58	50.22321	0.0319088	-0.001261	1	0.0319337	-2.263005	0.0002976	3.717862	11	0.1589747	0.0050767	-327.67
	34	60	38.42213	0.0321382	-0.001139	1	0.0321584	-2.029693	0.0002983	3.717856	11	0.1589877	0.0051128	-327.67
	35	61	31.25	0.0322856	-0.001041	1	0.0323023	-1.846692	0.0002961	3.717846	11	0.159001	0.0051361	-327.67
	36	63	24.93351	0.0324341	-0.00093	1	0.0324475	-1.642435	0.0003104	3.717839	11	0.1589903	0.0051588	-327.67
	37	64	19.86229	0.0325417	-0.0008351	1	0.0325524	-1.470054	0.0002857	3.717836	11	0.158981	0.0051752	-327.67
	38	66	15.625	0.0326368	-0.0007497	1	0.0326454	-1.315891	0.0003122	3.717824	11	0.1590104	0.005191	-327.67
	39	67	12.40079	0.0327137	-0.0006622	1	0.0327204	-1.159573	0.0003236	3.717822	11	0.1589925	0.0052023	-327.67
	40	69	9.93114	0.032785	-0.0006055	1	0.0327906	-1.058128	0.0003379	3.717832	11	0.1589889	0.0052133	-327.67
	41	71	7.944915	0.0328315	-0.0005649	1	0.0328363	-0.985673	0.0002802	3.717834	11	0.1590152	0.0052215	-327.67
	42	72	6.317385	0.0328719	-0.0005431	1	0.0328764	-0.9465169	0.0004024	3.717832	11	0.1590191	0.005228	-327.67
	43	74	5.008013	0.0329298	-0.0005284	1	0.0329341	-0.9192417	0.0002595	3.717826	11	0.1589595	0.0052352	-327.67
	44	77	3.945707	0.0329706	-0.0005223	1	0.0329747	-0.9075877	0.0003298	3.717812	11	0.1590161	0.0052435	-327.67
	45	80	3.158693	0.0330069	-0.0005377	1	0.0330113	-0.9333393	0.000287	3.717809	11	0.1590289	0.0052498	-327.67
	46	83	2.504006	0.0329295	-0.0004771	1	0.032933	-0.8300106	0.00026	3.717793	11	0.1553697	0.0051168	-327.67
	47	87	1.998082	0.0330182	-0.0005625	1	0.033023	-0.97598	0.0005098	3.717802	11	0.1614398	0.0053312	-327.67
	48	92	1.584686	0.033101	-0.0006416	1	0.0331072	-1.110349	0.0006414	3.717793	11	0.1600324	0.0052982	-327.67
	49	96	1.266892	0.033181	-0.0007138	1	0.0331886	-1.232438	5.352008E-005	3.717726	11	0.159242	0.005285	-327.67
	50	103	0.999041	0.0332772	-0.0008169	1	0.0332872	-1.406194	0.0000974	3.717678	11	0.1590534	0.0052944	-327.67
	51	108	0.7923428	0.0333977	-0.0009123	1	0.0334101	-1.564664	0.0002817	3.717746	11	0.1592003	0.0053189	-327.67
	52	115	0.6334459	0.0334857	-0.0010443	1	0.0335019	-1.786286	0.000275	3.717709	11	0.1589821	0.0053262	-327.67
	53	124	0.5040323	0.0336054	-0.0011829	1	0.0336263	-2.015942	0.0002825	3.717675	11	0.1589834	0.005346	-327.67
	54	135	0.400641	0.0337401	-0.0013584	1	0.0337675	-2.305588	0.0002769	3.717649	11	0.158984	0.0053685	-327.67
	55	147	0.316723	0.0339062	-0.0015527	1	0.0339418	-2.622028	0.0002802	3.717622	11	0.1589926	0.0053965	-327.67
	56	161	0.2520161	0.034098	-0.0017695	1	0.0341439	-2.970728	0.000283	3.717584	11	0.1589936	0.0054287	-327.67
	57	179	0.2003205	0.0343044	-0.0020164	1	0.0343636	-3.363996	0.0002822	3.717538	11	0.1589953	0.0054636	-327.67
	58	205	0.1588983	0.0345637	-0.0022874	1	0.0346393	-3.786256	0.0002811	3.717477	11	0.1589971	0.0055075	-327.67
	59	237	0.1260081	0.0348839	-0.0025902	1	0.0349799	-4.246538	0.0002799	3.717524	11	0.1589987	0.0055618	-327.67
	60	267	0.1001603	0.0352414	-0.0029155	1	0.0353618	-4.729221	0.0002829	3.717625	11	0.1589999	0.0056225	-327.67
	61	313	0.0794492	0.0356232	-0.0032821	1	0.0357741	-5.264036	0.0002841	3.717723	11	0.1589988	0.005688	-327.67
	62	365	0.0631739	0.0359335	-0.0036904	1	0.0361225	-5.863764	0.0002785	3.717465	11	0.1589994	0.0057435	-327.67
	63	430	0.0501337	0.036348	-0.0041584	1	0.0365851	-6.526581	0.000282	3.717346	11	0.1589998	0.005817	-327.67
	64	491	0.0398258	0.0367944	-0.0047001	1	0.0370934	-7.279562	0.0002798	3.71721	11	0.1589999	0.0058978	-327.67
	65	593	0.0316296	0.0372699	-0.0053298	1	0.037649	-8.138489	0.0002819	3.717057	11	0.1590016	0.0059863	-327.67
	66	721	0.0251206	0.037812	-0.0060769	1	0.0382972	-9.130093	0.0002803	3.716948	11	0.1589984	0.0060892	-327.67
	67	842	0.0199553	0.0384426	-0.0069738	1	0.03907	-10.28214	0.0002819	3.71684	11	0.1590004	0.0062121	-327.67
	68	994	0.0158522	0.0391153	-0.0080397	1	0.039933	-11.61477	0.0002823	3.716697	11	0.159	0.0063493	-327.67
	69	1248	0.0125907	0.0399372	-0.0092841	1	0.0410021	-13.08699	0.0002825	3.716588	11	0.1590007	0.0065194	-327.67
	70	1488	0.0100011	0.040945	-0.0107315	1	0.042328	-14.68663	0.0002811	3.71647	11	0.1589995	0.0067301	-327.67
