EXPLAIN
TAG	GALVEIS
TITLE	LABEL	Galvanostatic EIS	Test Identifier
DATE	LABEL	7.2.2024	Date
TIME	LABEL	23:45:42	Time
NOTES	NOTES	1	Notes...
	
PSTAT	PSTAT	REF600-12055	Potentiostat
FREQINIT	QUANT	1.00000E+005	Initial Freq. (Hz)
FREQFINAL	QUANT	1.00000E-002	Final Freq. (Hz)
PTSPERDEC	QUANT	1.00000E+001	Points/decade
IACREQ	QUANT	1.59000E-001	AC Current (A rms)
IDCREQ	QUANT	0.00000E+000	DC Current (A)
AREA	QUANT	1.00000E+000	Sample Area (cm^2)
SPEED	SELECTOR	1	Optimize for:
DRIFTCOR	SELECTOR	0	Drift Correction
THD	SELECTOR	0	THD
ZGUESS	QUANT	1.00000E-001	Estimated Z (ohms)
EOC	QUANT	3.909432	Open Circuit (V)
SEQUENCER	TOGGLE	TRUE	Run as Sequence
PSTATMODEL	IQUANT	4	Pstat Model
PSTATSECTION	LABEL	REF600-12055	Pstat Section
PSTATSERIALNO	LABEL	12055	Pstat Serial Number
CTRLMODE	IQUANT	0	Control Mode
ELECTROMETER	IQUANT	0	RE=0 or CS=1
IESTAB	IQUANT	0	I/E Stability
CASPEED	IQUANT	4	Control Amp Speed
CONVENTION	IQUANT	1	Current Convention
ICHRANGE	IQUANT	2	Ich Range
ICHRANGEMODE	TOGGLE	F	Ich Auto Range
ICHOFFSETENABLE	TOGGLE	T	Ich Offset Enable
ICHOFFSET	QUANT	0	Ich Offset (V)
ICHFILTER	IQUANT	3	Ich Filter
VCHRANGE	IQUANT	2	Vch Range
VCHRANGEMODE	TOGGLE	F	Vch Auto Range
VCHOFFSETENABLE	TOGGLE	T	Vch Offset Enable
VCHOFFSET	QUANT	0	Vch Offset (V)
VCHFILTER	IQUANT	3	Vch Filter
ACHRANGE	IQUANT	2	Ach Range
ACHOFFSETENABLE	TOGGLE	F	Ach Offset Enable
ACHOFFSET	QUANT	0	Ach Offset (V)
ACHFILTER	IQUANT	1	Ach Filter
IERANGELOWERLIMIT	IQUANT	1	I/E Range Lower Limit
IERANGEMODE	TOGGLE	F	I/E AutoRange
IERANGE	IQUANT	7	I/E Range
POSFEEDENABLE	TOGGLE	F	Positive Feedback IR Comp
POSFEEDRESISTANCE	QUANT	0	Positive Feedback Resistance (ohm)
ACHSELECT	IQUANT	4	Ach Select
SENSECABLEID	IQUANT	14	Sense Cable ID
PWRCABLEID	IQUANT	14	Power Cable ID
DCCALDATE	LABEL		DC Calibration Date
ACCALDATE	LABEL		AC Calibration Date
THERMOSELECT	IQUANT	1	Thermo Select
FRAMEWORKVERSION	LABEL	7.10.3	Framework Version
INSTRUMENTVERSION	LABEL	4.91	Instrument Version
COMMVERSION	LABEL	2.24	Communications Version
CPUPLDVERSION	LABEL	0.00	CPU PLD Version
CTRLPLDVERSION	LABEL	0.00	CTRL PLD Version
PSTATPLDVERSION	LABEL	0.00	PSTAT PLD Version
ZCURVE	TABLE
	Pt	Time	Freq	Zreal	Zimag	Zsig	Zmod	Zphz	Idc	Vdc	IERange	Imod	Vmod	Temp
	#	s	Hz	ohm	ohm	V	ohm	°	A	V	#	A	V	°C
	0	5	100078.1	0.1064555	0.2371661	1	0.2599625	65.82637	0.0003691	3.908487	11	0.1596957	0.0412376	-327.67
	1	7	79453.13	0.0880256	0.1977009	1	0.216412	65.99915	0.0003525	3.908498	11	0.1642411	0.0353809	-327.67
	2	9	63140.62	0.0737691	0.1640958	1	0.1799147	65.79376	0.00034	3.908486	11	0.1619825	0.0290537	-327.67
	3	10	50203.12	0.062863	0.1356894	1	0.1495439	65.14236	0.0003317	3.908486	11	0.1609367	0.0240186	-327.67
	4	12	39890.62	0.0545902	0.1117714	1	0.1243902	63.96868	0.0003254	3.908491	11	0.1602838	0.0199117	-327.67
	5	14	31640.63	0.0482887	0.0917807	1	0.1037087	62.24972	0.0003267	3.90849	11	0.1598527	0.0165643	-327.67
	6	16	25171.88	0.0435366	0.0755423	1	0.0871898	60.04427	0.0003219	3.908488	11	0.1595442	0.0139032	-327.67
	7	17	20015.62	0.0397817	0.0622019	1	0.0738354	57.39871	0.0003243	3.908451	11	0.159363	0.0117626	-327.67
	8	19	15890.62	0.0366791	0.0511673	1	0.0629559	54.36531	0.0003183	3.908437	11	0.1592279	0.0100222	-327.67
	9	21	12609.38	0.0340842	0.042005	1	0.0540939	50.94305	0.0003207	3.908442	11	0.1591431	0.0086075	-327.67
	10	22	10078.13	0.0320033	0.034563	1	0.0471042	47.2021	0.0003218	3.908437	11	0.1590887	0.0074931	-327.67
	11	24	8015.625	0.030296	0.0281159	1	0.0413322	42.86262	0.0003218	3.908435	11	0.1590529	0.0065736	-327.67
	12	26	6328.125	0.0289918	0.0224985	1	0.0366975	37.81247	0.0003212	3.908431	11	0.1590341	0.005836	-327.67
	13	27	5015.625	0.0280959	0.0178795	1	0.0333025	32.4716	0.0003114	3.908424	11	0.1590152	0.0052955	-327.67
	14	29	3984.375	0.0275092	0.0140678	1	0.0308976	27.08446	0.0003201	3.908425	11	0.1590063	0.0049128	-327.67
	15	31	3170.956	0.0271904	0.0109445	1	0.0293104	21.92542	0.000321	3.908421	11	0.1590049	0.0046605	-327.67
	16	32	2527.573	0.0270575	0.0083957	1	0.0283301	17.2387	0.0003213	3.908415	11	0.1590094	0.0045047	-327.67
	17	34	1976.103	0.027077	0.0060966	1	0.0277549	12.68903	0.0003178	3.908412	11	0.1589975	0.0044129	-327.67
	18	35	1577.524	0.0272123	0.0044025	1	0.0275661	9.18994	0.0003213	3.908412	11	0.1590032	0.0043831	-327.67
	19	37	1265.625	0.027394	0.0031164	1	0.0275707	6.490252	0.0003209	3.908407	11	0.1589965	0.0043836	-327.67
	20	38	998.264	0.0276583	0.0019403	1	0.0277263	4.012922	0.0003195	3.9084	11	0.1590018	0.0044085	-327.67
	21	40	796.875	0.0279636	0.0011598	1	0.0279876	2.375032	0.0003173	3.908394	11	0.1590076	0.0044502	-327.67
	22	41	627.7902	0.028286	0.000383	1	0.0282886	0.7758061	0.0003211	3.908397	11	0.1589918	0.0044976	-327.67
	23	43	505.5147	0.0284474	0.0001064	1	0.0284476	0.214391	0.0003129	3.908311	11	0.1575991	0.0044833	-327.67
	24	44	397.9953	0.0288727	-0.0004014	1	0.0288754	-0.7964235	0.0003108	3.908308	11	0.1606042	0.0046375	-327.67
	25	46	315.5048	0.0292618	-0.000759	1	0.0292717	-1.485852	0.0003103	3.908308	11	0.1593366	0.004664	-327.67
	26	47	252.4038	0.0296266	-0.0009995	1	0.0296434	-1.932298	0.0002973	3.908308	11	0.1589698	0.0047124	-327.67
	27	49	198.6229	0.0300028	-0.0011748	1	0.0300258	-2.24244	0.0002985	3.908308	11	0.1588783	0.0047705	-327.67
	28	50	158.3615	0.0303334	-0.0012799	1	0.0303604	-2.416186	0.0002972	3.908304	11	0.1588914	0.004824	-327.67
	29	52	125.558	0.0306568	-0.0013313	1	0.0306857	-2.486642	0.0002964	3.908303	11	0.1589146	0.0048764	-327.67
	30	54	100.4464	0.0309448	-0.0013324	1	0.0309735	-2.465392	0.0003066	3.908298	11	0.15894	0.0049229	-327.67
	31	55	79.00281	0.0312339	-0.0012998	1	0.0312609	-2.382982	0.0003095	3.908293	11	0.1589556	0.0049691	-327.67
	32	57	63.3446	0.0314725	-0.0012434	1	0.031497	-2.262502	0.0003084	3.908288	11	0.1589769	0.0050073	-327.67
	33	59	50.22321	0.0316936	-0.0011571	1	0.0317147	-2.09081	0.0003038	3.908285	11	0.1589804	0.005042	-327.67
	34	61	38.42213	0.0319103	-0.0010462	1	0.0319274	-1.877733	0.00031	3.908281	11	0.1589868	0.005076	-327.67
	35	62	31.25	0.0320443	-0.0009567	1	0.0320586	-1.710136	0.0002926	3.908283	11	0.158988	0.0050969	-327.67
	36	64	24.93351	0.032178	-0.0008561	1	0.0321894	-1.524006	0.0003065	3.908273	11	0.1589996	0.0051181	-327.67
	37	65	19.86229	0.0322804	-0.0007791	1	0.0322898	-1.382521	0.0002963	3.908284	11	0.1589933	0.0051339	-327.67
	38	67	15.625	0.032371	-0.0006947	1	0.0323784	-1.229399	0.0003258	3.908264	11	0.1589841	0.0051477	-327.67
	39	68	12.40079	0.0324457	-0.0006233	1	0.0324517	-1.10052	0.000321	3.908263	11	0.1590079	0.0051601	-327.67
	40	70	9.93114	0.0325007	-0.0005769	1	0.0325058	-1.016999	0.0003381	3.908273	11	0.1589899	0.0051681	-327.67
	41	71	7.944915	0.0325467	-0.0005436	1	0.0325513	-0.956938	0.0002935	3.908259	11	0.1589986	0.0051756	-327.67
	42	73	6.317385	0.0325972	-0.0005209	1	0.0326014	-0.9154187	0.0003189	3.908284	11	0.1589726	0.0051827	-327.67
	43	75	5.008013	0.0326467	-0.0005135	1	0.0326508	-0.9011162	0.0002501	3.908282	11	0.1590178	0.0051921	-327.67
	44	78	3.945707	0.0326936	-0.0005175	1	0.0326977	-0.9069168	0.000297	3.908278	11	0.1590256	0.0051998	-327.67
	45	80	3.158693	0.0327453	-0.0005316	1	0.0327496	-0.9299937	0.0002099	3.908289	11	0.1589644	0.005206	-327.67
	46	83	2.504006	0.0326705	-0.0004734	1	0.032674	-0.8301366	0.0002848	3.908267	11	0.1554542	0.0050793	-327.67
	47	87	1.998082	0.0327599	-0.0005473	1	0.0327645	-0.957053	0.0002621	3.908269	11	0.1613275	0.0052858	-327.67
	48	90	1.584686	0.0328508	-0.0006357	1	0.0328569	-1.108515	0.0004547	3.908257	11	0.1599427	0.0052552	-327.67
	49	95	1.266892	0.0329422	-0.0007119	1	0.0329499	-1.238089	0.0002472	3.908189	11	0.1592586	0.0052475	-327.67
	50	101	0.999041	0.0330373	-0.0007969	1	0.0330469	-1.381762	0.0003053	3.908166	11	0.1590794	0.0052571	-327.67
	51	106	0.7923428	0.0331515	-0.0008899	1	0.0331634	-1.537598	0.0002804	3.908238	11	0.1593266	0.0052838	-327.67
	52	112	0.6334459	0.0332609	-0.0010097	1	0.0332762	-1.738781	0.0002787	3.908222	11	0.1589851	0.0052904	-327.67
	53	120	0.5040323	0.033393	-0.001137	1	0.0334124	-1.950136	0.0002811	3.908206	11	0.1589816	0.005312	-327.67
	54	130	0.400641	0.0335359	-0.0012869	1	0.0335606	-2.197593	0.0002797	3.908185	11	0.1589848	0.0053356	-327.67
	55	144	0.316723	0.0337109	-0.0014513	1	0.0337421	-2.465222	0.0002816	3.908156	11	0.1589912	0.0053647	-327.67
	56	161	0.2520161	0.033916	-0.001613	1	0.0339543	-2.722853	0.0002821	3.908137	11	0.1589936	0.0053985	-327.67
	57	182	0.2003205	0.0341476	-0.001787	1	0.0341943	-2.995642	0.000282	3.908118	11	0.1589954	0.0054367	-327.67
	58	204	0.1588983	0.034398	-0.0019782	1	0.0344548	-3.291383	0.000281	3.908077	11	0.1589979	0.0054782	-327.67
	59	235	0.1260081	0.0346879	-0.0021749	1	0.034756	-3.587633	0.0002785	3.908106	11	0.1589978	0.0055261	-327.67
	60	273	0.1001603	0.0350399	-0.0023812	1	0.0351207	-3.887603	0.000281	3.908205	11	0.1589977	0.0055841	-327.67
	61	310	0.0794492	0.035362	-0.0026026	1	0.0354577	-4.209277	0.0002799	3.90827	11	0.1589995	0.0056378	-327.67
	62	362	0.0631739	0.035635	-0.002853	1	0.0357491	-4.577426	0.0002814	3.908115	11	0.1590005	0.0056841	-327.67
	63	411	0.0501337	0.0359722	-0.0031505	1	0.0361099	-5.005229	0.0002826	3.908011	11	0.1590004	0.0057415	-327.67
	64	492	0.0398258	0.0363336	-0.0034972	1	0.0365015	-5.49788	0.0002815	3.907933	11	0.1589993	0.0058037	-327.67
	65	569	0.0316296	0.0367246	-0.0039075	1	0.0369319	-6.073469	0.0002827	3.907847	11	0.1590015	0.0058722	-327.67
	66	697	0.0251206	0.0371626	-0.0044032	1	0.0374226	-6.757199	0.0002808	3.907773	11	0.1589994	0.0059502	-327.67
	67	818	0.0199553	0.0376385	-0.0049875	1	0.0379675	-7.548247	0.0002796	3.907678	11	0.1590013	0.0060369	-327.67
	68	1020	0.0158522	0.0382034	-0.0056841	1	0.0386239	-8.462711	0.0002819	3.907595	11	0.158999	0.0061412	-327.67
	69	1211	0.0125907	0.0389109	-0.0065132	1	0.0394523	-9.50253	0.0002837	3.907503	11	0.1589991	0.0062729	-327.67
	70	1530	0.0100011	0.0397492	-0.00744	1	0.0404395	-10.60159	0.0002818	3.907419	11	0.1590011	0.0064299	-327.67
