EXPLAIN
TAG	GALVEIS
TITLE	LABEL	Galvanostatic EIS	Test Identifier
DATE	LABEL	8.2.2024	Date
TIME	LABEL	2:19:39	Time
NOTES	NOTES	1	Notes...
	
PSTAT	PSTAT	REF600-12055	Potentiostat
FREQINIT	QUANT	1.00000E+005	Initial Freq. (Hz)
FREQFINAL	QUANT	1.00000E-002	Final Freq. (Hz)
PTSPERDEC	QUANT	1.00000E+001	Points/decade
IACREQ	QUANT	1.59000E-001	AC Current (A rms)
IDCREQ	QUANT	0.00000E+000	DC Current (A)
AREA	QUANT	1.00000E+000	Sample Area (cm^2)
SPEED	SELECTOR	1	Optimize for:
DRIFTCOR	SELECTOR	0	Drift Correction
THD	SELECTOR	0	THD
ZGUESS	QUANT	1.00000E-001	Estimated Z (ohms)
EOC	QUANT	4.061843	Open Circuit (V)
SEQUENCER	TOGGLE	TRUE	Run as Sequence
PSTATMODEL	IQUANT	4	Pstat Model
PSTATSECTION	LABEL	REF600-12055	Pstat Section
PSTATSERIALNO	LABEL	12055	Pstat Serial Number
CTRLMODE	IQUANT	0	Control Mode
ELECTROMETER	IQUANT	0	RE=0 or CS=1
IESTAB	IQUANT	0	I/E Stability
CASPEED	IQUANT	4	Control Amp Speed
CONVENTION	IQUANT	1	Current Convention
ICHRANGE	IQUANT	2	Ich Range
ICHRANGEMODE	TOGGLE	F	Ich Auto Range
ICHOFFSETENABLE	TOGGLE	T	Ich Offset Enable
ICHOFFSET	QUANT	0	Ich Offset (V)
ICHFILTER	IQUANT	3	Ich Filter
VCHRANGE	IQUANT	2	Vch Range
VCHRANGEMODE	TOGGLE	F	Vch Auto Range
VCHOFFSETENABLE	TOGGLE	T	Vch Offset Enable
VCHOFFSET	QUANT	0	Vch Offset (V)
VCHFILTER	IQUANT	3	Vch Filter
ACHRANGE	IQUANT	2	Ach Range
ACHOFFSETENABLE	TOGGLE	F	Ach Offset Enable
ACHOFFSET	QUANT	0	Ach Offset (V)
ACHFILTER	IQUANT	1	Ach Filter
IERANGELOWERLIMIT	IQUANT	1	I/E Range Lower Limit
IERANGEMODE	TOGGLE	F	I/E AutoRange
IERANGE	IQUANT	7	I/E Range
POSFEEDENABLE	TOGGLE	F	Positive Feedback IR Comp
POSFEEDRESISTANCE	QUANT	0	Positive Feedback Resistance (ohm)
ACHSELECT	IQUANT	4	Ach Select
SENSECABLEID	IQUANT	14	Sense Cable ID
PWRCABLEID	IQUANT	14	Power Cable ID
DCCALDATE	LABEL		DC Calibration Date
ACCALDATE	LABEL		AC Calibration Date
THERMOSELECT	IQUANT	1	Thermo Select
FRAMEWORKVERSION	LABEL	7.10.3	Framework Version
INSTRUMENTVERSION	LABEL	4.91	Instrument Version
COMMVERSION	LABEL	2.24	Communications Version
CPUPLDVERSION	LABEL	0.00	CPU PLD Version
CTRLPLDVERSION	LABEL	0.00	CTRL PLD Version
PSTATPLDVERSION	LABEL	0.00	PSTAT PLD Version
ZCURVE	TABLE
	Pt	Time	Freq	Zreal	Zimag	Zsig	Zmod	Zphz	Idc	Vdc	IERange	Imod	Vmod	Temp
	#	s	Hz	ohm	ohm	V	ohm	°	A	V	#	A	V	°C
	0	5	100078.1	0.1064991	0.2370336	1	0.2598596	65.80563	0.0003706	4.060903	11	0.1596587	0.0412117	-327.67
	1	6	79453.13	0.0880573	0.1976094	1	0.2163413	65.98161	0.000351	4.060894	11	0.1642852	0.0353788	-327.67
	2	8	63140.62	0.0737981	0.1640356	1	0.1798717	65.77746	0.0003378	4.060886	11	0.1619683	0.0290442	-327.67
	3	10	50203.12	0.062888	0.1356253	1	0.1494963	65.12334	0.0003361	4.060887	11	0.160948	0.0240127	-327.67
	4	11	39890.62	0.0546127	0.1117262	1	0.1243596	63.95023	0.0003311	4.060874	11	0.1602797	0.0199063	-327.67
	5	13	31640.63	0.0483142	0.0917394	1	0.1036841	62.22664	0.0003287	4.06088	11	0.1598517	0.0165602	-327.67
	6	15	25171.88	0.0435598	0.0755218	1	0.0871837	60.0243	0.0003253	4.060872	11	0.1595496	0.0139027	-327.67
	7	17	20015.62	0.0398026	0.0621799	1	0.0738281	57.3759	0.0003229	4.060829	11	0.1593562	0.011761	-327.67
	8	18	15890.62	0.0367018	0.0511543	1	0.0629586	54.34161	0.0003232	4.060815	11	0.1592301	0.0100227	-327.67
	9	20	12609.38	0.0341084	0.041998	1	0.0541037	50.91848	0.0003245	4.060821	11	0.1591462	0.0086092	-327.67
	10	21	10078.13	0.0320237	0.0345446	1	0.0471046	47.16878	0.00032	4.060802	11	0.1590872	0.0074931	-327.67
	11	23	8015.625	0.0303213	0.0281067	1	0.0413445	42.82936	0.0003204	4.060804	11	0.1590493	0.0065754	-327.67
	12	25	6328.125	0.0290141	0.0224878	1	0.0367085	37.77792	0.0003201	4.060792	11	0.15904	0.0058379	-327.67
	13	26	5015.625	0.0281213	0.0178715	1	0.0333196	32.43657	0.0003161	4.060778	11	0.1590165	0.0052983	-327.67
	14	28	3984.375	0.0275337	0.0140532	1	0.0309128	27.03974	0.0003208	4.060772	11	0.1590052	0.0049152	-327.67
	15	29	3170.956	0.0272158	0.0109094	1	0.0293209	21.84334	0.0003183	4.060768	11	0.1590025	0.0046621	-327.67
	16	31	2527.573	0.0270863	0.0083347	1	0.0283396	17.10365	0.0003201	4.060761	11	0.159005	0.0045061	-327.67
	17	33	1976.103	0.0271092	0.0060704	1	0.0277806	12.62171	0.0003169	4.060755	11	0.1590022	0.0044172	-327.67
	18	34	1577.524	0.0272154	0.0044556	1	0.0275777	9.297864	0.0003068	4.060749	11	0.1590035	0.0043849	-327.67
	19	36	1265.625	0.0274131	0.0031099	1	0.0275889	6.472363	0.0003052	4.060746	11	0.1589947	0.0043865	-327.67
	20	37	998.264	0.0276989	0.0020056	1	0.0277715	4.141457	0.0003091	4.060733	11	0.1590122	0.004416	-327.67
	21	39	796.875	0.027959	0.00106	1	0.0279791	2.171251	0.0003178	4.060729	11	0.1589876	0.0044483	-327.67
	22	40	627.7902	0.0283024	0.0003657	1	0.0283048	0.7402061	0.0003138	4.060731	11	0.1590029	0.0045005	-327.67
	23	42	505.5147	0.0284669	8.039884E-005	1	0.0284671	0.1618193	0.0002965	4.060638	11	0.157603	0.0044865	-327.67
	24	43	397.9953	0.0288876	-0.0004378	1	0.0288909	-0.86825	0.0002975	4.060626	11	0.1606031	0.00464	-327.67
	25	45	315.5048	0.0292804	-0.000807	1	0.0292915	-1.578642	0.0003014	4.060622	11	0.1593347	0.0046672	-327.67
	26	46	252.4038	0.0296408	-0.0010695	1	0.02966	-2.06637	0.0002997	4.060618	11	0.1589677	0.004715	-327.67
	27	48	198.6229	0.0300169	-0.0012662	1	0.0300436	-2.415466	0.0002977	4.06061	11	0.158878	0.0047733	-327.67
	28	49	158.3615	0.0303591	-0.0013873	1	0.0303908	-2.616422	0.000299	4.060607	11	0.1588916	0.0048288	-327.67
	29	51	125.558	0.0306984	-0.001467	1	0.0307334	-2.735904	0.0003017	4.0606	11	0.1589121	0.0048839	-327.67
	30	53	100.4464	0.0310066	-0.0015004	1	0.0310428	-2.770443	0.0003039	4.060597	11	0.1589402	0.004934	-327.67
	31	54	79.00281	0.0313312	-0.0015012	1	0.0313672	-2.743153	0.0003074	4.060597	11	0.1589603	0.0049861	-327.67
	32	56	63.3446	0.0316068	-0.0014658	1	0.0316408	-2.655212	0.0003077	4.060603	11	0.1589728	0.00503	-327.67
	33	57	50.22321	0.0318791	-0.0014022	1	0.0319099	-2.518463	0.0003087	4.060584	11	0.1589805	0.005073	-327.67
	34	59	38.42213	0.032156	-0.0013024	1	0.0321824	-2.319381	0.0003115	4.060584	11	0.1589881	0.0051166	-327.67
	35	61	31.25	0.0323545	-0.001209	1	0.0323771	-2.13996	0.0003119	4.060575	11	0.1590013	0.005148	-327.67
	36	62	24.93351	0.0325259	-0.0011089	1	0.0325448	-1.952648	0.0003114	4.060568	11	0.158993	0.0051744	-327.67
	37	64	19.86229	0.0326751	-0.0009996	1	0.0326904	-1.752294	0.0003072	4.060555	11	0.1589945	0.0051976	-327.67
	38	65	15.625	0.03281	-0.0008951	1	0.0328222	-1.562792	0.0002953	4.060556	11	0.1589842	0.0052182	-327.67
	39	67	12.40079	0.0329144	-0.0008212	1	0.0329246	-1.42915	0.0002874	4.060537	11	0.1589981	0.005235	-327.67
	40	68	9.93114	0.0329897	-0.0007417	1	0.032998	-1.287942	0.0003052	4.06054	11	0.1590059	0.0052469	-327.67
	41	70	7.944915	0.0330683	-0.0006841	1	0.0330754	-1.185168	0.000281	4.06055	11	0.1589936	0.0052588	-327.67
	42	72	6.317385	0.0331268	-0.0006453	1	0.0331331	-1.116034	0.0003984	4.060547	11	0.159022	0.0052689	-327.67
	43	74	5.008013	0.0331854	-0.000617	1	0.0331912	-1.065226	0.0003283	4.060519	11	0.1589892	0.005277	-327.67
	44	76	3.945707	0.0332442	-0.0006037	1	0.0332497	-1.040338	0.000274	4.060524	11	0.1589761	0.0052859	-327.67
	45	79	3.158693	0.0333007	-0.0006045	1	0.0333062	-1.039941	0.0002239	4.060533	11	0.1589974	0.0052956	-327.67
	46	81	2.504006	0.0332259	-0.0005267	1	0.0332301	-0.9081699	0.0003422	4.06049	11	0.155444	0.0051654	-327.67
	47	86	1.998082	0.0333128	-0.0006094	1	0.0333184	-1.048015	5.199003E-005	4.060444	11	0.1615013	0.005381	-327.67
	48	89	1.584686	0.0334277	-0.0006753	1	0.0334345	-1.157274	0.0001061	4.060441	11	0.1598164	0.0053434	-327.67
	49	93	1.266892	0.0335089	-0.000747	1	0.0335172	-1.277054	0.0005418	4.060402	11	0.1593385	0.0053406	-327.67
	50	98	0.999041	0.0335969	-0.0008378	1	0.0336073	-1.428497	0.0005643	4.060412	11	0.1591165	0.0053475	-327.67
	51	103	0.7923428	0.0337357	-0.0009231	1	0.0337483	-1.56739	0.0002822	4.060441	11	0.1591633	0.0053715	-327.67
	52	109	0.6334459	0.0338508	-0.0010438	1	0.0338668	-1.766092	0.0002834	4.060406	11	0.1589831	0.0053843	-327.67
	53	117	0.5040323	0.0339893	-0.0011675	1	0.0340094	-1.967282	0.0002818	4.060365	11	0.1589825	0.0054069	-327.67
	54	129	0.400641	0.0341392	-0.0013132	1	0.0341644	-2.202806	0.0002808	4.060327	11	0.1589866	0.0054317	-327.67
	55	140	0.316723	0.0343217	-0.0014719	1	0.0343532	-2.455588	0.0002799	4.060272	11	0.1589891	0.0054618	-327.67
	56	157	0.2520161	0.0345115	-0.0016366	1	0.0345503	-2.715071	0.0002804	4.060224	11	0.1589941	0.0054933	-327.67
	57	175	0.2003205	0.0347437	-0.0018164	1	0.0347911	-2.99262	0.0002815	4.060174	11	0.1589959	0.0055316	-327.67
	58	196	0.1588983	0.034991	-0.0020029	1	0.0350483	-3.276051	0.0002812	4.06009	11	0.1589984	0.0055726	-327.67
	59	228	0.1260081	0.0352902	-0.0022098	1	0.0353594	-3.583036	0.0002834	4.060086	11	0.1589977	0.0056221	-327.67
	60	258	0.1001603	0.0356153	-0.0024252	1	0.0356978	-3.895552	0.0002807	4.060121	11	0.1589981	0.0056759	-327.67
	61	304	0.0794492	0.0359766	-0.0026626	1	0.036075	-4.232695	0.0002788	4.060165	11	0.1589993	0.0057359	-327.67
	62	344	0.0631739	0.0362403	-0.002953	1	0.0363604	-4.658453	0.0002789	4.0599	11	0.1590006	0.0057813	-327.67
	63	408	0.0501337	0.0365958	-0.0032633	1	0.036741	-5.095654	0.0002789	4.059726	11	0.1590012	0.0058419	-327.67
	64	470	0.0398258	0.0369764	-0.0036493	1	0.037156	-5.636455	0.0002801	4.059535	11	0.1589991	0.0059078	-327.67
	65	572	0.0316296	0.0373945	-0.0040942	1	0.037618	-6.248207	0.0002796	4.059321	11	0.1590001	0.0059813	-327.67
	66	700	0.0251206	0.0378535	-0.0046253	1	0.038135	-6.966414	0.0002819	4.059093	11	0.1590004	0.0060635	-327.67
	67	861	0.0199553	0.0384	-0.0052414	1	0.0387561	-7.772475	0.0002779	4.058852	11	0.1589992	0.0061622	-327.67
	68	1063	0.0158522	0.0390115	-0.005969	1	0.0394655	-8.699088	0.0002798	4.058647	11	0.1590007	0.006275	-327.67
	69	1253	0.0125907	0.0397473	-0.0068274	1	0.0403294	-9.74662	0.0002806	4.058423	11	0.159	0.0064124	-327.67
	70	1573	0.0100011	0.0406321	-0.0078044	1	0.0413748	-10.87266	0.0002805	4.058157	11	0.1589998	0.0065786	-327.67
