EXPLAIN
TAG	GALVEIS
TITLE	LABEL	Galvanostatic EIS	Test Identifier
DATE	LABEL	7.2.2024	Date
TIME	LABEL	15:30:02	Time
NOTES	NOTES	1	Notes...
	
PSTAT	PSTAT	REF600-12055	Potentiostat
FREQINIT	QUANT	1.00000E+005	Initial Freq. (Hz)
FREQFINAL	QUANT	1.00000E-002	Final Freq. (Hz)
PTSPERDEC	QUANT	1.00000E+001	Points/decade
IACREQ	QUANT	1.59000E-001	AC Current (A rms)
IDCREQ	QUANT	0.00000E+000	DC Current (A)
AREA	QUANT	1.00000E+000	Sample Area (cm^2)
SPEED	SELECTOR	1	Optimize for:
DRIFTCOR	SELECTOR	0	Drift Correction
THD	SELECTOR	0	THD
ZGUESS	QUANT	1.00000E-001	Estimated Z (ohms)
EOC	QUANT	3.399653	Open Circuit (V)
SEQUENCER	TOGGLE	TRUE	Run as Sequence
PSTATMODEL	IQUANT	4	Pstat Model
PSTATSECTION	LABEL	REF600-12055	Pstat Section
PSTATSERIALNO	LABEL	12055	Pstat Serial Number
CTRLMODE	IQUANT	0	Control Mode
ELECTROMETER	IQUANT	0	RE=0 or CS=1
IESTAB	IQUANT	0	I/E Stability
CASPEED	IQUANT	4	Control Amp Speed
CONVENTION	IQUANT	1	Current Convention
ICHRANGE	IQUANT	2	Ich Range
ICHRANGEMODE	TOGGLE	F	Ich Auto Range
ICHOFFSETENABLE	TOGGLE	T	Ich Offset Enable
ICHOFFSET	QUANT	0	Ich Offset (V)
ICHFILTER	IQUANT	3	Ich Filter
VCHRANGE	IQUANT	2	Vch Range
VCHRANGEMODE	TOGGLE	F	Vch Auto Range
VCHOFFSETENABLE	TOGGLE	T	Vch Offset Enable
VCHOFFSET	QUANT	0	Vch Offset (V)
VCHFILTER	IQUANT	3	Vch Filter
ACHRANGE	IQUANT	2	Ach Range
ACHOFFSETENABLE	TOGGLE	F	Ach Offset Enable
ACHOFFSET	QUANT	0	Ach Offset (V)
ACHFILTER	IQUANT	1	Ach Filter
IERANGELOWERLIMIT	IQUANT	1	I/E Range Lower Limit
IERANGEMODE	TOGGLE	F	I/E AutoRange
IERANGE	IQUANT	7	I/E Range
POSFEEDENABLE	TOGGLE	F	Positive Feedback IR Comp
POSFEEDRESISTANCE	QUANT	0	Positive Feedback Resistance (ohm)
ACHSELECT	IQUANT	4	Ach Select
SENSECABLEID	IQUANT	14	Sense Cable ID
PWRCABLEID	IQUANT	14	Power Cable ID
DCCALDATE	LABEL		DC Calibration Date
ACCALDATE	LABEL		AC Calibration Date
THERMOSELECT	IQUANT	1	Thermo Select
FRAMEWORKVERSION	LABEL	7.10.3	Framework Version
INSTRUMENTVERSION	LABEL	4.91	Instrument Version
COMMVERSION	LABEL	2.24	Communications Version
CPUPLDVERSION	LABEL	0.00	CPU PLD Version
CTRLPLDVERSION	LABEL	0.00	CTRL PLD Version
PSTATPLDVERSION	LABEL	0.00	PSTAT PLD Version
ZCURVE	TABLE
	Pt	Time	Freq	Zreal	Zimag	Zsig	Zmod	Zphz	Idc	Vdc	IERange	Imod	Vmod	Temp
	#	s	Hz	ohm	ohm	V	ohm	°	A	V	#	A	V	°C
	0	5	100078.1	0.1054428	0.2387917	1	0.2610357	66.17527	0.0003644	3.398791	11	0.1596536	0.0413969	-327.67
	1	7	79453.13	0.08742	0.1987718	1	0.2171462	66.26007	0.000354	3.398779	11	0.1642528	0.0355035	-327.67
	2	8	63140.62	0.0734712	0.1647988	1	0.1804346	65.97155	0.0003403	3.398767	11	0.1619689	0.0291352	-327.67
	3	10	50203.12	0.0628078	0.1361458	1	0.149935	65.2348	0.0003342	3.398758	11	0.1609308	0.0240805	-327.67
	4	12	39890.62	0.0546915	0.1120789	1	0.124711	63.98887	0.0003189	3.398741	11	0.1602777	0.0199623	-327.67
	5	13	31640.63	0.0485196	0.0919983	1	0.1040088	62.19297	0.0003107	3.398738	11	0.1598423	0.0166111	-327.67
	6	15	25171.88	0.04384	0.0756918	1	0.0874711	59.92094	0.0003142	3.398734	11	0.1595497	0.0139485	-327.67
	7	17	20015.62	0.040144	0.0622965	1	0.0741106	57.20219	0.0003134	3.398688	11	0.1593564	0.011806	-327.67
	8	18	15890.62	0.0370733	0.0512338	1	0.0632403	54.11011	0.0003175	3.398682	11	0.1592302	0.0100676	-327.67
	9	20	12609.38	0.0345055	0.0420662	1	0.0544077	50.63911	0.0003187	3.398669	11	0.1591385	0.0086572	-327.67
	10	22	10078.13	0.0324426	0.0345895	1	0.0474232	46.83443	0.0003102	3.398666	11	0.1590912	0.007544	-327.67
	11	23	8015.625	0.0307527	0.0281297	1	0.0416774	42.44942	0.0003194	3.398658	11	0.1590476	0.0066283	-327.67
	12	25	6328.125	0.0294364	0.0224946	1	0.0370474	37.38622	0.0003178	3.398641	11	0.1590348	0.0058916	-327.67
	13	27	5015.625	0.0285475	0.0178783	1	0.0336838	32.05754	0.0003097	3.398637	11	0.1590176	0.0053562	-327.67
	14	28	3984.375	0.0279715	0.0140527	1	0.0313031	26.67475	0.0003117	3.398627	11	0.1590057	0.0049773	-327.67
	15	30	3170.956	0.0276423	0.0109138	1	0.0297188	21.54524	0.0003058	3.398614	11	0.159004	0.0047254	-327.67
	16	31	2527.573	0.0275159	0.0082815	1	0.0287351	16.75023	0.0003047	3.398602	11	0.1590018	0.0045689	-327.67
	17	33	1976.103	0.0275364	0.0059974	1	0.028182	12.28699	0.0003101	3.398601	11	0.159003	0.004481	-327.67
	18	35	1577.524	0.027675	0.0043115	1	0.0280088	8.85485	0.0003222	3.398602	11	0.1590063	0.0044536	-327.67
	19	36	1265.625	0.0278713	0.0029827	1	0.0280305	6.108458	0.0003166	3.39858	11	0.159003	0.0044569	-327.67
	20	38	998.264	0.0281205	0.0018288	1	0.0281799	3.721049	0.0003173	3.398582	11	0.1589983	0.0044805	-327.67
	21	39	796.875	0.0284172	0.0008941	1	0.0284313	1.802065	0.0003164	3.398572	11	0.1590015	0.0045206	-327.67
	22	41	627.7902	0.0287717	0.0001104	1	0.0287719	0.219879	0.0003199	3.398575	11	0.1589984	0.0045747	-327.67
	23	42	505.5147	0.0289847	-0.0002584	1	0.0289858	-0.5107172	0.0003113	3.398478	11	0.1575987	0.0045681	-327.67
	24	44	397.9953	0.0294463	-0.0008571	1	0.0294587	-1.667248	0.0003037	3.398469	11	0.1605995	0.0047311	-327.67
	25	45	315.5048	0.0298931	-0.0013024	1	0.0299215	-2.494784	0.000308	3.398459	11	0.1593395	0.0047677	-327.67
	26	47	252.4038	0.0303219	-0.0016358	1	0.030366	-3.088024	0.0003154	3.398452	11	0.1589707	0.0048273	-327.67
	27	48	198.6229	0.030784	-0.0019141	1	0.0308435	-3.557968	0.0003122	3.398446	11	0.1588735	0.0049002	-327.67
	28	50	158.3615	0.0312092	-0.0021324	1	0.031282	-3.908733	0.0003032	3.398441	11	0.1588935	0.0049705	-327.67
	29	51	125.558	0.0316393	-0.0023052	1	0.0317232	-4.167104	0.0003081	3.398431	11	0.1589093	0.0050411	-327.67
	30	53	100.4464	0.032059	-0.0024407	1	0.0321518	-4.353573	0.0003081	3.398424	11	0.1589401	0.0051102	-327.67
	31	54	79.00281	0.0325057	-0.0025614	1	0.0326065	-4.505528	0.0003105	3.398416	11	0.158963	0.0051832	-327.67
	32	56	63.3446	0.032912	-0.0026538	1	0.0330188	-4.609931	0.0003053	3.398406	11	0.1589709	0.005249	-327.67
	33	58	50.22321	0.0333456	-0.0027382	1	0.0334579	-4.694276	0.0003043	3.398401	11	0.1589859	0.0053193	-327.67
	34	60	38.42213	0.0338337	-0.0028281	1	0.0339517	-4.778212	0.0003148	3.398382	11	0.1589855	0.0053978	-327.67
	35	61	31.25	0.0342071	-0.0028974	1	0.0343295	-4.841572	0.000308	3.398384	11	0.1589971	0.0054583	-327.67
	36	63	24.93351	0.0346316	-0.0029808	1	0.0347597	-4.91938	0.0003024	3.398373	11	0.1589969	0.0055267	-327.67
	37	64	19.86229	0.0350744	-0.0030774	1	0.0352091	-5.014177	0.0002781	3.398365	11	0.1589686	0.0055971	-327.67
	38	65	15.625	0.0355411	-0.0031793	1	0.035683	-5.111722	0.0002957	3.398364	11	0.1590084	0.0056739	-327.67
	39	67	12.40079	0.0360349	-0.0032838	1	0.0361842	-5.206899	0.0002882	3.398335	11	0.1589946	0.0057531	-327.67
	40	68	9.93114	0.0365512	-0.0033846	1	0.0367076	-5.29037	0.0002857	3.398329	11	0.1589976	0.0058364	-327.67
	41	70	7.944915	0.0371014	-0.0034724	1	0.0372635	-5.346849	0.0003347	3.398339	11	0.1590091	0.0059252	-327.67
	42	72	6.317385	0.0376861	-0.003505	1	0.0378487	-5.313443	0.00025	3.398299	11	0.158982	0.0060173	-327.67
	43	74	5.008013	0.0383009	-0.0034879	1	0.0384594	-5.203349	0.000347	3.398279	11	0.1590032	0.0061152	-327.67
	44	76	3.945707	0.0389215	-0.0034131	1	0.0390709	-5.011606	0.000274	3.398291	11	0.1590042	0.0062124	-327.67
	45	79	3.158693	0.0394664	-0.0032929	1	0.0396036	-4.769437	0.0002887	3.398284	11	0.1590394	0.0062985	-327.67
	46	82	2.504006	0.0398331	-0.0030236	1	0.0399477	-4.340798	0.0003649	3.398224	11	0.1553719	0.0062067	-327.67
	47	85	1.998082	0.0403273	-0.0029302	1	0.0404336	-4.155879	6.948016E-005	3.398169	11	0.1615056	0.0065303	-327.67
	48	89	1.584686	0.0407894	-0.0027873	1	0.0408845	-3.909164	-7.669558E-006	3.398155	11	0.1599647	0.0065401	-327.67
	49	93	1.266892	0.0411607	-0.0026435	1	0.0412455	-3.674686	0.0005925	3.398166	11	0.159271	0.0065692	-327.67
	50	100	0.999041	0.0415275	-0.0025318	1	0.0416046	-3.488774	0.0005686	3.398175	11	0.1590653	0.0066178	-327.67
	51	104	0.7923428	0.0418616	-0.0024192	1	0.0419315	-3.307436	0.0002737	3.398184	11	0.1591485	0.0066733	-327.67
	52	112	0.6334459	0.0421367	-0.0023683	1	0.0422032	-3.216898	0.0002799	3.398135	11	0.1589835	0.0067096	-327.67
	53	122	0.5040323	0.0424129	-0.0023424	1	0.0424775	-3.1611	0.0002836	3.398099	11	0.1589818	0.0067532	-327.67
	54	131	0.400641	0.0426835	-0.002363	1	0.0427489	-3.168652	0.0002822	3.398056	11	0.1589858	0.0067965	-327.67
	55	145	0.316723	0.042958	-0.0024141	1	0.0430258	-3.21645	0.0002822	3.398005	11	0.1589908	0.0068407	-327.67
	56	159	0.2520161	0.0432388	-0.0025147	1	0.0433118	-3.328491	0.0002839	3.397952	11	0.1589928	0.0068863	-327.67
	57	177	0.2003205	0.0435342	-0.0026466	1	0.0436146	-3.478903	0.0002823	3.397887	11	0.1589961	0.0069345	-327.67
	58	198	0.1588983	0.0438528	-0.0028214	1	0.0439435	-3.681169	0.0002799	3.397789	11	0.1589969	0.0069869	-327.67
	59	230	0.1260081	0.0442115	-0.0030427	1	0.0443161	-3.937016	0.0002842	3.397771	11	0.1589987	0.0070462	-327.67
	60	268	0.1001603	0.0446058	-0.0033033	1	0.044728	-4.235366	0.0002818	3.397838	11	0.1589993	0.0071117	-327.67
	61	314	0.0794492	0.0450107	-0.0036261	1	0.0451565	-4.605811	0.00028	3.3979	11	0.1590013	0.0071799	-327.67
	62	366	0.0631739	0.0453539	-0.0040405	1	0.0455335	-5.090939	0.0002796	3.39758	11	0.1589983	0.0072397	-327.67
	63	431	0.0501337	0.0458038	-0.0045526	1	0.0460295	-5.676161	0.0002805	3.397398	11	0.1589975	0.0073186	-327.67
	64	492	0.0398258	0.0463154	-0.0051595	1	0.0466019	-6.356524	0.00028	3.397191	11	0.1590012	0.0074098	-327.67
	65	594	0.0316296	0.046895	-0.0059011	1	0.0472648	-7.172202	0.0002825	3.396989	11	0.1590005	0.0075151	-327.67
	66	691	0.0251206	0.0475363	-0.0068266	1	0.048024	-8.172216	0.0002824	3.396765	11	0.1590004	0.0076358	-327.67
	67	851	0.0199553	0.0483513	-0.0079295	1	0.0489972	-9.313481	0.0002778	3.396508	11	0.1589997	0.0077905	-327.67
	68	1053	0.0158522	0.0493373	-0.0092333	1	0.0501939	-10.6001	0.0002798	3.396249	11	0.1589998	0.0079808	-327.67
	69	1307	0.0125907	0.0504896	-0.0107331	1	0.0516178	-12.00126	0.000284	3.396064	11	0.1590001	0.0082072	-327.67
	70	1547	0.0100011	0.0518733	-0.0124513	1	0.0533468	-13.4975	0.000279	3.39588	11	0.1590003	0.0084822	-327.67
