EXPLAIN
TAG	GALVEIS
TITLE	LABEL	Galvanostatic EIS	Test Identifier
DATE	LABEL	7.2.2024	Date
TIME	LABEL	19:32:49	Time
NOTES	NOTES	1	Notes...
	
PSTAT	PSTAT	REF600-12055	Potentiostat
FREQINIT	QUANT	1.00000E+005	Initial Freq. (Hz)
FREQFINAL	QUANT	1.00000E-002	Final Freq. (Hz)
PTSPERDEC	QUANT	1.00000E+001	Points/decade
IACREQ	QUANT	1.59000E-001	AC Current (A rms)
IDCREQ	QUANT	0.00000E+000	DC Current (A)
AREA	QUANT	1.00000E+000	Sample Area (cm^2)
SPEED	SELECTOR	1	Optimize for:
DRIFTCOR	SELECTOR	0	Drift Correction
THD	SELECTOR	0	THD
ZGUESS	QUANT	1.00000E-001	Estimated Z (ohms)
EOC	QUANT	3.63491	Open Circuit (V)
SEQUENCER	TOGGLE	TRUE	Run as Sequence
PSTATMODEL	IQUANT	4	Pstat Model
PSTATSECTION	LABEL	REF600-12055	Pstat Section
PSTATSERIALNO	LABEL	12055	Pstat Serial Number
CTRLMODE	IQUANT	0	Control Mode
ELECTROMETER	IQUANT	0	RE=0 or CS=1
IESTAB	IQUANT	0	I/E Stability
CASPEED	IQUANT	4	Control Amp Speed
CONVENTION	IQUANT	1	Current Convention
ICHRANGE	IQUANT	2	Ich Range
ICHRANGEMODE	TOGGLE	F	Ich Auto Range
ICHOFFSETENABLE	TOGGLE	T	Ich Offset Enable
ICHOFFSET	QUANT	0	Ich Offset (V)
ICHFILTER	IQUANT	3	Ich Filter
VCHRANGE	IQUANT	2	Vch Range
VCHRANGEMODE	TOGGLE	F	Vch Auto Range
VCHOFFSETENABLE	TOGGLE	T	Vch Offset Enable
VCHOFFSET	QUANT	0	Vch Offset (V)
VCHFILTER	IQUANT	3	Vch Filter
ACHRANGE	IQUANT	2	Ach Range
ACHOFFSETENABLE	TOGGLE	F	Ach Offset Enable
ACHOFFSET	QUANT	0	Ach Offset (V)
ACHFILTER	IQUANT	1	Ach Filter
IERANGELOWERLIMIT	IQUANT	1	I/E Range Lower Limit
IERANGEMODE	TOGGLE	F	I/E AutoRange
IERANGE	IQUANT	7	I/E Range
POSFEEDENABLE	TOGGLE	F	Positive Feedback IR Comp
POSFEEDRESISTANCE	QUANT	0	Positive Feedback Resistance (ohm)
ACHSELECT	IQUANT	4	Ach Select
SENSECABLEID	IQUANT	14	Sense Cable ID
PWRCABLEID	IQUANT	14	Power Cable ID
DCCALDATE	LABEL		DC Calibration Date
ACCALDATE	LABEL		AC Calibration Date
THERMOSELECT	IQUANT	1	Thermo Select
FRAMEWORKVERSION	LABEL	7.10.3	Framework Version
INSTRUMENTVERSION	LABEL	4.91	Instrument Version
COMMVERSION	LABEL	2.24	Communications Version
CPUPLDVERSION	LABEL	0.00	CPU PLD Version
CTRLPLDVERSION	LABEL	0.00	CTRL PLD Version
PSTATPLDVERSION	LABEL	0.00	PSTAT PLD Version
ZCURVE	TABLE
	Pt	Time	Freq	Zreal	Zimag	Zsig	Zmod	Zphz	Idc	Vdc	IERange	Imod	Vmod	Temp
	#	s	Hz	ohm	ohm	V	ohm	°	A	V	#	A	V	°C
	0	5	100078.1	0.1062283	0.2377958	1	0.2604444	65.9287	0.0003674	3.634002	11	0.1596771	0.0413092	-327.67
	1	7	79453.13	0.0878777	0.1981364	1	0.2167499	66.0817	0.0003555	3.634002	11	0.1642559	0.0354393	-327.67
	2	9	63140.62	0.0736881	0.1643971	1	0.1801564	65.85654	0.0003417	3.633991	11	0.1619806	0.0290924	-327.67
	3	10	50203.12	0.0628287	0.1359067	1	0.1497267	65.18923	0.0003336	3.633986	11	0.1609342	0.0240476	-327.67
	4	12	39890.62	0.0545924	0.1119399	1	0.1245426	64.00178	0.0003291	3.633982	11	0.1602807	0.0199357	-327.67
	5	14	31640.63	0.048322	0.0919089	1	0.1038376	62.26642	0.0003262	3.633994	11	0.1598511	0.0165847	-327.67
	6	16	25171.88	0.0435727	0.0756391	1	0.0872918	60.05545	0.0003257	3.633974	11	0.1595485	0.0139198	-327.67
	7	17	20015.62	0.0398303	0.0622773	1	0.073925	57.3985	0.0003213	3.633941	11	0.1593605	0.0117767	-327.67
	8	19	15890.62	0.0367376	0.0512299	1	0.0630409	54.35521	0.0003217	3.633931	11	0.15923	0.0100358	-327.67
	9	21	12609.38	0.0341468	0.0420671	1	0.0541816	50.93302	0.0003217	3.633929	11	0.1591495	0.0086218	-327.67
	10	22	10078.13	0.0320646	0.0346105	1	0.0471808	47.18671	0.0003229	3.633931	11	0.1590808	0.0075049	-327.67
	11	24	8015.625	0.030359	0.0281572	1	0.0414064	42.84513	0.0003188	3.633927	11	0.1590571	0.0065856	-327.67
	12	26	6328.125	0.0290472	0.0225213	1	0.0367553	37.78771	0.0003231	3.633932	11	0.1590323	0.0058451	-327.67
	13	27	5015.625	0.0281438	0.0179191	1	0.0333641	32.48478	0.0003211	3.633915	11	0.1590173	0.0053054	-327.67
	14	29	3984.375	0.0275619	0.0141012	1	0.0309597	27.09521	0.0003208	3.633917	11	0.1590043	0.0049227	-327.67
	15	30	3170.956	0.0272316	0.0109297	1	0.0293431	21.86856	0.0003232	3.633918	11	0.1590086	0.0046658	-327.67
	16	32	2527.573	0.0271036	0.0083543	1	0.0283619	17.13118	0.0003193	3.633912	11	0.159001	0.0045095	-327.67
	17	33	1976.103	0.0271111	0.0061557	1	0.0278012	12.79233	0.0003204	3.633906	11	0.159007	0.0044206	-327.67
	18	35	1577.524	0.0272321	0.0044019	1	0.0275856	9.182052	0.0003188	3.633894	11	0.1589959	0.004386	-327.67
	19	36	1265.625	0.0274271	0.003073	1	0.0275987	6.392942	0.0003187	3.633895	11	0.1590043	0.0043883	-327.67
	20	38	998.264	0.0276849	0.001963	1	0.0277545	4.055855	0.0003191	3.633898	11	0.1589975	0.0044129	-327.67
	21	39	796.875	0.0279954	0.0010511	1	0.0280151	2.150231	0.0003219	3.633887	11	0.1590064	0.0044546	-327.67
	22	41	627.7902	0.0283365	0.0002809	1	0.0283379	0.5679873	0.0003205	3.633893	11	0.1589921	0.0045055	-327.67
	23	42	505.5147	0.0285044	-8.958067E-007	1	0.0285044	-0.0018006	0.0003118	3.633798	11	0.1576038	0.0044924	-327.67
	24	44	397.9953	0.0289381	-0.00054	1	0.0289431	-1.068983	0.0003084	3.633794	11	0.1606053	0.0046484	-327.67
	25	45	315.5048	0.0293637	-0.0009199	1	0.0293781	-1.794456	0.0003113	3.633792	11	0.1593376	0.004681	-327.67
	26	47	252.4038	0.0297527	-0.0011833	1	0.0297763	-2.277528	0.0003089	3.63379	11	0.1589693	0.0047335	-327.67
	27	48	198.6229	0.0301628	-0.0013835	1	0.0301945	-2.626235	0.0003117	3.633787	11	0.1588731	0.0047971	-327.67
	28	50	158.3615	0.0305336	-0.0014944	1	0.0305701	-2.802009	0.0003112	3.633785	11	0.1588919	0.0048574	-327.67
	29	51	125.558	0.0308984	-0.0015617	1	0.0309378	-2.893368	0.000306	3.633781	11	0.1589134	0.0049164	-327.67
	30	53	100.4464	0.0312326	-0.0015753	1	0.0312723	-2.887367	0.0003115	3.633783	11	0.1589388	0.0049704	-327.67
	31	54	79.00281	0.0315685	-0.0015411	1	0.0316061	-2.794829	0.0003103	3.633776	11	0.1589555	0.005024	-327.67
	32	56	63.3446	0.0318507	-0.0014803	1	0.0318851	-2.661029	0.000312	3.633775	11	0.158976	0.005069	-327.67
	33	57	50.22321	0.0321151	-0.0013922	1	0.0321453	-2.482264	0.0003188	3.633767	11	0.158986	0.0051107	-327.67
	34	59	38.42213	0.0323898	-0.001261	1	0.0324143	-2.229544	0.0003097	3.633769	11	0.1589845	0.0051534	-327.67
	35	60	31.25	0.0325548	-0.0011567	1	0.0325754	-2.034986	0.0003205	3.63376	11	0.1590004	0.0051795	-327.67
	36	62	24.93351	0.0327173	-0.0010348	1	0.0327337	-1.811607	0.0003112	3.633761	11	0.1589893	0.0052043	-327.67
	37	64	19.86229	0.0328481	-0.0009287	1	0.0328612	-1.619511	0.0003018	3.633746	11	0.1589943	0.0052247	-327.67
	38	65	15.625	0.0329517	-0.0007965	1	0.0329613	-1.384682	0.0002885	3.63375	11	0.1589875	0.0052404	-327.67
	39	66	12.40079	0.0330508	-0.0007301	1	0.0330588	-1.265517	0.0002902	3.633736	11	0.1589932	0.0052561	-327.67
	40	68	9.93114	0.0331144	-0.0006507	1	0.0331208	-1.12571	0.0002819	3.633724	11	0.1589986	0.0052662	-327.67
	41	70	7.944915	0.0331711	-0.0006054	1	0.0331767	-1.045595	0.0003382	3.633728	11	0.1590126	0.0052755	-327.67
	42	71	6.317385	0.0332194	-0.0005594	1	0.0332241	-0.964699	0.0003516	3.633716	11	0.1589718	0.0052817	-327.67
	43	73	5.008013	0.033273	-0.00053	1	0.0332772	-0.9126338	0.0003602	3.6337	11	0.1590101	0.0052914	-327.67
	44	76	3.945707	0.0333147	-0.0005281	1	0.0333189	-0.908108	0.0003224	3.633695	11	0.1590193	0.0052984	-327.67
	45	78	3.158693	0.0333624	-0.0005268	1	0.0333666	-0.9046729	0.0004082	3.633676	11	0.1589628	0.005304	-327.67
	46	80	2.504006	0.0332836	-0.0004471	1	0.0332866	-0.7695503	0.0003466	3.63363	11	0.155455	0.0051746	-327.67
	47	84	1.998082	0.0333641	-0.0005195	1	0.0333681	-0.8920738	0.0003625	3.633624	11	0.1613355	0.0053835	-327.67
	48	88	1.584686	0.0334521	-0.0005952	1	0.0334574	-1.019327	0.0001648	3.633618	11	0.1599334	0.005351	-327.67
	49	92	1.266892	0.0335342	-0.0006588	1	0.0335407	-1.12547	0.0003784	3.633671	11	0.1592704	0.005342	-327.67
	50	97	0.999041	0.0336216	-0.0007358	1	0.0336297	-1.253733	0.0003135	3.633658	11	0.1590687	0.0053494	-327.67
	51	103	0.7923428	0.0337136	-0.0008176	1	0.0337235	-1.389215	0.0002747	3.633655	11	0.1593282	0.0053731	-327.67
	52	109	0.6334459	0.0338071	-0.0009249	1	0.0338198	-1.56705	0.000282	3.633646	11	0.1589835	0.0053768	-327.67
	53	117	0.5040323	0.0339083	-0.0010453	1	0.0339244	-1.765775	0.0002814	3.633635	11	0.1589815	0.0053934	-327.67
	54	127	0.400641	0.0340343	-0.0011898	1	0.0340551	-2.002161	0.0002814	3.633619	11	0.1589864	0.0054143	-327.67
	55	138	0.316723	0.0341813	-0.0013494	1	0.0342079	-2.260781	0.0002796	3.633594	11	0.1589898	0.0054387	-327.67
	56	155	0.2520161	0.0343494	-0.0015261	1	0.0343833	-2.543851	0.0002793	3.633563	11	0.1589946	0.0054668	-327.67
	57	177	0.2003205	0.0345422	-0.0017235	1	0.0345852	-2.856412	0.0002837	3.633526	11	0.1589955	0.0054989	-327.67
	58	203	0.1588983	0.0347666	-0.0019485	1	0.0348212	-3.207858	0.0002815	3.633499	11	0.1589973	0.0055365	-327.67
	59	228	0.1260081	0.0350458	-0.0021829	1	0.0351137	-3.564112	0.0002805	3.633541	11	0.1589985	0.005583	-327.67
	60	259	0.1001603	0.0353634	-0.0024361	1	0.0354472	-3.940764	0.0002811	3.633652	11	0.1589995	0.0056361	-327.67
	61	295	0.0794492	0.0357095	-0.0027392	1	0.0358144	-4.386523	0.0002828	3.633761	11	0.1589992	0.0056945	-327.67
	62	334	0.0631739	0.0359632	-0.0030763	1	0.0360945	-4.889128	0.0002831	3.633574	11	0.159	0.005739	-327.67
	63	383	0.0501337	0.0363132	-0.0034469	1	0.0364764	-5.422318	0.0002847	3.633461	11	0.1589993	0.0057997	-327.67
	64	445	0.0398258	0.0366944	-0.0038868	1	0.0368997	-6.046429	0.0002815	3.633368	11	0.1590001	0.005867	-327.67
	65	522	0.0316296	0.0371017	-0.0043932	1	0.0373609	-6.752988	0.0002797	3.633241	11	0.1590001	0.0059404	-327.67
	66	650	0.0251206	0.0375803	-0.0049809	1	0.037909	-7.550046	0.000281	3.633139	11	0.1590005	0.0060275	-327.67
	67	771	0.0199553	0.0381026	-0.0057029	1	0.038527	-8.512343	0.0002811	3.633003	11	0.1589994	0.0061258	-327.67
	68	973	0.0158522	0.0387451	-0.0065414	1	0.0392934	-9.58294	0.0002825	3.632884	11	0.1590005	0.0062477	-327.67
	69	1163	0.0125907	0.0395245	-0.0075128	1	0.0402322	-10.7624	0.0002815	3.632778	11	0.159	0.0063969	-327.67
	70	1403	0.0100011	0.0404648	-0.0086059	1	0.0413698	-12.00652	0.0002824	3.632633	11	0.1590003	0.0065778	-327.67
