EXPLAIN
TAG	GALVEIS
TITLE	LABEL	Galvanostatic EIS	Test Identifier
DATE	LABEL	7.2.2024	Date
TIME	LABEL	22:22:09	Time
NOTES	NOTES	1	Notes...
	
PSTAT	PSTAT	REF600-12055	Potentiostat
FREQINIT	QUANT	1.00000E+005	Initial Freq. (Hz)
FREQFINAL	QUANT	1.00000E-002	Final Freq. (Hz)
PTSPERDEC	QUANT	1.00000E+001	Points/decade
IACREQ	QUANT	1.59000E-001	AC Current (A rms)
IDCREQ	QUANT	0.00000E+000	DC Current (A)
AREA	QUANT	1.00000E+000	Sample Area (cm^2)
SPEED	SELECTOR	1	Optimize for:
DRIFTCOR	SELECTOR	0	Drift Correction
THD	SELECTOR	0	THD
ZGUESS	QUANT	1.00000E-001	Estimated Z (ohms)
EOC	QUANT	3.82565	Open Circuit (V)
SEQUENCER	TOGGLE	TRUE	Run as Sequence
PSTATMODEL	IQUANT	4	Pstat Model
PSTATSECTION	LABEL	REF600-12055	Pstat Section
PSTATSERIALNO	LABEL	12055	Pstat Serial Number
CTRLMODE	IQUANT	0	Control Mode
ELECTROMETER	IQUANT	0	RE=0 or CS=1
IESTAB	IQUANT	0	I/E Stability
CASPEED	IQUANT	4	Control Amp Speed
CONVENTION	IQUANT	1	Current Convention
ICHRANGE	IQUANT	2	Ich Range
ICHRANGEMODE	TOGGLE	F	Ich Auto Range
ICHOFFSETENABLE	TOGGLE	T	Ich Offset Enable
ICHOFFSET	QUANT	0	Ich Offset (V)
ICHFILTER	IQUANT	3	Ich Filter
VCHRANGE	IQUANT	2	Vch Range
VCHRANGEMODE	TOGGLE	F	Vch Auto Range
VCHOFFSETENABLE	TOGGLE	T	Vch Offset Enable
VCHOFFSET	QUANT	0	Vch Offset (V)
VCHFILTER	IQUANT	3	Vch Filter
ACHRANGE	IQUANT	2	Ach Range
ACHOFFSETENABLE	TOGGLE	F	Ach Offset Enable
ACHOFFSET	QUANT	0	Ach Offset (V)
ACHFILTER	IQUANT	1	Ach Filter
IERANGELOWERLIMIT	IQUANT	1	I/E Range Lower Limit
IERANGEMODE	TOGGLE	F	I/E AutoRange
IERANGE	IQUANT	7	I/E Range
POSFEEDENABLE	TOGGLE	F	Positive Feedback IR Comp
POSFEEDRESISTANCE	QUANT	0	Positive Feedback Resistance (ohm)
ACHSELECT	IQUANT	4	Ach Select
SENSECABLEID	IQUANT	14	Sense Cable ID
PWRCABLEID	IQUANT	14	Power Cable ID
DCCALDATE	LABEL		DC Calibration Date
ACCALDATE	LABEL		AC Calibration Date
THERMOSELECT	IQUANT	1	Thermo Select
FRAMEWORKVERSION	LABEL	7.10.3	Framework Version
INSTRUMENTVERSION	LABEL	4.91	Instrument Version
COMMVERSION	LABEL	2.24	Communications Version
CPUPLDVERSION	LABEL	0.00	CPU PLD Version
CTRLPLDVERSION	LABEL	0.00	CTRL PLD Version
PSTATPLDVERSION	LABEL	0.00	PSTAT PLD Version
ZCURVE	TABLE
	Pt	Time	Freq	Zreal	Zimag	Zsig	Zmod	Zphz	Idc	Vdc	IERange	Imod	Vmod	Temp
	#	s	Hz	ohm	ohm	V	ohm	°	A	V	#	A	V	°C
	0	5	100078.1	0.1064724	0.2374234	1	0.2602042	65.84618	0.0003699	3.824666	11	0.1596741	0.0412704	-327.67
	1	6	79453.13	0.0880274	0.1979004	1	0.216595	66.0202	0.000351	3.824657	11	0.1642599	0.0354149	-327.67
	2	8	63140.62	0.0737778	0.1642511	1	0.18006	65.81147	0.0003441	3.824654	11	0.161976	0.029076	-327.67
	3	10	50203.12	0.0628709	0.1358008	1	0.1496483	65.15755	0.0003349	3.824657	11	0.1609325	0.0240347	-327.67
	4	11	39890.62	0.0545859	0.1118781	1	0.1244843	63.99202	0.0003322	3.82465	11	0.1602771	0.0199259	-327.67
	5	13	31640.63	0.0482898	0.0918645	1	0.1037834	62.27073	0.0003267	3.824639	11	0.1598523	0.0165762	-327.67
	6	15	25171.88	0.0435313	0.0756181	1	0.0872529	60.07211	0.0003234	3.824629	11	0.1595489	0.0139137	-327.67
	7	17	20015.62	0.0397736	0.0622616	1	0.0738813	57.42897	0.0003252	3.824589	11	0.1593617	0.0117699	-327.67
	8	18	15890.62	0.0366732	0.0512176	1	0.0629934	54.39626	0.0003237	3.824594	11	0.1592208	0.0100277	-327.67
	9	20	12609.38	0.0340759	0.0420602	1	0.0541316	50.98668	0.0003199	3.824575	11	0.1591453	0.0086136	-327.67
	10	21	10078.13	0.0319913	0.0346069	1	0.0471283	47.24911	0.0003225	3.824578	11	0.1590918	0.0074971	-327.67
	11	23	8015.625	0.0302808	0.0281601	1	0.0413512	42.92184	0.0003174	3.824576	11	0.1590489	0.0065765	-327.67
	12	25	6328.125	0.0289634	0.0225428	1	0.0367023	37.89434	0.0003228	3.824565	11	0.159033	0.0058367	-327.67
	13	26	5015.625	0.0280738	0.0179119	1	0.0333012	32.53902	0.000323	3.824567	11	0.1590165	0.0052953	-327.67
	14	28	3984.375	0.0274827	0.0141116	1	0.030894	27.17928	0.000319	3.824573	11	0.1590077	0.0049123	-327.67
	15	29	3170.956	0.0271495	0.0109783	1	0.0292851	22.01672	0.0003227	3.824566	11	0.1590063	0.0046565	-327.67
	16	31	2527.573	0.0270177	0.0084124	1	0.0282971	17.29478	0.0003197	3.824563	11	0.1590049	0.0044993	-327.67
	17	32	1976.103	0.0270331	0.0061994	1	0.0277348	12.91618	0.0003147	3.824556	11	0.1590014	0.0044099	-327.67
	18	34	1577.524	0.0271574	0.0045421	1	0.0275347	9.494966	0.0003176	3.824548	11	0.159005	0.0043781	-327.67
	19	36	1265.625	0.0273212	0.0031919	1	0.027507	6.663511	0.0003179	3.824536	11	0.1589942	0.0043735	-327.67
	20	37	998.264	0.0275827	0.00206	1	0.0276595	4.271174	0.0003201	3.824543	11	0.1590047	0.004398	-327.67
	21	39	796.875	0.0278634	0.0011618	1	0.0278877	2.387681	0.0003174	3.824526	11	0.1589933	0.0044339	-327.67
	22	40	627.7902	0.0281809	0.0004443	1	0.0281844	0.9033004	0.0003175	3.824533	11	0.1590057	0.0044815	-327.67
	23	42	505.5147	0.0283593	0.0001371	1	0.0283596	0.2768912	0.0003093	3.824439	11	0.157601	0.0044695	-327.67
	24	43	397.9953	0.0287787	-0.000377	1	0.0287811	-0.750483	0.0003107	3.824435	11	0.1605993	0.0046222	-327.67
	25	45	315.5048	0.0291724	-0.0007383	1	0.0291818	-1.449794	0.0003144	3.824429	11	0.159338	0.0046498	-327.67
	26	46	252.4038	0.0295323	-0.0009835	1	0.0295487	-1.907302	0.0003118	3.82443	11	0.1589706	0.0046974	-327.67
	27	48	198.6229	0.0299005	-0.0011584	1	0.0299229	-2.21854	0.0003106	3.824424	11	0.158875	0.004754	-327.67
	28	49	158.3615	0.0302365	-0.0012628	1	0.0302629	-2.391501	0.0003005	3.82442	11	0.1588931	0.0048086	-327.67
	29	51	125.558	0.0305528	-0.0013096	1	0.0305809	-2.454413	0.0002995	3.824413	11	0.1589111	0.0048596	-327.67
	30	53	100.4464	0.0308432	-0.001316	1	0.0308713	-2.443158	0.0002975	3.824418	11	0.1589386	0.0049066	-327.67
	31	54	79.00281	0.0311288	-0.0012805	1	0.0311551	-2.355644	0.0002972	3.824411	11	0.1589552	0.0049523	-327.67
	32	56	63.3446	0.0313617	-0.0012187	1	0.0313854	-2.225332	0.0003014	3.824408	11	0.1589777	0.0049896	-327.67
	33	57	50.22321	0.0315833	-0.0011376	1	0.0316038	-2.06289	0.0003054	3.824403	11	0.1589845	0.0050245	-327.67
	34	59	38.42213	0.0317957	-0.0010366	1	0.0318126	-1.867258	0.0003107	3.824396	11	0.1589843	0.0050577	-327.67
	35	61	31.25	0.0319267	-0.0009408	1	0.0319405	-1.687891	0.0002963	3.824392	11	0.1589975	0.0050785	-327.67
	36	62	24.93351	0.0320543	-0.0008471	1	0.0320654	-1.513739	0.0003086	3.824387	11	0.1589952	0.0050983	-327.67
	37	64	19.86229	0.0321531	-0.00076	1	0.0321621	-1.35399	0.0003239	3.824389	11	0.1589927	0.0051135	-327.67
	38	65	15.625	0.0322477	-0.0006866	1	0.032255	-1.219804	0.000321	3.824383	11	0.1589893	0.0051282	-327.67
	39	67	12.40079	0.0323176	-0.0006283	1	0.0323237	-1.113779	0.0003301	3.824389	11	0.1589874	0.0051391	-327.67
	40	68	9.93114	0.0323665	-0.000575	1	0.0323716	-1.017848	0.0003388	3.824389	11	0.1589977	0.005147	-327.67
	41	70	7.944915	0.0324173	-0.0005381	1	0.0324218	-0.950964	0.0003165	3.824361	11	0.1590015	0.0051551	-327.67
	42	72	6.317385	0.0324658	-0.0005217	1	0.03247	-0.9205932	0.0002609	3.824372	11	0.1589909	0.0051624	-327.67
	43	74	5.008013	0.0325151	-0.0005198	1	0.0325192	-0.9158819	0.0003257	3.824364	11	0.1590339	0.0051717	-327.67
	44	76	3.945707	0.0325677	-0.0005331	1	0.032572	-0.9378224	0.0003358	3.824337	11	0.158984	0.0051784	-327.67
	45	79	3.158693	0.0326133	-0.0005521	1	0.032618	-0.969826	0.0004161	3.824313	11	0.1589596	0.0051849	-327.67
	46	81	2.504006	0.0325401	-0.0004954	1	0.0325439	-0.8722289	0.0003241	3.824268	11	0.1554737	0.0050597	-327.67
	47	85	1.998082	0.032631	-0.000586	1	0.0326363	-1.028764	0.0004795	3.824276	11	0.161383	0.0052669	-327.67
	48	89	1.584686	0.0327259	-0.0006765	1	0.0327328	-1.184235	0.0003211	3.824257	11	0.1598257	0.0052315	-327.67
	49	94	1.266892	0.0328203	-0.0007521	1	0.0328289	-1.312824	0.0002396	3.824301	11	0.1593259	0.0052305	-327.67
	50	100	0.999041	0.0329229	-0.0008558	1	0.0329341	-1.488943	0.0001892	3.824279	11	0.159108	0.0052401	-327.67
	51	104	0.7923428	0.0330294	-0.0009711	1	0.0330437	-1.684134	0.0002816	3.824274	11	0.1592859	0.0052634	-327.67
	52	112	0.6334459	0.0331488	-0.0010992	1	0.033167	-1.899263	0.00028	3.824254	11	0.1589829	0.005273	-327.67
	53	122	0.5040323	0.0332776	-0.0012425	1	0.0333007	-2.138271	0.0002822	3.824223	11	0.1589823	0.0052942	-327.67
	54	133	0.400641	0.0334413	-0.0014159	1	0.0334713	-2.424521	0.0002813	3.824202	11	0.1589862	0.0053215	-327.67
	55	145	0.316723	0.0336312	-0.0016117	1	0.0336698	-2.743759	0.0002804	3.824178	11	0.15899	0.0053532	-327.67
	56	159	0.2520161	0.0338386	-0.0018172	1	0.0338874	-3.07391	0.0002815	3.824138	11	0.1589925	0.0053878	-327.67
	57	180	0.2003205	0.0340942	-0.0020458	1	0.0341555	-3.433924	0.0002783	3.824083	11	0.1589956	0.0054306	-327.67
	58	206	0.1588983	0.0343708	-0.0022892	1	0.034447	-3.810391	0.0002831	3.824036	11	0.1589987	0.005477	-327.67
	59	232	0.1260081	0.0347016	-0.0025465	1	0.0347949	-4.196989	0.0002797	3.824063	11	0.1589979	0.0055323	-327.67
	60	262	0.1001603	0.035086	-0.0028251	1	0.0351996	-4.603412	0.000278	3.82413	11	0.159001	0.0055968	-327.67
	61	308	0.0794492	0.0355044	-0.0031286	1	0.0356419	-5.035845	0.0002804	3.824214	11	0.1589985	0.005667	-327.67
	62	348	0.0631739	0.0358317	-0.0034851	1	0.0360008	-5.555212	0.0002787	3.824005	11	0.1589988	0.0057241	-327.67
	63	397	0.0501337	0.0362381	-0.0038935	1	0.0364467	-6.132379	0.0002779	3.823865	11	0.1590009	0.0057951	-327.67
	64	458	0.0398258	0.0366962	-0.0043698	1	0.0369555	-6.790879	0.0002807	3.82373	11	0.159001	0.005876	-327.67
	65	535	0.0316296	0.0371833	-0.004947	1	0.0375109	-7.57838	0.0002799	3.82356	11	0.1589981	0.0059642	-327.67
	66	663	0.0251206	0.0377531	-0.0056368	1	0.0381716	-8.491976	0.0002798	3.8234	11	0.1590004	0.0060693	-327.67
	67	784	0.0199553	0.0383701	-0.0064682	1	0.0389115	-9.56861	0.0002816	3.823205	11	0.1589995	0.0061869	-327.67
	68	986	0.0158522	0.0391295	-0.0074694	1	0.039836	-10.80714	0.0002792	3.823001	11	0.1590002	0.0063339	-327.67
	69	1177	0.0125907	0.0400201	-0.0086763	1	0.0409498	-12.23231	0.0002784	3.822768	11	0.1590008	0.0065111	-327.67
	70	1496	0.0100011	0.0411293	-0.0100642	1	0.0423428	-13.74994	0.0002814	3.822557	11	0.1589987	0.0067324	-327.67
