EXPLAIN
TAG	GALVEIS
TITLE	LABEL	Galvanostatic EIS	Test Identifier
DATE	LABEL	7.2.2024	Date
TIME	LABEL	14:18:21	Time
NOTES	NOTES	1	Notes...
	
PSTAT	PSTAT	REF600-12055	Potentiostat
FREQINIT	QUANT	1.00000E+005	Initial Freq. (Hz)
FREQFINAL	QUANT	1.00000E-002	Final Freq. (Hz)
PTSPERDEC	QUANT	1.00000E+001	Points/decade
IACREQ	QUANT	1.59000E-001	AC Current (A rms)
IDCREQ	QUANT	0.00000E+000	DC Current (A)
AREA	QUANT	1.00000E+000	Sample Area (cm^2)
SPEED	SELECTOR	1	Optimize for:
DRIFTCOR	SELECTOR	0	Drift Correction
THD	SELECTOR	0	THD
ZGUESS	QUANT	1.00000E-001	Estimated Z (ohms)
EOC	QUANT	3.179316	Open Circuit (V)
SEQUENCER	TOGGLE	TRUE	Run as Sequence
PSTATMODEL	IQUANT	4	Pstat Model
PSTATSECTION	LABEL	REF600-12055	Pstat Section
PSTATSERIALNO	LABEL	12055	Pstat Serial Number
CTRLMODE	IQUANT	0	Control Mode
ELECTROMETER	IQUANT	0	RE=0 or CS=1
IESTAB	IQUANT	0	I/E Stability
CASPEED	IQUANT	4	Control Amp Speed
CONVENTION	IQUANT	1	Current Convention
ICHRANGE	IQUANT	2	Ich Range
ICHRANGEMODE	TOGGLE	F	Ich Auto Range
ICHOFFSETENABLE	TOGGLE	T	Ich Offset Enable
ICHOFFSET	QUANT	0	Ich Offset (V)
ICHFILTER	IQUANT	3	Ich Filter
VCHRANGE	IQUANT	2	Vch Range
VCHRANGEMODE	TOGGLE	F	Vch Auto Range
VCHOFFSETENABLE	TOGGLE	T	Vch Offset Enable
VCHOFFSET	QUANT	0	Vch Offset (V)
VCHFILTER	IQUANT	3	Vch Filter
ACHRANGE	IQUANT	2	Ach Range
ACHOFFSETENABLE	TOGGLE	F	Ach Offset Enable
ACHOFFSET	QUANT	0	Ach Offset (V)
ACHFILTER	IQUANT	1	Ach Filter
IERANGELOWERLIMIT	IQUANT	1	I/E Range Lower Limit
IERANGEMODE	TOGGLE	F	I/E AutoRange
IERANGE	IQUANT	7	I/E Range
POSFEEDENABLE	TOGGLE	F	Positive Feedback IR Comp
POSFEEDRESISTANCE	QUANT	0	Positive Feedback Resistance (ohm)
ACHSELECT	IQUANT	4	Ach Select
SENSECABLEID	IQUANT	14	Sense Cable ID
PWRCABLEID	IQUANT	14	Power Cable ID
DCCALDATE	LABEL		DC Calibration Date
ACCALDATE	LABEL		AC Calibration Date
THERMOSELECT	IQUANT	1	Thermo Select
FRAMEWORKVERSION	LABEL	7.10.3	Framework Version
INSTRUMENTVERSION	LABEL	4.91	Instrument Version
COMMVERSION	LABEL	2.24	Communications Version
CPUPLDVERSION	LABEL	0.00	CPU PLD Version
CTRLPLDVERSION	LABEL	0.00	CTRL PLD Version
PSTATPLDVERSION	LABEL	0.00	PSTAT PLD Version
ZCURVE	TABLE
	Pt	Time	Freq	Zreal	Zimag	Zsig	Zmod	Zphz	Idc	Vdc	IERange	Imod	Vmod	Temp
	#	s	Hz	ohm	ohm	V	ohm	°	A	V	#	A	V	°C
	0	5	100078.1	0.1046263	0.2387717	1	0.2606887	66.33766	0.0003624	3.178377	11	0.1596488	0.0413407	-327.67
	1	7	79453.13	0.0868982	0.198655	1	0.2168296	66.37386	0.0003551	3.178378	11	0.1642417	0.0354493	-327.67
	2	8	63140.62	0.0731675	0.1646354	1	0.1801619	66.03863	0.0003379	3.17836	11	0.1619477	0.0290873	-327.67
	3	10	50203.12	0.0626372	0.1359754	1	0.1497088	65.26678	0.0003353	3.178373	11	0.1609209	0.0240427	-327.67
	4	12	39890.62	0.0546388	0.1119123	1	0.1245382	63.97707	0.0003309	3.178359	11	0.16027	0.0199337	-327.67
	5	14	31640.63	0.0485352	0.0918275	1	0.1038651	62.1414	0.000327	3.178363	11	0.1598386	0.0165878	-327.67
	6	15	25171.88	0.0439044	0.0755386	1	0.0873709	59.83406	0.0003258	3.178357	11	0.1595439	0.013932	-327.67
	7	17	20015.62	0.0402444	0.0621506	1	0.0740426	57.07574	0.0003228	3.178315	11	0.1593511	0.0117948	-327.67
	8	19	15890.62	0.0372066	0.0510905	1	0.0632026	53.93606	0.0003228	3.178307	11	0.1592282	0.0100615	-327.67
	9	20	12609.38	0.0346702	0.0419268	1	0.0544047	50.4119	0.0003218	3.178302	11	0.1591443	0.008657	-327.67
	10	22	10078.13	0.0326262	0.0344663	1	0.0474593	46.57102	0.0003225	3.178311	11	0.1590796	0.0075492	-327.67
	11	23	8015.625	0.030946	0.0280047	1	0.0417362	42.14363	0.0003176	3.178302	11	0.159057	0.0066381	-327.67
	12	25	6328.125	0.0296536	0.0223789	1	0.0371504	37.04095	0.0003183	3.178301	11	0.1590304	0.0059078	-327.67
	13	27	5015.625	0.0287824	0.0177317	1	0.0338059	31.63557	0.0003215	3.178309	11	0.1590136	0.0053755	-327.67
	14	28	3984.375	0.0282211	0.0139061	1	0.0314613	26.23203	0.0003205	3.178307	11	0.1590103	0.0050026	-327.67
	15	30	3170.956	0.0279114	0.0107478	1	0.0299092	21.06011	0.0003219	3.178295	11	0.1590078	0.0047558	-327.67
	16	31	2527.573	0.0278019	0.0081777	1	0.0289797	16.3908	0.0003171	3.178294	11	0.1590084	0.004608	-327.67
	17	33	1976.103	0.0278251	0.0058624	1	0.0284359	11.89747	0.0003205	3.178299	11	0.1589924	0.0045211	-327.67
	18	34	1577.524	0.0279643	0.0041697	1	0.0282735	8.480762	0.0003206	3.178292	11	0.1590003	0.0044955	-327.67
	19	36	1265.625	0.0281769	0.0028446	1	0.0283201	5.764841	0.0003212	3.178292	11	0.1590055	0.004503	-327.67
	20	37	998.264	0.0284587	0.001549	1	0.0285009	3.115441	0.0003188	3.178299	11	0.1589939	0.0045315	-327.67
	21	39	796.875	0.0287776	0.0006413	1	0.0287847	1.276522	0.0003164	3.178285	11	0.158998	0.0045767	-327.67
	22	40	627.7902	0.0291904	-0.0001845	1	0.029191	-0.3621045	0.0003205	3.178298	11	0.1590062	0.0046415	-327.67
	23	42	505.5147	0.0294045	-0.0005205	1	0.0294091	-1.014128	0.0003123	3.178203	11	0.1575991	0.0046349	-327.67
	24	43	397.9953	0.0299033	-0.0011419	1	0.0299251	-2.186926	0.0003111	3.1782	11	0.1606013	0.004806	-327.67
	25	45	315.5048	0.0303963	-0.0016204	1	0.0304394	-3.051492	0.0003099	3.178198	11	0.1593409	0.0048502	-327.67
	26	46	252.4038	0.03087	-0.0019878	1	0.0309339	-3.684379	0.0003134	3.178197	11	0.1589644	0.0049174	-327.67
	27	48	198.6229	0.0313777	-0.0023045	1	0.0314622	-4.200521	0.0003099	3.178193	11	0.1588811	0.0049987	-327.67
	28	49	158.3615	0.0318583	-0.0025526	1	0.0319604	-4.580902	0.0003145	3.178197	11	0.1588876	0.0050781	-327.67
	29	51	125.558	0.0323554	-0.0027593	1	0.0324729	-4.874374	0.000311	3.178185	11	0.1589189	0.0051606	-327.67
	30	53	100.4464	0.0328319	-0.0029331	1	0.0329627	-5.105009	0.0003047	3.178185	11	0.1589374	0.005239	-327.67
	31	54	79.00281	0.0333481	-0.0030988	1	0.0334917	-5.308816	0.0003136	3.178205	11	0.1589565	0.0053237	-327.67
	32	56	63.3446	0.0338235	-0.0032252	1	0.0339769	-5.446945	0.000309	3.178192	11	0.158978	0.0054016	-327.67
	33	58	50.22321	0.0343247	-0.0033471	1	0.0344875	-5.569527	0.0003173	3.178182	11	0.1589816	0.0054829	-327.67
	34	59	38.42213	0.0349017	-0.0034797	1	0.0350748	-5.693563	0.0003082	3.178221	11	0.1589868	0.0055764	-327.67
	35	61	31.25	0.0353305	-0.0036252	1	0.035516	-5.858555	0.0003226	3.178152	11	0.1589867	0.0056466	-327.67
	36	62	24.93351	0.0357964	-0.0037552	1	0.0359928	-5.988657	0.00031	3.178206	11	0.1590027	0.005723	-327.67
	37	64	19.86229	0.0362765	-0.0039716	1	0.0364932	-6.247962	0.0003388	3.178136	11	0.1589701	0.0058013	-327.67
	38	65	15.625	0.0368317	-0.0042087	1	0.0370714	-6.518794	0.0003069	3.178272	11	0.1590139	0.0058949	-327.67
	39	67	12.40079	0.0373405	-0.0044737	1	0.0376075	-6.831942	0.0003185	3.178282	11	0.1589965	0.0059795	-327.67
	40	68	9.93114	0.0378522	-0.0048591	1	0.0381628	-7.315032	0.0003077	3.178218	11	0.1590092	0.0060682	-327.67
	41	70	7.944915	0.0384303	-0.0052931	1	0.0387932	-7.842187	0.0002879	3.178159	11	0.1589776	0.0061672	-327.67
	42	72	6.317385	0.0391774	-0.0057705	1	0.0396001	-8.378919	0.0002241	3.178186	11	0.1590326	0.0062977	-327.67
	43	74	5.008013	0.040037	-0.0063323	1	0.0405347	-8.987496	0.0003503	3.178163	11	0.158977	0.0064441	-327.67
	44	76	3.945707	0.0410236	-0.0069606	1	0.0416099	-9.6298	0.0003469	3.178118	11	0.1589859	0.0066154	-327.67
	45	78	3.158693	0.0421265	-0.0074905	1	0.0427872	-10.0824	0.0003823	3.17809	11	0.159012	0.0068037	-327.67
	46	81	2.504006	0.0432024	-0.007814	1	0.0439033	-10.25226	0.0002842	3.178081	11	0.1554234	0.0068236	-327.67
	47	84	1.998082	0.0445617	-0.0083425	1	0.0453359	-10.60375	0.0005809	3.178179	11	0.1615145	0.0073224	-327.67
	48	89	1.584686	0.0460837	-0.0087118	1	0.0468999	-10.70506	0.0005485	3.178149	11	0.1598424	0.0074966	-327.67
	49	93	1.266892	0.04758	-0.0089267	1	0.0484102	-10.62597	6.618176E-005	3.178217	11	0.1593379	0.0077136	-327.67
	50	98	0.999041	0.0491632	-0.0090558	1	0.0499903	-10.43679	5.014718E-005	3.178125	11	0.1591041	0.0079537	-327.67
	51	103	0.7923428	0.0507362	-0.0090315	1	0.0515338	-10.09343	0.0002823	3.178234	11	0.1591268	0.0082004	-327.67
	52	109	0.6334459	0.0521248	-0.0089547	1	0.0528884	-9.74791	0.000281	3.178227	11	0.158983	0.0084083	-327.67
	53	117	0.5040323	0.0534648	-0.0088366	1	0.0541901	-9.38494	0.000281	3.178227	11	0.1589829	0.0086153	-327.67
	54	127	0.400641	0.0547173	-0.0087137	1	0.0554068	-9.048306	0.0002813	3.178228	11	0.1589861	0.0088089	-327.67
	55	138	0.316723	0.0559111	-0.0086146	1	0.0565709	-8.759053	0.0002805	3.178229	11	0.158989	0.0089941	-327.67
	56	155	0.2520161	0.0570202	-0.0085823	1	0.0576625	-8.559533	0.000281	3.178245	11	0.1589945	0.009168	-327.67
	57	173	0.2003205	0.0580691	-0.008633	1	0.0587073	-8.456069	0.0002795	3.178272	11	0.1589965	0.0093343	-327.67
	58	194	0.1588983	0.0590942	-0.0087928	1	0.0597448	-8.463155	0.0002802	3.178301	11	0.1589967	0.0094992	-327.67
	59	226	0.1260081	0.0601316	-0.0090616	1	0.0608105	-8.569769	0.0002799	3.178628	11	0.1589989	0.0096688	-327.67
	60	264	0.1001603	0.0611836	-0.0094261	1	0.0619055	-8.758244	0.0002804	3.179359	11	0.1589967	0.0098428	-327.67
	61	300	0.0794492	0.0621882	-0.00997	1	0.0629824	-9.108168	0.0002736	3.180134	11	0.1590007	0.0100142	-327.67
	62	352	0.0631739	0.0631199	-0.0107237	1	0.0640244	-9.64215	0.0002826	3.17999	11	0.1590004	0.0101799	-327.67
	63	401	0.0501337	0.0641581	-0.0116575	1	0.0652086	-10.29827	0.0002833	3.180041	11	0.1589977	0.010368	-327.67
	64	482	0.0398258	0.0652492	-0.0128333	1	0.0664992	-11.12696	0.0002805	3.180188	11	0.1590021	0.0105735	-327.67
	65	584	0.0316296	0.0664206	-0.0143039	1	0.0679433	-12.15319	0.0002795	3.180409	11	0.1589991	0.0108029	-327.67
	66	712	0.0251206	0.0676234	-0.0161355	1	0.0695218	-13.42028	0.0002806	3.180718	11	0.159	0.011054	-327.67
	67	873	0.0199553	0.0689373	-0.018393	1	0.0713488	-14.93899	0.0002816	3.181124	11	0.1590004	0.0113445	-327.67
	68	1025	0.0158522	0.0704785	-0.0212055	1	0.0735996	-16.74544	0.0002805	3.18166	11	0.1589987	0.0117022	-327.67
	69	1279	0.0125907	0.0723082	-0.0245996	1	0.0763781	-18.78858	0.0002804	3.182348	11	0.1590009	0.0121442	-327.67
	70	1519	0.0100011	0.0742929	-0.0286229	1	0.0796159	-21.07021	0.0002801	3.183197	11	0.158999	0.0126589	-327.67
