EXPLAIN
TAG	GALVEIS
TITLE	LABEL	Galvanostatic EIS	Test Identifier
DATE	LABEL	8.2.2024	Date
TIME	LABEL	1:11:06	Time
NOTES	NOTES	1	Notes...
	
PSTAT	PSTAT	REF600-12055	Potentiostat
FREQINIT	QUANT	1.00000E+005	Initial Freq. (Hz)
FREQFINAL	QUANT	1.00000E-002	Final Freq. (Hz)
PTSPERDEC	QUANT	1.00000E+001	Points/decade
IACREQ	QUANT	1.59000E-001	AC Current (A rms)
IDCREQ	QUANT	0.00000E+000	DC Current (A)
AREA	QUANT	1.00000E+000	Sample Area (cm^2)
SPEED	SELECTOR	1	Optimize for:
DRIFTCOR	SELECTOR	0	Drift Correction
THD	SELECTOR	0	THD
ZGUESS	QUANT	1.00000E-001	Estimated Z (ohms)
EOC	QUANT	4.007178	Open Circuit (V)
SEQUENCER	TOGGLE	TRUE	Run as Sequence
PSTATMODEL	IQUANT	4	Pstat Model
PSTATSECTION	LABEL	REF600-12055	Pstat Section
PSTATSERIALNO	LABEL	12055	Pstat Serial Number
CTRLMODE	IQUANT	0	Control Mode
ELECTROMETER	IQUANT	0	RE=0 or CS=1
IESTAB	IQUANT	0	I/E Stability
CASPEED	IQUANT	4	Control Amp Speed
CONVENTION	IQUANT	1	Current Convention
ICHRANGE	IQUANT	2	Ich Range
ICHRANGEMODE	TOGGLE	F	Ich Auto Range
ICHOFFSETENABLE	TOGGLE	T	Ich Offset Enable
ICHOFFSET	QUANT	0	Ich Offset (V)
ICHFILTER	IQUANT	3	Ich Filter
VCHRANGE	IQUANT	2	Vch Range
VCHRANGEMODE	TOGGLE	F	Vch Auto Range
VCHOFFSETENABLE	TOGGLE	T	Vch Offset Enable
VCHOFFSET	QUANT	0	Vch Offset (V)
VCHFILTER	IQUANT	3	Vch Filter
ACHRANGE	IQUANT	2	Ach Range
ACHOFFSETENABLE	TOGGLE	F	Ach Offset Enable
ACHOFFSET	QUANT	0	Ach Offset (V)
ACHFILTER	IQUANT	1	Ach Filter
IERANGELOWERLIMIT	IQUANT	1	I/E Range Lower Limit
IERANGEMODE	TOGGLE	F	I/E AutoRange
IERANGE	IQUANT	7	I/E Range
POSFEEDENABLE	TOGGLE	F	Positive Feedback IR Comp
POSFEEDRESISTANCE	QUANT	0	Positive Feedback Resistance (ohm)
ACHSELECT	IQUANT	4	Ach Select
SENSECABLEID	IQUANT	14	Sense Cable ID
PWRCABLEID	IQUANT	14	Power Cable ID
DCCALDATE	LABEL		DC Calibration Date
ACCALDATE	LABEL		AC Calibration Date
THERMOSELECT	IQUANT	1	Thermo Select
FRAMEWORKVERSION	LABEL	7.10.3	Framework Version
INSTRUMENTVERSION	LABEL	4.91	Instrument Version
COMMVERSION	LABEL	2.24	Communications Version
CPUPLDVERSION	LABEL	0.00	CPU PLD Version
CTRLPLDVERSION	LABEL	0.00	CTRL PLD Version
PSTATPLDVERSION	LABEL	0.00	PSTAT PLD Version
ZCURVE	TABLE
	Pt	Time	Freq	Zreal	Zimag	Zsig	Zmod	Zphz	Idc	Vdc	IERange	Imod	Vmod	Temp
	#	s	Hz	ohm	ohm	V	ohm	°	A	V	#	A	V	°C
	0	5	100078.1	0.1063861	0.2370244	1	0.2598048	65.82754	0.0003668	4.006237	11	0.1596905	0.0412113	-327.67
	1	7	79453.13	0.0879855	0.1975845	1	0.2162894	65.99631	0.0003546	4.006238	11	0.1642361	0.0353598	-327.67
	2	8	63140.62	0.0737385	0.1640146	1	0.1798282	65.79205	0.0003408	4.006234	11	0.1619801	0.0290393	-327.67
	3	10	50203.12	0.0628566	0.1356134	1	0.1494722	65.13235	0.0003351	4.006227	11	0.1609472	0.0240087	-327.67
	4	12	39890.62	0.0545789	0.1117076	1	0.124328	63.96047	0.0003297	4.006222	11	0.160279	0.0199012	-327.67
	5	13	31640.63	0.0482876	0.0917267	1	0.1036604	62.23635	0.0003243	4.006208	11	0.1598514	0.0165564	-327.67
	6	15	25171.88	0.0435241	0.0755045	1	0.0871509	60.03893	0.000323	4.006211	11	0.15955	0.0138975	-327.67
	7	17	20015.62	0.0397852	0.0621651	1	0.0738063	57.38106	0.0003261	4.006166	11	0.1593637	0.011758	-327.67
	8	19	15890.62	0.03668	0.051138	1	0.0629326	54.34905	0.0003191	4.006163	11	0.1592246	0.0100183	-327.67
	9	20	12609.38	0.0340858	0.041984	1	0.0540786	50.92773	0.0003119	4.006165	11	0.1591425	0.008605	-327.67
	10	22	10078.13	0.0320099	0.0345382	1	0.0470906	47.1758	0.0003134	4.006155	11	0.1590876	0.0074909	-327.67
	11	23	8015.625	0.0303087	0.0280983	1	0.0413296	42.83267	0.0003176	4.006151	11	0.1590584	0.0065735	-327.67
	12	25	6328.125	0.0290046	0.0224716	1	0.0366911	37.76702	0.0003229	4.006152	11	0.1590328	0.0058349	-327.67
	13	26	5015.625	0.0281026	0.017865	1	0.0333003	32.44437	0.0003202	4.00614	11	0.1590166	0.0052952	-327.67
	14	28	3984.375	0.0275333	0.0140598	1	0.0309154	27.051	0.0003193	4.006133	11	0.1590057	0.0049157	-327.67
	15	29	3170.956	0.0272049	0.0109027	1	0.0293083	21.83906	0.0003201	4.006135	11	0.1590052	0.0046601	-327.67
	16	31	2527.573	0.0270784	0.00836	1	0.0283395	17.15714	0.000319	4.006124	11	0.1590024	0.004506	-327.67
	17	33	1976.103	0.0270984	0.0060605	1	0.0277678	12.60672	0.0003218	4.006124	11	0.1590022	0.0044151	-327.67
	18	34	1577.524	0.0272339	0.0044569	1	0.0275962	9.294147	0.0003185	4.006115	11	0.159008	0.004388	-327.67
	19	36	1265.625	0.0274128	0.0031265	1	0.0275905	6.506686	0.0003138	4.006104	11	0.1589913	0.0043866	-327.67
	20	37	998.264	0.0276978	0.0019087	1	0.0277635	3.942123	0.0003073	4.006108	11	0.1590024	0.0044145	-327.67
	21	39	796.875	0.0279649	0.0010779	1	0.0279856	2.207438	0.0003092	4.006108	11	0.1589958	0.0044496	-327.67
	22	40	627.7902	0.0283314	0.0003207	1	0.0283332	0.6485202	0.0003089	4.006103	11	0.1590058	0.0045051	-327.67
	23	42	505.5147	0.0284925	6.340296E-005	1	0.0284926	0.1274973	0.0002957	4.006006	11	0.1575989	0.0044904	-327.67
	24	43	397.9953	0.0289123	-0.000459	1	0.028916	-0.9094582	0.0003136	4.006003	11	0.1606038	0.004644	-327.67
	25	45	315.5048	0.0293162	-0.0008206	1	0.0293277	-1.603354	0.000312	4.006001	11	0.1593359	0.004673	-327.67
	26	46	252.4038	0.0296859	-0.0010725	1	0.0297052	-2.069034	0.0003065	4.005996	11	0.1589686	0.0047222	-327.67
	27	48	198.6229	0.0300694	-0.0012613	1	0.0300958	-2.401876	0.00031	4.005992	11	0.1588774	0.0047815	-327.67
	28	49	158.3615	0.0304152	-0.0013701	1	0.0304461	-2.579301	0.0003091	4.005987	11	0.158889	0.0048375	-327.67
	29	51	125.558	0.0307479	-0.0014325	1	0.0307813	-2.667402	0.0003036	4.005986	11	0.1589108	0.0048915	-327.67
	30	52	100.4464	0.0310619	-0.0014504	1	0.0310957	-2.673424	0.0003111	4.00598	11	0.1589438	0.0049425	-327.67
	31	54	79.00281	0.0313685	-0.0014279	1	0.031401	-2.606309	0.0003098	4.005973	11	0.1589597	0.0049915	-327.67
	32	55	63.3446	0.031634	-0.0013779	1	0.031664	-2.494085	0.0003097	4.005968	11	0.1589724	0.0050337	-327.67
	33	57	50.22321	0.031883	-0.0012922	1	0.0319092	-2.320944	0.0003058	4.005965	11	0.1589828	0.005073	-327.67
	34	59	38.42213	0.0321334	-0.0011812	1	0.0321551	-2.105201	0.0003131	4.005964	11	0.15899	0.0051123	-327.67
	35	60	31.25	0.0322939	-0.0010963	1	0.0323125	-1.944339	0.0002941	4.005958	11	0.1589847	0.0051372	-327.67
	36	62	24.93351	0.0324457	-0.0009842	1	0.0324606	-1.73741	0.0003	4.005947	11	0.1590041	0.0051614	-327.67
	37	63	19.86229	0.0325694	-0.0008862	1	0.0325814	-1.558663	0.000268	4.005948	11	0.1589735	0.0051796	-327.67
	38	65	15.625	0.0326765	-0.0007899	1	0.032686	-1.384687	0.0002899	4.005942	11	0.1590082	0.0051973	-327.67
	39	66	12.40079	0.0327632	-0.0006999	1	0.0327707	-1.223728	0.0002797	4.005932	11	0.1589894	0.0052102	-327.67
	40	67	9.93114	0.0328334	-0.0006427	1	0.0328397	-1.121339	0.0002815	4.005917	11	0.1589962	0.0052214	-327.67
	41	69	7.944915	0.0328874	-0.0006136	1	0.0328932	-1.068925	0.0003084	4.005932	11	0.1589996	0.00523	-327.67
	42	71	6.317385	0.0329425	-0.0005793	1	0.0329476	-1.007469	0.0003391	4.00591	11	0.158982	0.0052381	-327.67
	43	73	5.008013	0.0330021	-0.0005599	1	0.0330068	-0.971927	0.0002814	4.005909	11	0.1590363	0.0052493	-327.67
	44	76	3.945707	0.0330454	-0.0005605	1	0.0330502	-0.97178	0.0002992	4.00591	11	0.1590004	0.005255	-327.67
	45	78	3.158693	0.0330976	-0.0005721	1	0.0331026	-0.990329	0.0002201	4.005914	11	0.1589745	0.0052625	-327.67
	46	82	2.504006	0.0330256	-0.0005106	1	0.0330295	-0.8858434	0.0002703	4.005896	11	0.1554361	0.005134	-327.67
	47	86	1.998082	0.0331267	-0.0005889	1	0.0331319	-1.018529	0.0002856	4.005898	11	0.161335	0.0053453	-327.67
	48	90	1.584686	0.0332187	-0.0006724	1	0.0332255	-1.15959	0.0004865	4.005878	11	0.1599454	0.0053143	-327.67
	49	96	1.266892	0.0333074	-0.0007524	1	0.0333159	-1.294068	0.0002342	4.005806	11	0.1592588	0.0053058	-327.67
	50	103	0.999041	0.0334084	-0.0008433	1	0.033419	-1.446043	0.000298	4.005782	11	0.1590738	0.0053161	-327.67
	51	108	0.7923428	0.0335323	-0.0009334	1	0.0335453	-1.59447	0.0002845	4.00584	11	0.1593304	0.0053448	-327.67
	52	116	0.6334459	0.0336473	-0.0010465	1	0.0336636	-1.78146	0.0002816	4.005816	11	0.1589842	0.005352	-327.67
	53	124	0.5040323	0.0337733	-0.0011892	1	0.0337942	-2.016638	0.0002836	4.005777	11	0.1589835	0.0053727	-327.67
	54	135	0.400641	0.0339357	-0.0013353	1	0.033962	-2.253273	0.0002821	4.005739	11	0.1589857	0.0053995	-327.67
	55	149	0.316723	0.0341204	-0.0015104	1	0.0341539	-2.53467	0.000283	4.005707	11	0.1589902	0.0054301	-327.67
	56	164	0.2520161	0.0343279	-0.0016873	1	0.0343693	-2.813993	0.0002789	4.005672	11	0.1589929	0.0054645	-327.67
	57	181	0.2003205	0.0345555	-0.0018681	1	0.034606	-3.094417	0.0002805	4.005614	11	0.1589984	0.0055023	-327.67
	58	207	0.1588983	0.0348201	-0.0020717	1	0.0348816	-3.404882	0.0002839	4.00555	11	0.1589953	0.005546	-327.67
	59	239	0.1260081	0.0351211	-0.0022836	1	0.0351953	-3.720098	0.0002814	4.005548	11	0.1589987	0.005596	-327.67
	60	277	0.1001603	0.0354788	-0.0025014	1	0.0355669	-4.032862	0.000286	4.005637	11	0.1589983	0.0056551	-327.67
	61	313	0.0794492	0.0358094	-0.0027544	1	0.0359152	-4.398456	0.000285	4.005671	11	0.1589994	0.0057105	-327.67
	62	365	0.0631739	0.0361174	-0.0030299	1	0.0362443	-4.795403	0.0002808	4.005466	11	0.1589997	0.0057628	-327.67
	63	414	0.0501337	0.0364488	-0.0033629	1	0.0366036	-5.271424	0.0002815	4.00531	11	0.1590011	0.00582	-327.67
	64	496	0.0398258	0.0368336	-0.0037326	1	0.0370223	-5.786385	0.0002802	4.005167	11	0.1589999	0.0058865	-327.67
	65	572	0.0316296	0.0372632	-0.0041999	1	0.0374991	-6.430593	0.0002785	4.005049	11	0.1590003	0.0059624	-327.67
	66	669	0.0251206	0.0377072	-0.0047298	1	0.0380027	-7.14957	0.000282	4.004916	11	0.1589999	0.0060424	-327.67
	67	790	0.0199553	0.0382098	-0.0053995	1	0.0385894	-8.043358	0.0002819	4.004738	11	0.1589996	0.0061357	-327.67
	68	992	0.0158522	0.0387878	-0.0061605	1	0.039274	-9.024641	0.0002803	4.00452	11	0.1590005	0.0062446	-327.67
	69	1246	0.0125907	0.0394641	-0.0070635	1	0.0400912	-10.14771	0.0002819	4.004366	11	0.1589998	0.0063745	-327.67
	70	1486	0.0100011	0.040247	-0.0080877	1	0.0410515	-11.3624	0.000281	4.004187	11	0.1589999	0.0065272	-327.67
