EXPLAIN
TAG	GALVEIS
TITLE	LABEL	Galvanostatic EIS	Test Identifier
DATE	LABEL	7.2.2024	Date
TIME	LABEL	16:53:17	Time
NOTES	NOTES	1	Notes...
	
PSTAT	PSTAT	REF600-12055	Potentiostat
FREQINIT	QUANT	1.00000E+005	Initial Freq. (Hz)
FREQFINAL	QUANT	1.00000E-002	Final Freq. (Hz)
PTSPERDEC	QUANT	1.00000E+001	Points/decade
IACREQ	QUANT	1.59000E-001	AC Current (A rms)
IDCREQ	QUANT	0.00000E+000	DC Current (A)
AREA	QUANT	1.00000E+000	Sample Area (cm^2)
SPEED	SELECTOR	1	Optimize for:
DRIFTCOR	SELECTOR	0	Drift Correction
THD	SELECTOR	0	THD
ZGUESS	QUANT	1.00000E-001	Estimated Z (ohms)
EOC	QUANT	3.502292	Open Circuit (V)
SEQUENCER	TOGGLE	TRUE	Run as Sequence
PSTATMODEL	IQUANT	4	Pstat Model
PSTATSECTION	LABEL	REF600-12055	Pstat Section
PSTATSERIALNO	LABEL	12055	Pstat Serial Number
CTRLMODE	IQUANT	0	Control Mode
ELECTROMETER	IQUANT	0	RE=0 or CS=1
IESTAB	IQUANT	0	I/E Stability
CASPEED	IQUANT	4	Control Amp Speed
CONVENTION	IQUANT	1	Current Convention
ICHRANGE	IQUANT	2	Ich Range
ICHRANGEMODE	TOGGLE	F	Ich Auto Range
ICHOFFSETENABLE	TOGGLE	T	Ich Offset Enable
ICHOFFSET	QUANT	0	Ich Offset (V)
ICHFILTER	IQUANT	3	Ich Filter
VCHRANGE	IQUANT	2	Vch Range
VCHRANGEMODE	TOGGLE	F	Vch Auto Range
VCHOFFSETENABLE	TOGGLE	T	Vch Offset Enable
VCHOFFSET	QUANT	0	Vch Offset (V)
VCHFILTER	IQUANT	3	Vch Filter
ACHRANGE	IQUANT	2	Ach Range
ACHOFFSETENABLE	TOGGLE	F	Ach Offset Enable
ACHOFFSET	QUANT	0	Ach Offset (V)
ACHFILTER	IQUANT	1	Ach Filter
IERANGELOWERLIMIT	IQUANT	1	I/E Range Lower Limit
IERANGEMODE	TOGGLE	F	I/E AutoRange
IERANGE	IQUANT	7	I/E Range
POSFEEDENABLE	TOGGLE	F	Positive Feedback IR Comp
POSFEEDRESISTANCE	QUANT	0	Positive Feedback Resistance (ohm)
ACHSELECT	IQUANT	4	Ach Select
SENSECABLEID	IQUANT	14	Sense Cable ID
PWRCABLEID	IQUANT	14	Power Cable ID
DCCALDATE	LABEL		DC Calibration Date
ACCALDATE	LABEL		AC Calibration Date
THERMOSELECT	IQUANT	1	Thermo Select
FRAMEWORKVERSION	LABEL	7.10.3	Framework Version
INSTRUMENTVERSION	LABEL	4.91	Instrument Version
COMMVERSION	LABEL	2.24	Communications Version
CPUPLDVERSION	LABEL	0.00	CPU PLD Version
CTRLPLDVERSION	LABEL	0.00	CTRL PLD Version
PSTATPLDVERSION	LABEL	0.00	PSTAT PLD Version
ZCURVE	TABLE
	Pt	Time	Freq	Zreal	Zimag	Zsig	Zmod	Zphz	Idc	Vdc	IERange	Imod	Vmod	Temp
	#	s	Hz	ohm	ohm	V	ohm	°	A	V	#	A	V	°C
	0	5	100078.1	0.1060363	0.2383471	1	0.2608698	66.01659	0.0003716	3.50133	11	0.1596538	0.0413707	-327.67
	1	6	79453.13	0.0877624	0.1985262	1	0.2170596	66.15124	0.0003551	3.501328	11	0.16426	0.0354909	-327.67
	2	8	63140.62	0.0736368	0.1646727	1	0.180387	65.9072	0.0003427	3.50132	11	0.1619822	0.0291299	-327.67
	3	10	50203.12	0.0628281	0.1361073	1	0.1499085	65.22161	0.0003306	3.50131	11	0.1609323	0.0240765	-327.67
	4	12	39890.62	0.0546286	0.1120808	1	0.1246851	64.01521	0.0003297	3.501299	11	0.1602735	0.0199576	-327.67
	5	13	31640.63	0.0483831	0.0920168	1	0.1039616	62.26429	0.0003273	3.501296	11	0.159849	0.0166043	-327.67
	6	15	25171.88	0.0436643	0.0757281	1	0.0874147	60.03254	0.0003244	3.501303	11	0.1595518	0.0139397	-327.67
	7	17	20015.62	0.0399205	0.0623382	1	0.074025	57.3651	0.0003204	3.501256	11	0.1593572	0.0117924	-327.67
	8	18	15890.62	0.0368291	0.051292	1	0.0631447	54.32055	0.000324	3.501237	11	0.1592316	0.0100525	-327.67
	9	20	12609.38	0.0342424	0.0421141	1	0.0542784	50.88587	0.0003205	3.501239	11	0.1591415	0.0086368	-327.67
	10	22	10078.13	0.0321603	0.0346444	1	0.0472707	47.12951	0.000323	3.501234	11	0.1590858	0.0075194	-327.67
	11	24	8015.625	0.0304666	0.0281955	1	0.0415115	42.78292	0.000323	3.501229	11	0.1590552	0.0066023	-327.67
	12	25	6328.125	0.0291495	0.0225488	1	0.036853	37.7239	0.0003223	3.501226	11	0.1590298	0.0058605	-327.67
	13	27	5015.625	0.0282308	0.0179347	1	0.033446	32.42741	0.0003183	3.501208	11	0.1590136	0.0053182	-327.67
	14	28	3984.375	0.0276466	0.014102	1	0.0310355	27.02523	0.0003116	3.501206	11	0.159009	0.0049349	-327.67
	15	30	3170.956	0.027311	0.0109632	1	0.0294293	21.87147	0.0003217	3.501203	11	0.1590077	0.0046794	-327.67
	16	32	2527.573	0.0271906	0.0083828	1	0.0284535	17.13433	0.0003076	3.501183	11	0.1590069	0.0045243	-327.67
	17	33	1976.103	0.0271885	0.0060912	1	0.0278625	12.62772	0.0003118	3.501185	11	0.1590003	0.0044301	-327.67
	18	35	1577.524	0.0273097	0.0044606	1	0.0276716	9.276405	0.0003046	3.501176	11	0.1590073	0.0044	-327.67
	19	37	1265.625	0.0274859	0.0030206	1	0.0276514	6.271377	0.0003188	3.501161	11	0.158986	0.0043962	-327.67
	20	38	998.264	0.0277614	0.0018779	1	0.0278249	3.869821	0.0003182	3.501157	11	0.1590103	0.0044244	-327.67
	21	40	796.875	0.0280435	0.0009822	1	0.0280607	2.005982	0.0003211	3.501153	11	0.1589963	0.0044615	-327.67
	22	41	627.7902	0.0283879	0.0001642	1	0.0283884	0.3313559	0.0003213	3.50115	11	0.1589962	0.0045136	-327.67
	23	43	505.5147	0.0285785	-0.0001344	1	0.0285789	-0.2694825	0.0003103	3.50106	11	0.1576009	0.0045041	-327.67
	24	44	397.9953	0.0290291	-0.0007022	1	0.0290376	-1.385643	0.0003107	3.501049	11	0.1606018	0.0046635	-327.67
	25	46	315.5048	0.0294584	-0.0011301	1	0.0294801	-2.196958	0.0003125	3.501044	11	0.1593418	0.0046974	-327.67
	26	47	252.4038	0.0298734	-0.0014367	1	0.029908	-2.753337	0.000309	3.501039	11	0.1589667	0.0047544	-327.67
	27	49	198.6229	0.0303079	-0.0016875	1	0.0303548	-3.186903	0.0003003	3.50103	11	0.1588764	0.0048227	-327.67
	28	50	158.3615	0.0307188	-0.0018595	1	0.030775	-3.464097	0.0003016	3.501026	11	0.1588959	0.00489	-327.67
	29	52	125.558	0.0311328	-0.001992	1	0.0311965	-3.661012	0.000305	3.501018	11	0.1589115	0.0049575	-327.67
	30	53	100.4464	0.0315229	-0.0020742	1	0.0315911	-3.764561	0.0003151	3.501017	11	0.1589369	0.005021	-327.67
	31	55	79.00281	0.0319361	-0.0021268	1	0.0320069	-3.809957	0.0003121	3.501009	11	0.1589592	0.0050878	-327.67
	32	57	63.3446	0.0323085	-0.0021466	1	0.0323797	-3.801214	0.0003114	3.501001	11	0.1589723	0.0051475	-327.67
	33	59	50.22321	0.0326985	-0.0021267	1	0.0327676	-3.721329	0.0003138	3.500995	11	0.1589883	0.0052097	-327.67
	34	60	38.42213	0.0331281	-0.0020847	1	0.0331936	-3.60073	0.0003117	3.500994	11	0.1589806	0.0052771	-327.67
	35	62	31.25	0.0334474	-0.0020144	1	0.033508	-3.446474	0.0003234	3.500989	11	0.1589928	0.0053275	-327.67
	36	63	24.93351	0.0337769	-0.0019259	1	0.0338317	-3.263413	0.0003122	3.500983	11	0.1590042	0.0053794	-327.67
	37	65	19.86229	0.0340837	-0.0018249	1	0.0341325	-3.064818	0.0003169	3.500968	11	0.158993	0.0054268	-327.67
	38	67	15.625	0.0343839	-0.0016871	1	0.0344253	-2.809117	0.0002934	3.500973	11	0.15898	0.0054729	-327.67
	39	68	12.40079	0.0346334	-0.0015686	1	0.0346689	-2.593219	0.0002909	3.500963	11	0.1589978	0.0055123	-327.67
	40	69	9.93114	0.0348452	-0.0014133	1	0.0348738	-2.322638	0.000301	3.500951	11	0.159007	0.0055452	-327.67
	41	71	7.944915	0.0350188	-0.0012865	1	0.0350424	-2.104026	0.0003264	3.500937	11	0.1589871	0.0055713	-327.67
	42	73	6.317385	0.0351779	-0.0011666	1	0.0351973	-1.899322	0.0002482	3.50094	11	0.1590042	0.0055965	-327.67
	43	75	5.008013	0.0353074	-0.0010591	1	0.0353233	-1.71824	0.0003268	3.500937	11	0.1590225	0.0056172	-327.67
	44	77	3.945707	0.0354252	-0.0009741	1	0.0354386	-1.575043	0.0003422	3.500921	11	0.1589737	0.0056338	-327.67
	45	80	3.158693	0.0355221	-0.000909	1	0.0355337	-1.465934	0.0003434	3.500911	11	0.1590357	0.0056511	-327.67
	46	82	2.504006	0.03546	-0.0007665	1	0.0354683	-1.238279	0.0002644	3.500887	11	0.1553866	0.0055113	-327.67
	47	86	1.998082	0.0355767	-0.0007921	1	0.0355855	-1.275391	0.000569	3.500909	11	0.1615158	0.0057476	-327.67
	48	90	1.584686	0.0356867	-0.0008151	1	0.035696	-1.308423	0.0006131	3.500889	11	0.1599283	0.0057088	-327.67
	49	94	1.266892	0.0357864	-0.0008241	1	0.0357959	-1.319257	3.608945E-005	3.500861	11	0.1592997	0.0057023	-327.67
	50	99	0.999041	0.035886	-0.0008764	1	0.0358967	-1.398935	4.875357E-005	3.500817	11	0.1590661	0.00571	-327.67
	51	105	0.7923428	0.0360016	-0.0009293	1	0.0360136	-1.478605	0.0002799	3.50084	11	0.1591404	0.0057312	-327.67
	52	112	0.6334459	0.0361065	-0.0010051	1	0.0361205	-1.594543	0.0002795	3.500803	11	0.1589834	0.0057426	-327.67
	53	122	0.5040323	0.0362263	-0.0010953	1	0.0362429	-1.731825	0.0002789	3.500778	11	0.1589813	0.0057619	-327.67
	54	131	0.400641	0.0363481	-0.0012075	1	0.0363681	-1.902709	0.0002841	3.50074	11	0.1589869	0.0057821	-327.67
	55	145	0.316723	0.036498	-0.0013424	1	0.0365227	-2.106316	0.0002823	3.5007	11	0.1589898	0.0058067	-327.67
	56	160	0.2520161	0.0366595	-0.0014953	1	0.03669	-2.335709	0.0002812	3.50064	11	0.1589947	0.0058335	-327.67
	57	181	0.2003205	0.0368304	-0.0016682	1	0.0368682	-2.593424	0.0002821	3.50057	11	0.1589949	0.0058619	-327.67
	58	207	0.1588983	0.037039	-0.0018795	1	0.0370866	-2.904993	0.0002781	3.500496	11	0.1589975	0.0058967	-327.67
	59	233	0.1260081	0.0372919	-0.002097	1	0.0373508	-3.218477	0.0002785	3.500526	11	0.1589998	0.0059388	-327.67
	60	263	0.1001603	0.037573	-0.002367	1	0.0376475	-3.60479	0.0002805	3.50059	11	0.1589966	0.0059858	-327.67
	61	309	0.0794492	0.0378819	-0.0026535	1	0.0379747	-4.006885	0.0002803	3.500682	11	0.1590009	0.006038	-327.67
	62	348	0.0631739	0.038101	-0.003018	1	0.0382204	-4.529029	0.0002825	3.50041	11	0.1589998	0.006077	-327.67
	63	413	0.0501337	0.0384059	-0.0034397	1	0.0385596	-5.117809	0.0002798	3.500225	11	0.1589991	0.0061309	-327.67
	64	475	0.0398258	0.038752	-0.0039391	1	0.0389517	-5.804171	0.0002801	3.500028	11	0.1590007	0.0061933	-327.67
	65	577	0.0316296	0.0391377	-0.004553	1	0.0394016	-6.635523	0.0002818	3.499796	11	0.1589995	0.0062648	-327.67
	66	705	0.0251206	0.0396127	-0.0052792	1	0.0399629	-7.591169	0.0002798	3.499581	11	0.1590003	0.0063541	-327.67
	67	826	0.0199553	0.0401646	-0.0061682	1	0.0406354	-8.730827	0.000285	3.49939	11	0.1589991	0.006461	-327.67
	68	978	0.0158522	0.0408348	-0.0072226	1	0.0414686	-10.03042	0.0002806	3.499185	11	0.1589997	0.0065935	-327.67
	69	1168	0.0125907	0.0416607	-0.0084589	1	0.0425108	-11.47738	0.0002807	3.49896	11	0.1589999	0.0067592	-327.67
	70	1408	0.0100011	0.0426981	-0.0098508	1	0.0438197	-12.99124	0.000279	3.498719	11	0.159001	0.0069674	-327.67
