EXPLAIN
TAG	GALVEIS
TITLE	LABEL	Galvanostatic EIS	Test Identifier
DATE	LABEL	3.2.2024	Date
TIME	LABEL	10:14:19	Time
NOTES	NOTES	1	Notes...
	
PSTAT	PSTAT	REF600-12055	Potentiostat
FREQINIT	QUANT	1.00000E+005	Initial Freq. (Hz)
FREQFINAL	QUANT	1.00000E-002	Final Freq. (Hz)
PTSPERDEC	QUANT	1.00000E+001	Points/decade
IACREQ	QUANT	1.61000E-001	AC Current (A rms)
IDCREQ	QUANT	0.00000E+000	DC Current (A)
AREA	QUANT	1.00000E+000	Sample Area (cm^2)
SPEED	SELECTOR	1	Optimize for:
DRIFTCOR	SELECTOR	0	Drift Correction
THD	SELECTOR	0	THD
ZGUESS	QUANT	1.00000E-001	Estimated Z (ohms)
EOC	QUANT	3.858543	Open Circuit (V)
SEQUENCER	TOGGLE	TRUE	Run as Sequence
PSTATMODEL	IQUANT	4	Pstat Model
PSTATSECTION	LABEL	REF600-12055	Pstat Section
PSTATSERIALNO	LABEL	12055	Pstat Serial Number
CTRLMODE	IQUANT	0	Control Mode
ELECTROMETER	IQUANT	0	RE=0 or CS=1
IESTAB	IQUANT	0	I/E Stability
CASPEED	IQUANT	4	Control Amp Speed
CONVENTION	IQUANT	1	Current Convention
ICHRANGE	IQUANT	2	Ich Range
ICHRANGEMODE	TOGGLE	F	Ich Auto Range
ICHOFFSETENABLE	TOGGLE	T	Ich Offset Enable
ICHOFFSET	QUANT	0	Ich Offset (V)
ICHFILTER	IQUANT	3	Ich Filter
VCHRANGE	IQUANT	2	Vch Range
VCHRANGEMODE	TOGGLE	F	Vch Auto Range
VCHOFFSETENABLE	TOGGLE	T	Vch Offset Enable
VCHOFFSET	QUANT	0	Vch Offset (V)
VCHFILTER	IQUANT	3	Vch Filter
ACHRANGE	IQUANT	2	Ach Range
ACHOFFSETENABLE	TOGGLE	F	Ach Offset Enable
ACHOFFSET	QUANT	0	Ach Offset (V)
ACHFILTER	IQUANT	1	Ach Filter
IERANGELOWERLIMIT	IQUANT	1	I/E Range Lower Limit
IERANGEMODE	TOGGLE	F	I/E AutoRange
IERANGE	IQUANT	7	I/E Range
POSFEEDENABLE	TOGGLE	F	Positive Feedback IR Comp
POSFEEDRESISTANCE	QUANT	0	Positive Feedback Resistance (ohm)
ACHSELECT	IQUANT	4	Ach Select
SENSECABLEID	IQUANT	14	Sense Cable ID
PWRCABLEID	IQUANT	14	Power Cable ID
DCCALDATE	LABEL		DC Calibration Date
ACCALDATE	LABEL		AC Calibration Date
THERMOSELECT	IQUANT	1	Thermo Select
FRAMEWORKVERSION	LABEL	7.10.3	Framework Version
INSTRUMENTVERSION	LABEL	4.91	Instrument Version
COMMVERSION	LABEL	2.24	Communications Version
CPUPLDVERSION	LABEL	0.00	CPU PLD Version
CTRLPLDVERSION	LABEL	0.00	CTRL PLD Version
PSTATPLDVERSION	LABEL	0.00	PSTAT PLD Version
ZCURVE	TABLE
	Pt	Time	Freq	Zreal	Zimag	Zsig	Zmod	Zphz	Idc	Vdc	IERange	Imod	Vmod	Temp
	#	s	Hz	ohm	ohm	V	ohm	°	A	V	#	A	V	°C
	0	4	100078.1	0.106439	0.2371893	1	0.259977	65.83178	0.0003604	3.858055	11	0.1616204	0.0417369	-327.67
	1	6	79453.13	0.0880478	0.1977217	1	0.21644	65.99604	0.0003431	3.858054	11	0.1663224	0.0358339	-327.67
	2	8	63140.62	0.0738243	0.1641271	1	0.1799659	65.78181	0.0003314	3.85807	11	0.1639798	0.0294203	-327.67
	3	10	50203.12	0.0629246	0.1357224	1	0.1495997	65.12626	0.000326	3.858088	11	0.1629406	0.0243268	-327.67
	4	11	39890.62	0.0546469	0.1118017	1	0.1244423	63.95136	0.0003151	3.858088	11	0.1622882	0.0201692	-327.67
	5	13	31640.63	0.0483498	0.09183	1	0.1037808	62.23255	0.0003218	3.858098	11	0.1618446	0.0167823	-327.67
	6	15	25171.88	0.0435791	0.0755969	1	0.0872584	60.03796	0.0003224	3.858116	11	0.1615468	0.0140888	-327.67
	7	17	20015.62	0.0398343	0.0622441	1	0.0738993	57.38203	0.0003212	3.858092	11	0.1613601	0.0119203	-327.67
	8	18	15890.62	0.0367189	0.0512108	1	0.0630145	54.35891	0.0003237	3.858101	11	0.1612269	0.0101574	-327.67
	9	20	12609.38	0.0341143	0.0420565	1	0.0541529	50.95268	0.0003135	3.858107	11	0.1611445	0.0087253	-327.67
	10	22	10078.13	0.0320299	0.0346144	1	0.04716	47.22089	0.000323	3.858115	11	0.1610864	0.0075962	-327.67
	11	23	8015.625	0.0303178	0.02817	1	0.0413849	42.89692	0.0003222	3.858118	11	0.1610506	0.0066647	-327.67
	12	25	6328.125	0.0289921	0.0225455	1	0.0367266	37.87022	0.000321	3.858134	11	0.1610306	0.0059139	-327.67
	13	26	5015.625	0.0280882	0.0179149	1	0.0333151	32.53012	0.0003165	3.858141	11	0.1610209	0.0053643	-327.67
	14	28	3984.375	0.0275054	0.0141021	1	0.0309098	27.14433	0.0003214	3.858152	11	0.1610102	0.0049767	-327.67
	15	29	3170.956	0.0271676	0.0109463	1	0.0292899	21.94532	0.0003195	3.858156	11	0.161004	0.0047158	-327.67
	16	31	2527.573	0.0270359	0.0084355	1	0.0283213	17.32846	0.000319	3.858173	11	0.1610019	0.0045598	-327.67
	17	32	1976.103	0.0270443	0.0061721	1	0.0277397	12.85585	0.0003205	3.858172	11	0.1610033	0.0044662	-327.67
	18	34	1577.524	0.0271735	0.0044885	1	0.0275417	9.379362	0.0003203	3.858188	11	0.161008	0.0044344	-327.67
	19	36	1265.625	0.0273514	0.0031003	1	0.0275266	6.466837	0.0003219	3.858198	11	0.1609895	0.0044315	-327.67
	20	38	998.264	0.0276068	0.0019418	1	0.027675	4.023368	0.0003202	3.858204	11	0.1610033	0.0044558	-327.67
	21	39	796.875	0.0278821	0.0010842	1	0.0279031	2.226799	0.0003211	3.858218	11	0.1609936	0.0044922	-327.67
	22	41	627.7902	0.0282305	0.0003345	1	0.0282325	0.6788979	0.0003204	3.858221	11	0.1610027	0.0045455	-327.67
	23	42	505.5147	0.0284059	5.375954E-005	1	0.028406	0.1084348	0.0003072	3.858145	11	0.1595854	0.0045332	-327.67
	24	44	397.9953	0.0288375	-0.0004745	1	0.0288414	-0.9427363	0.0003077	3.85815	11	0.1626256	0.0046904	-327.67
	25	45	315.5048	0.0292464	-0.0008483	1	0.0292587	-1.661424	0.0003113	3.858163	11	0.1613436	0.0047207	-327.67
	26	47	252.4038	0.0296265	-0.0011068	1	0.0296472	-2.139407	0.000312	3.858172	11	0.160966	0.0047722	-327.67
	27	48	198.6229	0.0300244	-0.0012953	1	0.0300524	-2.470381	0.0003002	3.858178	11	0.1608767	0.0048347	-327.67
	28	50	158.3615	0.0303758	-0.0014066	1	0.0304083	-2.651367	0.0003087	3.858192	11	0.1608871	0.0048923	-327.67
	29	51	125.558	0.030726	-0.0014601	1	0.0307607	-2.720608	0.0003121	3.858197	11	0.1609071	0.0049496	-327.67
	30	53	100.4464	0.0310375	-0.001466	1	0.0310721	-2.704188	0.0003135	3.858204	11	0.1609481	0.005001	-327.67
	31	55	79.00281	0.0313527	-0.0014328	1	0.0313854	-2.616494	0.0002959	3.858216	11	0.1609568	0.0050517	-327.67
	32	56	63.3446	0.0316122	-0.0013679	1	0.0316418	-2.477664	0.000309	3.858224	11	0.1609697	0.0050934	-327.67
	33	58	50.22321	0.0318637	-0.0012844	1	0.0318896	-2.308307	0.0003017	3.858241	11	0.1609832	0.0051337	-327.67
	34	60	38.42213	0.0320997	-0.0011679	1	0.0321209	-2.083664	0.0003097	3.858249	11	0.1609886	0.0051711	-327.67
	35	61	31.25	0.032266	-0.0010696	1	0.0322837	-1.89867	0.000312	3.858254	11	0.1609957	0.0051975	-327.67
	36	63	24.93351	0.0324067	-0.0009688	1	0.0324212	-1.712269	0.0003021	3.858271	11	0.1609941	0.0052196	-327.67
	37	64	19.86229	0.0325262	-0.0008725	1	0.0325379	-1.536575	0.0002791	3.858272	11	0.160973	0.0052377	-327.67
	38	66	15.625	0.0326226	-0.0007728	1	0.0326318	-1.357071	0.0003104	3.858268	11	0.1610105	0.0052541	-327.67
	39	67	12.40079	0.0327032	-0.0007004	1	0.0327107	-1.226967	0.0002996	3.858286	11	0.161003	0.0052665	-327.67
	40	69	9.93114	0.0327698	-0.0006464	1	0.0327762	-1.129999	0.0003352	3.858301	11	0.1609848	0.0052765	-327.67
	41	71	7.944915	0.0328347	-0.0006017	1	0.0328403	-1.049874	0.000338	3.858295	11	0.16101	0.0052876	-327.67
	42	73	6.317385	0.0328791	-0.0005853	1	0.0328843	-1.019871	0.0003503	3.858287	11	0.160977	0.0052936	-327.67
	43	75	5.008013	0.0329244	-0.0005744	1	0.0329294	-0.999399	0.0003144	3.858287	11	0.1610345	0.0053028	-327.67
	44	77	3.945707	0.0329794	-0.000571	1	0.0329843	-0.991998	0.0003152	3.858319	11	0.1609939	0.0053103	-327.67
	45	79	3.158693	0.0330364	-0.0005951	1	0.0330418	-1.031906	0.0003218	3.858348	11	0.1610259	0.0053206	-327.67
	46	82	2.504006	0.0329539	-0.0005403	1	0.0329583	-0.9392895	0.0002697	3.858341	11	0.1573417	0.0051857	-327.67
	47	85	1.998082	0.03305	-0.0006305	1	0.033056	-1.092995	0.0005561	3.858382	11	0.1635112	0.005405	-327.67
	48	89	1.584686	0.033158	-0.0007306	1	0.0331661	-1.262195	0.0003457	3.858384	11	0.1617538	0.0053647	-327.67
	49	94	1.266892	0.0332549	-0.0008245	1	0.0332651	-1.420181	0.0002993	3.858472	11	0.1613178	0.0053663	-327.67
	50	99	0.999041	0.0333559	-0.0009356	1	0.0333691	-1.606742	0.0002923	3.858494	11	0.1610823	0.0053752	-327.67
	51	104	0.7923428	0.0334694	-0.0010652	1	0.0334864	-1.822826	0.0002809	3.858517	11	0.1613091	0.0054017	-327.67
	52	110	0.6334459	0.033594	-0.0012007	1	0.0336155	-2.047	0.0002768	3.858553	11	0.1609825	0.0054115	-327.67
	53	118	0.5040323	0.0337269	-0.0013648	1	0.0337545	-2.317362	0.0002796	3.858595	11	0.160981	0.0054338	-327.67
	54	128	0.400641	0.0338857	-0.0015584	1	0.0339215	-2.633111	0.0002823	3.858645	11	0.1609876	0.0054609	-327.67
	55	139	0.316723	0.0340797	-0.0017788	1	0.0341261	-2.987834	0.000283	3.858712	11	0.1609899	0.005494	-327.67
	56	157	0.2520161	0.0342907	-0.0020117	1	0.0343496	-3.357452	0.0002831	3.858805	11	0.1609933	0.0055301	-327.67
	57	178	0.2003205	0.034556	-0.0022703	1	0.0346305	-3.75888	0.000282	3.858903	11	0.1609957	0.0055754	-327.67
	58	200	0.1588983	0.0348342	-0.0025558	1	0.0349279	-4.196299	0.0002817	3.859005	11	0.1609989	0.0056233	-327.67
	59	225	0.1260081	0.0351932	-0.0028659	1	0.0353097	-4.655507	0.0002822	3.859234	11	0.1609967	0.0056847	-327.67
	60	255	0.1001603	0.0355787	-0.0031919	1	0.0357216	-5.126497	0.0002811	3.859572	11	0.1609997	0.0057512	-327.67
	61	301	0.0794492	0.0360189	-0.0035613	1	0.0361945	-5.646702	0.0002839	3.859976	11	0.1609991	0.0058273	-327.67
	62	341	0.0631739	0.0363572	-0.0039869	1	0.0365752	-6.257924	0.0002785	3.859954	11	0.1609985	0.0058885	-327.67
	63	390	0.0501337	0.0367778	-0.0044808	1	0.0370497	-6.946307	0.0002816	3.860062	11	0.1610005	0.005965	-327.67
	64	451	0.0398258	0.0372645	-0.0050392	1	0.0376037	-7.70134	0.0002803	3.860235	11	0.1609995	0.0060542	-327.67
	65	528	0.0316296	0.0377767	-0.0056819	1	0.0382016	-8.553567	0.0002794	3.860465	11	0.1610009	0.0061505	-327.67
	66	656	0.0251206	0.03834	-0.0064541	1	0.0388795	-9.55554	0.0002802	3.860726	11	0.1609993	0.0062596	-327.67
	67	777	0.0199553	0.0389693	-0.0073471	1	0.0396558	-10.67701	0.0002836	3.861018	11	0.1610001	0.0063846	-327.67
	68	979	0.0158522	0.0396611	-0.0083893	1	0.0405387	-11.94339	0.0002812	3.861321	11	0.1610003	0.0065267	-327.67
	69	1170	0.0125907	0.0404763	-0.0096065	1	0.0416007	-13.35135	0.0002809	3.861628	11	0.1610003	0.0066977	-327.67
	70	1410	0.0100011	0.0414569	-0.0109876	1	0.0428882	-14.84423	0.0002805	3.861964	11	0.161	0.006905	-327.67
