EXPLAIN
TAG	GALVEIS
TITLE	LABEL	Galvanostatic EIS	Test Identifier
DATE	LABEL	3.2.2024	Date
TIME	LABEL	7:29:35	Time
NOTES	NOTES	1	Notes...
	
PSTAT	PSTAT	REF600-12055	Potentiostat
FREQINIT	QUANT	1.00000E+005	Initial Freq. (Hz)
FREQFINAL	QUANT	1.00000E-002	Final Freq. (Hz)
PTSPERDEC	QUANT	1.00000E+001	Points/decade
IACREQ	QUANT	1.59000E-001	AC Current (A rms)
IDCREQ	QUANT	0.00000E+000	DC Current (A)
AREA	QUANT	1.00000E+000	Sample Area (cm^2)
SPEED	SELECTOR	1	Optimize for:
DRIFTCOR	SELECTOR	0	Drift Correction
THD	SELECTOR	0	THD
ZGUESS	QUANT	1.00000E-001	Estimated Z (ohms)
EOC	QUANT	4.033575	Open Circuit (V)
SEQUENCER	TOGGLE	TRUE	Run as Sequence
PSTATMODEL	IQUANT	4	Pstat Model
PSTATSECTION	LABEL	REF600-12055	Pstat Section
PSTATSERIALNO	LABEL	12055	Pstat Serial Number
CTRLMODE	IQUANT	0	Control Mode
ELECTROMETER	IQUANT	0	RE=0 or CS=1
IESTAB	IQUANT	0	I/E Stability
CASPEED	IQUANT	4	Control Amp Speed
CONVENTION	IQUANT	1	Current Convention
ICHRANGE	IQUANT	2	Ich Range
ICHRANGEMODE	TOGGLE	F	Ich Auto Range
ICHOFFSETENABLE	TOGGLE	T	Ich Offset Enable
ICHOFFSET	QUANT	0	Ich Offset (V)
ICHFILTER	IQUANT	3	Ich Filter
VCHRANGE	IQUANT	2	Vch Range
VCHRANGEMODE	TOGGLE	F	Vch Auto Range
VCHOFFSETENABLE	TOGGLE	T	Vch Offset Enable
VCHOFFSET	QUANT	0	Vch Offset (V)
VCHFILTER	IQUANT	3	Vch Filter
ACHRANGE	IQUANT	2	Ach Range
ACHOFFSETENABLE	TOGGLE	F	Ach Offset Enable
ACHOFFSET	QUANT	0	Ach Offset (V)
ACHFILTER	IQUANT	1	Ach Filter
IERANGELOWERLIMIT	IQUANT	1	I/E Range Lower Limit
IERANGEMODE	TOGGLE	F	I/E AutoRange
IERANGE	IQUANT	7	I/E Range
POSFEEDENABLE	TOGGLE	F	Positive Feedback IR Comp
POSFEEDRESISTANCE	QUANT	0	Positive Feedback Resistance (ohm)
ACHSELECT	IQUANT	4	Ach Select
SENSECABLEID	IQUANT	14	Sense Cable ID
PWRCABLEID	IQUANT	14	Power Cable ID
DCCALDATE	LABEL		DC Calibration Date
ACCALDATE	LABEL		AC Calibration Date
THERMOSELECT	IQUANT	1	Thermo Select
FRAMEWORKVERSION	LABEL	7.10.3	Framework Version
INSTRUMENTVERSION	LABEL	4.91	Instrument Version
COMMVERSION	LABEL	2.24	Communications Version
CPUPLDVERSION	LABEL	0.00	CPU PLD Version
CTRLPLDVERSION	LABEL	0.00	CTRL PLD Version
PSTATPLDVERSION	LABEL	0.00	PSTAT PLD Version
ZCURVE	TABLE
	Pt	Time	Freq	Zreal	Zimag	Zsig	Zmod	Zphz	Idc	Vdc	IERange	Imod	Vmod	Temp
	#	s	Hz	ohm	ohm	V	ohm	°	A	V	#	A	V	°C
	0	5	100078.1	0.1065604	0.2370223	1	0.2598743	65.79229	0.0003676	4.032941	11	0.1596623	0.041215	-327.67
	1	7	79453.13	0.0881138	0.1976117	1	0.2163665	65.96822	0.0003572	4.032959	11	0.1642809	0.035382	-327.67
	2	9	63140.62	0.0738523	0.1640487	1	0.179906	65.76344	0.0003306	4.032953	11	0.1619375	0.0290442	-327.67
	3	11	50203.12	0.0629345	0.1356606	1	0.1495478	65.11288	0.0003329	4.032958	11	0.1609299	0.0240182	-327.67
	4	12	39890.62	0.0546522	0.1117631	1	0.12441	63.94136	0.0003333	4.03297	11	0.1602721	0.0199134	-327.67
	5	14	31640.63	0.0483458	0.0917774	1	0.1037324	62.22099	0.0003264	4.032962	11	0.159843	0.0165671	-327.67
	6	16	25171.88	0.0435872	0.0755509	1	0.0872226	60.01828	0.0003265	4.032975	11	0.1595434	0.0139084	-327.67
	7	18	20015.62	0.0398323	0.0622099	1	0.0738694	57.36903	0.0003282	4.032938	11	0.1593571	0.0117676	-327.67
	8	19	15890.62	0.0367157	0.0511841	1	0.0629909	54.34717	0.0003225	4.032933	11	0.1592239	0.0100275	-327.67
	9	21	12609.38	0.0341182	0.0420303	1	0.054135	50.93192	0.0003231	4.032941	11	0.1591453	0.0086142	-327.67
	10	23	10078.13	0.0320337	0.0345877	1	0.0471431	47.19543	0.0003243	4.032939	11	0.1590816	0.0074989	-327.67
	11	24	8015.625	0.0303205	0.0281454	1	0.0413702	42.86945	0.0003247	4.03294	11	0.1590604	0.00658	-327.67
	12	26	6328.125	0.0290092	0.0225239	1	0.0367268	37.82718	0.000324	4.032938	11	0.1590284	0.0058404	-327.67
	13	28	5015.625	0.0280922	0.0179074	1	0.0333144	32.51546	0.0003204	4.032941	11	0.1590175	0.0052975	-327.67
	14	29	3984.375	0.0275132	0.0140941	1	0.0309131	27.12452	0.0003183	4.032937	11	0.1590053	0.0049153	-327.67
	15	31	3170.956	0.0271767	0.0109351	1	0.0292942	21.91847	0.0003198	4.032939	11	0.159003	0.0046578	-327.67
	16	33	2527.573	0.0270423	0.0083783	1	0.0283104	17.2141	0.000322	4.032943	11	0.1590066	0.0045015	-327.67
	17	34	1976.103	0.0270522	0.0061466	1	0.0277417	12.80097	0.0003251	4.032956	11	0.1590036	0.004411	-327.67
	18	36	1577.524	0.0271652	0.0043974	1	0.0275188	9.195117	0.0003256	4.03295	11	0.1589953	0.0043754	-327.67
	19	37	1265.625	0.0273751	0.0031457	1	0.0275553	6.555221	0.0003187	4.032945	11	0.1590113	0.0043816	-327.67
	20	39	998.264	0.0276312	0.0019085	1	0.027697	3.951157	0.0003251	4.032963	11	0.1589889	0.0044035	-327.67
	21	41	796.875	0.0279081	0.0010766	1	0.0279288	2.209243	0.0003163	4.032957	11	0.1590036	0.0044408	-327.67
	22	42	627.7902	0.0282435	0.0003586	1	0.0282458	0.7273623	0.0003201	4.032967	11	0.1590052	0.0044912	-327.67
	23	44	505.5147	0.0284279	1.780064E-005	1	0.0284279	0.0358767	0.0003143	4.03288	11	0.1575959	0.0044801	-327.67
	24	45	397.9953	0.0288573	-0.0005187	1	0.0288619	-1.029804	0.0003055	4.032881	11	0.1606051	0.0046354	-327.67
	25	47	315.5048	0.029273	-0.0008925	1	0.0292866	-1.746412	0.0003101	4.032883	11	0.1593367	0.0046664	-327.67
	26	48	252.4038	0.0296478	-0.0011699	1	0.0296709	-2.259783	0.0003114	4.032884	11	0.1589689	0.0047168	-327.67
	27	50	198.6229	0.0300468	-0.0013737	1	0.0300782	-2.617609	0.0003111	4.032884	11	0.1588797	0.0047788	-327.67
	28	51	158.3615	0.0304183	-0.001505	1	0.0304555	-2.832478	0.0003109	4.032887	11	0.1588848	0.0048389	-327.67
	29	53	125.558	0.0307673	-0.0015773	1	0.0308077	-2.934661	0.0003133	4.032887	11	0.1589118	0.0048957	-327.67
	30	55	100.4464	0.0311066	-0.0016105	1	0.0311483	-2.963699	0.0003071	4.032892	11	0.1589448	0.0049509	-327.67
	31	56	79.00281	0.0314468	-0.0016037	1	0.0314877	-2.919314	0.0003125	4.032895	11	0.158955	0.0050051	-327.67
	32	58	63.3446	0.0317475	-0.0015569	1	0.0317857	-2.807457	0.0003124	4.032897	11	0.1589756	0.0050531	-327.67
	33	59	50.22321	0.0320277	-0.0014934	1	0.0320625	-2.669761	0.0003111	4.032899	11	0.1589824	0.0050974	-327.67
	34	61	38.42213	0.0323306	-0.0013768	1	0.0323599	-2.43855	0.0003108	4.03289	11	0.1589911	0.0051449	-327.67
	35	62	31.25	0.032528	-0.001285	1	0.0325534	-2.262253	0.0002956	4.032896	11	0.1589972	0.0051759	-327.67
	36	64	24.93351	0.0327142	-0.0011762	1	0.0327354	-2.059171	0.0003021	4.032894	11	0.1589873	0.0052045	-327.67
	37	66	19.86229	0.0328736	-0.0010646	1	0.0328909	-1.854795	0.0003334	4.032902	11	0.1589832	0.0052291	-327.67
	38	67	15.625	0.0330063	-0.0009499	1	0.03302	-1.64847	0.0002976	4.032909	11	0.1589977	0.0052501	-327.67
	39	69	12.40079	0.0331116	-0.0008621	1	0.0331228	-1.491378	0.0003275	4.032898	11	0.1589942	0.0052663	-327.67
	40	70	9.93114	0.0331982	-0.0007846	1	0.0332074	-1.353891	0.0003048	4.032912	11	0.1590154	0.0052805	-327.67
	41	72	7.944915	0.0332765	-0.0007285	1	0.0332845	-1.254096	0.0003455	4.032897	11	0.1590009	0.0052923	-327.67
	42	74	6.317385	0.0333408	-0.0006927	1	0.033348	-1.190197	0.0004007	4.032904	11	0.159021	0.005303	-327.67
	43	76	5.008013	0.0333983	-0.000658	1	0.0334048	-1.12866	0.0002819	4.03293	11	0.158979	0.0053107	-327.67
	44	78	3.945707	0.0334578	-0.000652	1	0.0334641	-1.116463	0.000331	4.032918	11	0.1589807	0.0053202	-327.67
	45	81	3.158693	0.0335208	-0.0006672	1	0.0335274	-1.140236	0.000401	4.032911	11	0.1589933	0.0053306	-327.67
	46	84	2.504006	0.0334497	-0.0005963	1	0.0334551	-1.021318	0.0003173	4.032874	11	0.1554534	0.0052007	-327.67
	47	87	1.998082	0.0335493	-0.0006791	1	0.0335562	-1.159574	0.0004246	4.032886	11	0.1613425	0.005414	-327.67
	48	92	1.584686	0.0336527	-0.0007816	1	0.0336618	-1.330457	0.0001442	4.032871	11	0.1599169	0.0053831	-327.67
	49	96	1.266892	0.0337509	-0.0008663	1	0.033762	-1.470318	0.0004385	4.032946	11	0.1592839	0.0053778	-327.67
	50	103	0.999041	0.0338646	-0.0009692	1	0.0338784	-1.639386	0.0004392	4.032967	11	0.1590868	0.0053896	-327.67
	51	107	0.7923428	0.0339863	-0.001078	1	0.0340034	-1.816794	0.0002809	4.032965	11	0.1592703	0.0054157	-327.67
	52	115	0.6334459	0.0341116	-0.001218	1	0.0341334	-2.04497	0.0002826	4.03297	11	0.1589826	0.0054266	-327.67
	53	125	0.5040323	0.0342677	-0.0013754	1	0.0342953	-2.298511	0.0002791	4.032975	11	0.1589816	0.0054523	-327.67
	54	134	0.400641	0.034424	-0.0015624	1	0.0344595	-2.598731	0.0002826	4.032991	11	0.1589871	0.0054786	-327.67
	55	148	0.316723	0.0346169	-0.0017741	1	0.0346623	-2.933809	0.000284	4.033011	11	0.1589892	0.0055109	-327.67
	56	166	0.2520161	0.0348524	-0.0019865	1	0.034909	-3.262121	0.0002841	4.033035	11	0.1589947	0.0055503	-327.67
	57	183	0.2003205	0.0351131	-0.0022251	1	0.0351835	-3.625992	0.0002828	4.033058	11	0.1589957	0.005594	-327.67
	58	209	0.1588983	0.0354216	-0.0024877	1	0.0355088	-4.01729	0.0002832	4.033087	11	0.1589976	0.0056458	-327.67
	59	235	0.1260081	0.035763	-0.002767	1	0.0358698	-4.424118	0.0002788	4.033216	11	0.1589959	0.0057032	-327.67
	60	265	0.1001603	0.0361661	-0.0030694	1	0.0362961	-4.851053	0.0002868	4.033427	11	0.1590004	0.0057711	-327.67
	61	301	0.0794492	0.036605	-0.0033804	1	0.0367608	-5.276162	0.0002821	4.03362	11	0.1590015	0.005845	-327.67
	62	341	0.0631739	0.0369414	-0.0037842	1	0.0371348	-5.848886	0.0002802	4.033494	11	0.1589991	0.0059044	-327.67
	63	390	0.0501337	0.037369	-0.0042101	1	0.0376054	-6.427979	0.0002811	4.033484	11	0.1589986	0.0059792	-327.67
	64	451	0.0398258	0.0378452	-0.0047111	1	0.0381373	-7.095854	0.0002818	4.033516	11	0.1590007	0.0060639	-327.67
	65	553	0.0316296	0.0383722	-0.0052709	1	0.0387325	-7.821331	0.0002834	4.033592	11	0.1590001	0.0061585	-327.67
	66	681	0.0251206	0.0389543	-0.0059115	1	0.0394003	-8.629086	0.0002841	4.033686	11	0.1589992	0.0062646	-327.67
	67	842	0.0199553	0.0396222	-0.0066791	1	0.0401812	-9.56839	0.0002823	4.033801	11	0.1590002	0.0063888	-327.67
	68	994	0.0158522	0.0403427	-0.0075793	1	0.0410485	-10.64035	0.0002817	4.033907	11	0.159	0.0065267	-327.67
	69	1185	0.0125907	0.041248	-0.0086401	1	0.0421432	-11.83054	0.0002817	4.034044	11	0.1589983	0.0067007	-327.67
	70	1425	0.0100011	0.0423237	-0.0098208	1	0.0434482	-13.06378	0.0002846	4.034184	11	0.1590013	0.0069083	-327.67
