EXPLAIN
TAG	GALVEIS
TITLE	LABEL	Galvanostatic EIS	Test Identifier
DATE	LABEL	3.2.2024	Date
TIME	LABEL	14:22:36	Time
NOTES	NOTES	1	Notes...
	
PSTAT	PSTAT	REF600-12055	Potentiostat
FREQINIT	QUANT	1.00000E+005	Initial Freq. (Hz)
FREQFINAL	QUANT	1.00000E-002	Final Freq. (Hz)
PTSPERDEC	QUANT	1.00000E+001	Points/decade
IACREQ	QUANT	1.59000E-001	AC Current (A rms)
IDCREQ	QUANT	0.00000E+000	DC Current (A)
AREA	QUANT	1.00000E+000	Sample Area (cm^2)
SPEED	SELECTOR	1	Optimize for:
DRIFTCOR	SELECTOR	0	Drift Correction
THD	SELECTOR	0	THD
ZGUESS	QUANT	1.00000E-001	Estimated Z (ohms)
EOC	QUANT	3.602609	Open Circuit (V)
SEQUENCER	TOGGLE	TRUE	Run as Sequence
PSTATMODEL	IQUANT	4	Pstat Model
PSTATSECTION	LABEL	REF600-12055	Pstat Section
PSTATSERIALNO	LABEL	12055	Pstat Serial Number
CTRLMODE	IQUANT	0	Control Mode
ELECTROMETER	IQUANT	0	RE=0 or CS=1
IESTAB	IQUANT	0	I/E Stability
CASPEED	IQUANT	4	Control Amp Speed
CONVENTION	IQUANT	1	Current Convention
ICHRANGE	IQUANT	2	Ich Range
ICHRANGEMODE	TOGGLE	F	Ich Auto Range
ICHOFFSETENABLE	TOGGLE	T	Ich Offset Enable
ICHOFFSET	QUANT	0	Ich Offset (V)
ICHFILTER	IQUANT	3	Ich Filter
VCHRANGE	IQUANT	2	Vch Range
VCHRANGEMODE	TOGGLE	F	Vch Auto Range
VCHOFFSETENABLE	TOGGLE	T	Vch Offset Enable
VCHOFFSET	QUANT	0	Vch Offset (V)
VCHFILTER	IQUANT	3	Vch Filter
ACHRANGE	IQUANT	2	Ach Range
ACHOFFSETENABLE	TOGGLE	F	Ach Offset Enable
ACHOFFSET	QUANT	0	Ach Offset (V)
ACHFILTER	IQUANT	1	Ach Filter
IERANGELOWERLIMIT	IQUANT	1	I/E Range Lower Limit
IERANGEMODE	TOGGLE	F	I/E AutoRange
IERANGE	IQUANT	7	I/E Range
POSFEEDENABLE	TOGGLE	F	Positive Feedback IR Comp
POSFEEDRESISTANCE	QUANT	0	Positive Feedback Resistance (ohm)
ACHSELECT	IQUANT	4	Ach Select
SENSECABLEID	IQUANT	14	Sense Cable ID
PWRCABLEID	IQUANT	14	Power Cable ID
DCCALDATE	LABEL		DC Calibration Date
ACCALDATE	LABEL		AC Calibration Date
THERMOSELECT	IQUANT	1	Thermo Select
FRAMEWORKVERSION	LABEL	7.10.3	Framework Version
INSTRUMENTVERSION	LABEL	4.91	Instrument Version
COMMVERSION	LABEL	2.24	Communications Version
CPUPLDVERSION	LABEL	0.00	CPU PLD Version
CTRLPLDVERSION	LABEL	0.00	CTRL PLD Version
PSTATPLDVERSION	LABEL	0.00	PSTAT PLD Version
ZCURVE	TABLE
	Pt	Time	Freq	Zreal	Zimag	Zsig	Zmod	Zphz	Idc	Vdc	IERange	Imod	Vmod	Temp
	#	s	Hz	ohm	ohm	V	ohm	°	A	V	#	A	V	°C
	0	5	100078.1	0.1063121	0.2375259	1	0.2602322	65.88762	0.0003696	3.601938	11	0.1596664	0.0412728	-327.67
	1	6	79453.13	0.0879731	0.1979536	1	0.2166215	66.03901	0.0003557	3.601955	11	0.1642602	0.0354193	-327.67
	2	8	63140.62	0.0737819	0.1642772	1	0.1800854	65.8137	0.0003404	3.601955	11	0.1619679	0.0290786	-327.67
	3	10	50203.12	0.0629281	0.135829	1	0.1496979	65.14222	0.0003346	3.60197	11	0.1609323	0.0240427	-327.67
	4	12	39890.62	0.0546764	0.1118897	1	0.1245344	63.95694	0.000327	3.601973	11	0.1602821	0.0199346	-327.67
	5	13	31640.63	0.0484049	0.0918794	1	0.1038501	62.21836	0.000323	3.60199	11	0.1598403	0.0165856	-327.67
	6	15	25171.88	0.0436522	0.0756402	1	0.0873325	60.01063	0.0003214	3.601987	11	0.1595488	0.0139263	-327.67
	7	17	20015.62	0.039901	0.0622749	1	0.0739612	57.35132	0.0003265	3.601968	11	0.1593534	0.011782	-327.67
	8	19	15890.62	0.0367952	0.0512362	1	0.0630796	54.31609	0.0003227	3.601968	11	0.1592271	0.0100418	-327.67
	9	20	12609.38	0.0342092	0.0420753	1	0.0542273	50.88728	0.000322	3.601983	11	0.1591432	0.0086287	-327.67
	10	22	10078.13	0.03211	0.0346281	1	0.0472245	47.16081	0.0003192	3.601995	11	0.1590884	0.0075122	-327.67
	11	24	8015.625	0.0304074	0.0281651	1	0.0414474	42.80761	0.0003191	3.60199	11	0.159052	0.0065919	-327.67
	12	25	6328.125	0.029094	0.0225445	1	0.0368065	37.77157	0.0003218	3.602004	11	0.1590314	0.0058532	-327.67
	13	27	5015.625	0.0281825	0.0179277	1	0.0334014	32.46163	0.0003179	3.602007	11	0.1590162	0.0053113	-327.67
	14	29	3984.375	0.0275983	0.0140937	1	0.0309887	27.05209	0.0003205	3.602016	11	0.15901	0.0049274	-327.67
	15	31	3170.956	0.0272673	0.0109951	1	0.0294007	21.96099	0.0003113	3.602021	11	0.1590023	0.0046747	-327.67
	16	32	2527.573	0.0271324	0.0083638	1	0.0283922	17.1324	0.0003171	3.602019	11	0.1590067	0.0045145	-327.67
	17	34	1976.103	0.0271418	0.0061308	1	0.0278256	12.72846	0.0003179	3.602028	11	0.1590016	0.0044243	-327.67
	18	35	1577.524	0.027262	0.0044115	1	0.0276167	9.191817	0.0003146	3.602043	11	0.1590016	0.0043911	-327.67
	19	37	1265.625	0.0274596	0.0031438	1	0.027639	6.531242	0.0003171	3.602045	11	0.1590025	0.0043947	-327.67
	20	39	998.264	0.0277053	0.0019631	1	0.0277747	4.053066	0.0003195	3.602061	11	0.1589953	0.004416	-327.67
	21	40	796.875	0.0280013	0.0011058	1	0.0280232	2.261434	0.0003228	3.602062	11	0.1590122	0.004456	-327.67
	22	42	627.7902	0.0283569	0.0002934	1	0.0283584	0.5927424	0.0003087	3.60207	11	0.1589882	0.0045086	-327.67
	23	43	505.5147	0.028523	1.116969E-005	1	0.028523	0.0224372	0.0003051	3.601989	11	0.1576016	0.0044953	-327.67
	24	45	397.9953	0.0289624	-0.0005291	1	0.0289672	-1.046607	0.0003156	3.601993	11	0.160603	0.0046522	-327.67
	25	47	315.5048	0.0293787	-0.0009067	1	0.0293926	-1.767784	0.000313	3.601998	11	0.1593367	0.0046833	-327.67
	26	48	252.4038	0.029769	-0.0011728	1	0.0297921	-2.25602	0.0003154	3.602007	11	0.1589666	0.0047359	-327.67
	27	50	198.6229	0.0301773	-0.0013601	1	0.0302079	-2.580685	0.0003115	3.602015	11	0.1588848	0.0047996	-327.67
	28	51	158.3615	0.0305457	-0.0014725	1	0.0305811	-2.759942	0.0003116	3.602026	11	0.158884	0.0048589	-327.67
	29	53	125.558	0.0309072	-0.0015316	1	0.0309451	-2.836903	0.0003064	3.602029	11	0.1589115	0.0049175	-327.67
	30	54	100.4464	0.0312372	-0.0015405	1	0.0312752	-2.823373	0.000315	3.60204	11	0.1589465	0.0049711	-327.67
	31	56	79.00281	0.0315678	-0.0015051	1	0.0316036	-2.729722	0.0003093	3.602051	11	0.158955	0.0050236	-327.67
	32	57	63.3446	0.0318423	-0.0014434	1	0.031875	-2.59543	0.000311	3.602056	11	0.1589735	0.0050673	-327.67
	33	59	50.22321	0.0320967	-0.001348	1	0.032125	-2.404839	0.000294	3.602062	11	0.1589845	0.0051074	-327.67
	34	61	38.42213	0.0323514	-0.0012199	1	0.0323744	-2.159406	0.0003026	3.602067	11	0.1589917	0.0051473	-327.67
	35	62	31.25	0.0325216	-0.0011158	1	0.0325407	-1.964969	0.0003158	3.602071	11	0.1589945	0.0051738	-327.67
	36	64	24.93351	0.0326787	-0.0010035	1	0.0326941	-1.758976	0.000312	3.602082	11	0.1589929	0.0051981	-327.67
	37	66	19.86229	0.0328146	-0.0009007	1	0.0328269	-1.572275	0.0003256	3.602085	11	0.1589898	0.0052191	-327.67
	38	67	15.625	0.0329053	-0.0007906	1	0.0329148	-1.376426	0.0002974	3.602094	11	0.1589847	0.005233	-327.67
	39	69	12.40079	0.0329888	-0.0007097	1	0.0329964	-1.232379	0.000317	3.602101	11	0.1590108	0.0052468	-327.67
	40	70	9.93114	0.033061	-0.0006396	1	0.0330672	-1.108316	0.0002966	3.602097	11	0.1589975	0.0052576	-327.67
	41	72	7.944915	0.0331114	-0.0005895	1	0.0331166	-1.019981	0.0002788	3.602116	11	0.1590081	0.0052658	-327.67
	42	74	6.317385	0.0331609	-0.0005428	1	0.0331653	-0.9378325	0.0002562	3.602135	11	0.1589722	0.0052724	-327.67
	43	76	5.008013	0.033208	-0.0005269	1	0.0332122	-0.9090886	0.0003667	3.602133	11	0.1589949	0.0052806	-327.67
	44	78	3.945707	0.033255	-0.0005113	1	0.0332589	-0.8808117	0.0002995	3.602137	11	0.1590239	0.005289	-327.67
	45	81	3.158693	0.0332975	-0.0005115	1	0.0333014	-0.8800158	0.000264	3.602141	11	0.1590204	0.0052956	-327.67
	46	84	2.504006	0.0332085	-0.0004415	1	0.0332115	-0.7616781	0.0003398	3.602135	11	0.1554082	0.0051613	-327.67
	47	88	1.998082	0.03329	-0.0005154	1	0.033294	-0.8869296	0.0001485	3.602146	11	0.1613882	0.0053733	-327.67
	48	92	1.584686	0.0333769	-0.0005858	1	0.033382	-1.005514	0.0004517	3.602182	11	0.1598606	0.0053365	-327.67
	49	97	1.266892	0.0334705	-0.0006565	1	0.033477	-1.123704	0.0001773	3.602148	11	0.1593154	0.0053334	-327.67
	50	103	0.999041	0.033555	-0.0007394	1	0.0335631	-1.262381	0.0001711	3.602166	11	0.1590917	0.0053396	-327.67
	51	109	0.7923428	0.0336529	-0.0008108	1	0.0336627	-1.380229	0.000283	3.602264	11	0.1592629	0.0053612	-327.67
	52	115	0.6334459	0.0337421	-0.0009102	1	0.0337544	-1.545163	0.0002835	3.602288	11	0.1589834	0.0053664	-327.67
	53	123	0.5040323	0.0338445	-0.0010324	1	0.0338603	-1.747283	0.0002774	3.602317	11	0.1589825	0.0053832	-327.67
	54	135	0.400641	0.0339715	-0.0011608	1	0.0339913	-1.956994	0.0002827	3.602361	11	0.158986	0.0054041	-327.67
	55	149	0.316723	0.0341166	-0.0013095	1	0.0341417	-2.198073	0.0002821	3.60242	11	0.1589897	0.0054282	-327.67
	56	163	0.2520161	0.0342758	-0.0014648	1	0.0343071	-2.447149	0.0002821	3.602484	11	0.1589935	0.0054546	-327.67
	57	180	0.2003205	0.0344709	-0.0016359	1	0.0345097	-2.71715	0.0002756	3.602561	11	0.1589939	0.0054868	-327.67
	58	202	0.1588983	0.0346738	-0.0018308	1	0.0347221	-3.0224	0.0002801	3.602644	11	0.1589981	0.0055207	-327.67
	59	233	0.1260081	0.0349196	-0.0020267	1	0.0349784	-3.32163	0.0002817	3.602843	11	0.1589988	0.0055615	-327.67
	60	272	0.1001603	0.0352068	-0.0022374	1	0.0352778	-3.636353	0.0002785	3.603115	11	0.1590009	0.0056092	-327.67
	61	308	0.0794492	0.0355035	-0.0024829	1	0.0355902	-4.000342	0.0002826	3.603394	11	0.1589992	0.0056588	-327.67
	62	347	0.0631739	0.0357089	-0.0027678	1	0.035816	-4.43214	0.0002784	3.60341	11	0.1589994	0.0056947	-327.67
	63	412	0.0501337	0.0359776	-0.0030837	1	0.0361096	-4.898985	0.0002814	3.60356	11	0.1590005	0.0057414	-327.67
	64	494	0.0398258	0.0363034	-0.0034814	1	0.0364699	-5.477795	0.0002798	3.603741	11	0.1589973	0.0057986	-327.67
	65	570	0.0316296	0.0366404	-0.0039312	1	0.0368507	-6.123936	0.0002811	3.603948	11	0.1590018	0.0058593	-327.67
	66	699	0.0251206	0.0370241	-0.0044887	1	0.0372952	-6.912701	0.0002807	3.604191	11	0.1590014	0.00593	-327.67
	67	820	0.0199553	0.0374618	-0.0051544	1	0.0378147	-7.834206	0.0002808	3.604459	11	0.1589988	0.0060125	-327.67
	68	1022	0.0158522	0.0380064	-0.0059629	1	0.0384713	-8.916619	0.0002812	3.604801	11	0.1589994	0.0061169	-327.67
	69	1275	0.0125907	0.0386823	-0.0068787	1	0.0392891	-10.0833	0.0002803	3.605104	11	0.1590004	0.006247	-327.67
	70	1515	0.0100011	0.0395113	-0.0079525	1	0.0403036	-11.38002	0.000282	3.605426	11	0.1590001	0.0064083	-327.67
