EXPLAIN
TAG	GALVEIS
TITLE	LABEL	Galvanostatic EIS	Test Identifier
DATE	LABEL	3.2.2024	Date
TIME	LABEL	18:19:19	Time
NOTES	NOTES	1	Notes...
	
PSTAT	PSTAT	REF600-12055	Potentiostat
FREQINIT	QUANT	1.00000E+005	Initial Freq. (Hz)
FREQFINAL	QUANT	1.00000E-002	Final Freq. (Hz)
PTSPERDEC	QUANT	1.00000E+001	Points/decade
IACREQ	QUANT	1.59000E-001	AC Current (A rms)
IDCREQ	QUANT	0.00000E+000	DC Current (A)
AREA	QUANT	1.00000E+000	Sample Area (cm^2)
SPEED	SELECTOR	1	Optimize for:
DRIFTCOR	SELECTOR	0	Drift Correction
THD	SELECTOR	0	THD
ZGUESS	QUANT	1.00000E-001	Estimated Z (ohms)
EOC	QUANT	3.234257	Open Circuit (V)
SEQUENCER	TOGGLE	TRUE	Run as Sequence
PSTATMODEL	IQUANT	4	Pstat Model
PSTATSECTION	LABEL	REF600-12055	Pstat Section
PSTATSERIALNO	LABEL	12055	Pstat Serial Number
CTRLMODE	IQUANT	0	Control Mode
ELECTROMETER	IQUANT	0	RE=0 or CS=1
IESTAB	IQUANT	0	I/E Stability
CASPEED	IQUANT	4	Control Amp Speed
CONVENTION	IQUANT	1	Current Convention
ICHRANGE	IQUANT	2	Ich Range
ICHRANGEMODE	TOGGLE	F	Ich Auto Range
ICHOFFSETENABLE	TOGGLE	T	Ich Offset Enable
ICHOFFSET	QUANT	0	Ich Offset (V)
ICHFILTER	IQUANT	3	Ich Filter
VCHRANGE	IQUANT	2	Vch Range
VCHRANGEMODE	TOGGLE	F	Vch Auto Range
VCHOFFSETENABLE	TOGGLE	T	Vch Offset Enable
VCHOFFSET	QUANT	0	Vch Offset (V)
VCHFILTER	IQUANT	3	Vch Filter
ACHRANGE	IQUANT	2	Ach Range
ACHOFFSETENABLE	TOGGLE	F	Ach Offset Enable
ACHOFFSET	QUANT	0	Ach Offset (V)
ACHFILTER	IQUANT	1	Ach Filter
IERANGELOWERLIMIT	IQUANT	1	I/E Range Lower Limit
IERANGEMODE	TOGGLE	F	I/E AutoRange
IERANGE	IQUANT	7	I/E Range
POSFEEDENABLE	TOGGLE	F	Positive Feedback IR Comp
POSFEEDRESISTANCE	QUANT	0	Positive Feedback Resistance (ohm)
ACHSELECT	IQUANT	4	Ach Select
SENSECABLEID	IQUANT	14	Sense Cable ID
PWRCABLEID	IQUANT	14	Power Cable ID
DCCALDATE	LABEL		DC Calibration Date
ACCALDATE	LABEL		AC Calibration Date
THERMOSELECT	IQUANT	1	Thermo Select
FRAMEWORKVERSION	LABEL	7.10.3	Framework Version
INSTRUMENTVERSION	LABEL	4.91	Instrument Version
COMMVERSION	LABEL	2.24	Communications Version
CPUPLDVERSION	LABEL	0.00	CPU PLD Version
CTRLPLDVERSION	LABEL	0.00	CTRL PLD Version
PSTATPLDVERSION	LABEL	0.00	PSTAT PLD Version
ZCURVE	TABLE
	Pt	Time	Freq	Zreal	Zimag	Zsig	Zmod	Zphz	Idc	Vdc	IERange	Imod	Vmod	Temp
	#	s	Hz	ohm	ohm	V	ohm	°	A	V	#	A	V	°C
	0	5	100078.1	0.1046733	0.2386563	1	0.2606019	66.31801	0.000359	3.233625	11	0.1596413	0.041325	-327.67
	1	7	79453.13	0.0869292	0.1985867	1	0.2167795	66.35911	0.0003439	3.233659	11	0.1642465	0.0354421	-327.67
	2	8	63140.62	0.0731906	0.1646223	1	0.1801593	66.0302	0.0003324	3.233688	11	0.1619504	0.0290874	-327.67
	3	10	50203.12	0.0626321	0.1359768	1	0.1497079	65.26879	0.0003234	3.233709	11	0.1609203	0.0240425	-327.67
	4	12	39890.62	0.0546183	0.111926	1	0.1245415	63.98826	0.0003158	3.233722	11	0.1602707	0.0199343	-327.67
	5	14	31640.63	0.0484853	0.0918493	1	0.1038611	62.17138	0.0003144	3.233764	11	0.1598394	0.0165872	-327.67
	6	15	25171.88	0.0438538	0.0755674	1	0.0873704	59.87228	0.0003136	3.23378	11	0.1595447	0.013932	-327.67
	7	17	20015.62	0.0401824	0.0621793	1	0.074033	57.12809	0.0003117	3.23377	11	0.1593515	0.0117933	-327.67
	8	19	15890.62	0.037142	0.051122	1	0.0631901	54.00023	0.0003205	3.233786	11	0.1592232	0.0100592	-327.67
	9	21	12609.38	0.0345886	0.0419611	1	0.0543793	50.50121	0.0003184	3.233818	11	0.1591458	0.0086531	-327.67
	10	22	10078.13	0.032548	0.0344998	1	0.0474301	46.66742	0.0003232	3.233849	11	0.1590828	0.0075447	-327.67
	11	24	8015.625	0.0308657	0.0280434	1	0.0417028	42.25706	0.0003185	3.233861	11	0.1590527	0.0066326	-327.67
	12	26	6328.125	0.02958	0.0224284	1	0.0371215	37.17046	0.0003116	3.233893	11	0.1590328	0.0059033	-327.67
	13	27	5015.625	0.0286898	0.0178109	1	0.0337688	31.83243	0.0003192	3.233917	11	0.1590161	0.0053697	-327.67
	14	29	3984.375	0.0281183	0.0139969	1	0.0314094	26.46348	0.0003179	3.233945	11	0.159011	0.0049944	-327.67
	15	31	3170.956	0.027807	0.0108436	1	0.0298465	21.30384	0.0003174	3.23396	11	0.1590051	0.0047457	-327.67
	16	32	2527.573	0.0276784	0.0082541	1	0.0288829	16.60539	0.0003185	3.233978	11	0.1590009	0.0045924	-327.67
	17	34	1976.103	0.0276984	0.0060387	1	0.028349	12.29894	0.0003176	3.234011	11	0.1590041	0.0045076	-327.67
	18	36	1577.524	0.0278222	0.0043555	1	0.028161	8.897363	0.0003222	3.23404	11	0.1589978	0.0044775	-327.67
	19	37	1265.625	0.0280285	0.0029279	1	0.028181	5.963649	0.0003215	3.234057	11	0.1590004	0.0044808	-327.67
	20	39	998.264	0.0282876	0.0017546	1	0.0283419	3.549275	0.0003199	3.234086	11	0.1590016	0.0045064	-327.67
	21	41	796.875	0.0285874	0.0008937	1	0.0286014	1.790545	0.0003185	3.234104	11	0.1590001	0.0045476	-327.67
	22	42	627.7902	0.0289466	4.747099E-005	1	0.0289466	0.0939621	0.0003181	3.234119	11	0.158993	0.0046023	-327.67
	23	44	505.5147	0.0291516	-0.0002555	1	0.0291527	-0.5021921	0.0003126	3.234063	11	0.1576034	0.0045946	-327.67
	24	45	397.9953	0.0296108	-0.0008474	1	0.0296229	-1.639209	0.0003037	3.234085	11	0.1606029	0.0047575	-327.67
	25	47	315.5048	0.0300622	-0.0012898	1	0.0300899	-2.456769	0.0003109	3.234107	11	0.1593408	0.0047945	-327.67
	26	48	252.4038	0.0304819	-0.0016236	1	0.0305251	-3.049001	0.0003132	3.234126	11	0.1589666	0.0048525	-327.67
	27	50	198.6229	0.0309368	-0.0019113	1	0.0309958	-3.535205	0.0003126	3.234149	11	0.1588784	0.0049246	-327.67
	28	51	158.3615	0.0313638	-0.002121	1	0.0314354	-3.868708	0.000313	3.234169	11	0.1588893	0.0049948	-327.67
	29	53	125.558	0.0317972	-0.0023014	1	0.0318804	-4.139644	0.0003098	3.234191	11	0.158915	0.0050663	-327.67
	30	55	100.4464	0.0322094	-0.0024364	1	0.0323014	-4.325674	0.0003144	3.234212	11	0.1589399	0.005134	-327.67
	31	56	79.00281	0.0326606	-0.002561	1	0.0327608	-4.483562	0.0003022	3.234236	11	0.1589603	0.0052077	-327.67
	32	58	63.3446	0.0330704	-0.0026586	1	0.0331771	-4.596176	0.0002969	3.234255	11	0.1589741	0.0052743	-327.67
	33	60	50.22321	0.0335118	-0.0027357	1	0.0336233	-4.666954	0.0003004	3.234272	11	0.1589806	0.0053454	-327.67
	34	61	38.42213	0.0340024	-0.0028175	1	0.0341189	-4.736759	0.0003113	3.23429	11	0.1589891	0.0054245	-327.67
	35	63	31.25	0.0343884	-0.0028788	1	0.0345087	-4.785393	0.000325	3.234314	11	0.1589852	0.0054864	-327.67
	36	65	24.93351	0.0348107	-0.0029395	1	0.0349346	-4.826734	0.0003082	3.234333	11	0.1590061	0.0055548	-327.67
	37	66	19.86229	0.0352412	-0.003013	1	0.0353697	-4.886629	0.0002773	3.234343	11	0.1589733	0.0056228	-327.67
	38	68	15.625	0.0357019	-0.0031016	1	0.0358364	-4.965077	0.0002951	3.234364	11	0.1590002	0.005698	-327.67
	39	69	12.40079	0.036166	-0.0031989	1	0.0363072	-5.054693	0.000316	3.234388	11	0.1590108	0.0057732	-327.67
	40	71	9.93114	0.0366538	-0.0032895	1	0.0368012	-5.128329	0.0003011	3.234391	11	0.1590026	0.0058515	-327.67
	41	72	7.944915	0.0371412	-0.0033605	1	0.0372929	-5.169952	0.0002839	3.234442	11	0.1589833	0.005929	-327.67
	42	74	6.317385	0.0376623	-0.0034367	1	0.0378187	-5.213867	0.0003098	3.234436	11	0.1589693	0.006012	-327.67
	43	76	5.008013	0.0382247	-0.0034774	1	0.0383825	-5.198098	0.0003144	3.234436	11	0.1590526	0.0061048	-327.67
	44	79	3.945707	0.0388236	-0.0034903	1	0.0389802	-5.137222	0.0003121	3.234509	11	0.1589935	0.0061976	-327.67
	45	81	3.158693	0.0393724	-0.0034696	1	0.039525	-5.036069	0.0003264	3.23457	11	0.1590208	0.0062853	-327.67
	46	85	2.504006	0.0397762	-0.0032957	1	0.0399125	-4.73642	0.0002955	3.234582	11	0.1554024	0.0062025	-327.67
	47	88	1.998082	0.0403191	-0.0032939	1	0.0404535	-4.670477	0.0004573	3.234644	11	0.1613738	0.0065281	-327.67
	48	92	1.584686	0.0408361	-0.0032657	1	0.0409665	-4.572257	0.0001467	3.234679	11	0.1598974	0.0065504	-327.67
	49	97	1.266892	0.0412888	-0.0032075	1	0.0414132	-4.442137	0.0004978	3.234859	11	0.159334	0.0065985	-327.67
	50	102	0.999041	0.0417445	-0.0031624	1	0.0418642	-4.332183	0.0005108	3.23494	11	0.1590945	0.0066604	-327.67
	51	107	0.7923428	0.0421682	-0.0031436	1	0.0422852	-4.263501	0.000277	3.235039	11	0.1592096	0.0067322	-327.67
	52	113	0.6334459	0.042524	-0.0031642	1	0.0426415	-4.255506	0.0002815	3.235117	11	0.1589835	0.0067793	-327.67
	53	123	0.5040323	0.0428905	-0.0032236	1	0.0430115	-4.298228	0.0002838	3.23525	11	0.1589826	0.0068381	-327.67
	54	134	0.400641	0.0432501	-0.0033367	1	0.0433786	-4.41154	0.0002833	3.235418	11	0.1589858	0.0068966	-327.67
	55	148	0.316723	0.0436255	-0.0035023	1	0.0437659	-4.589885	0.0002857	3.235629	11	0.1589905	0.0069584	-327.67
	56	166	0.2520161	0.0440057	-0.0037286	1	0.0441633	-4.843087	0.0002828	3.235861	11	0.1589941	0.0070217	-327.67
	57	183	0.2003205	0.0443947	-0.0040203	1	0.0445764	-5.174547	0.000285	3.236137	11	0.1589951	0.0070874	-327.67
	58	209	0.1588983	0.0448237	-0.0043869	1	0.0450379	-5.58971	0.0002829	3.236505	11	0.1589975	0.0071609	-327.67
	59	241	0.1260081	0.0453056	-0.0048279	1	0.0455621	-6.08272	0.0002831	3.237181	11	0.1589979	0.0072443	-327.67
	60	279	0.1001603	0.0458526	-0.0053564	1	0.0461644	-6.662943	0.0002819	3.23821	11	0.1589991	0.0073401	-327.67
	61	326	0.0794492	0.0464235	-0.0059861	1	0.0468078	-7.347502	0.0002791	3.239392	11	0.1589989	0.0074424	-327.67
	62	378	0.0631739	0.0469108	-0.0067796	1	0.0473982	-8.22354	0.0002818	3.239783	11	0.1589992	0.0075363	-327.67
	63	427	0.0501337	0.0475032	-0.0077033	1	0.0481238	-9.211137	0.0002856	3.240415	11	0.1589999	0.0076517	-327.67
	64	508	0.0398258	0.0481837	-0.0088205	1	0.0489844	-10.37365	0.000283	3.241291	11	0.1590011	0.0077886	-327.67
	65	610	0.0316296	0.0489191	-0.010186	1	0.0499683	-11.76213	0.0002807	3.242247	11	0.1589991	0.0079449	-327.67
	66	706	0.0251206	0.0497297	-0.0118429	1	0.0511204	-13.39526	0.0002806	3.243253	11	0.1589992	0.0081281	-327.67
	67	827	0.0199553	0.050659	-0.0138877	1	0.0525282	-15.33047	0.0002802	3.244445	11	0.1589994	0.0083519	-327.67
	68	979	0.0158522	0.0517726	-0.0163548	1	0.0542944	-17.53114	0.0002836	3.245861	11	0.1590015	0.0086329	-327.67
	69	1170	0.0125907	0.0531562	-0.0193583	1	0.0565715	-20.01052	0.0002825	3.247519	11	0.1589993	0.0089948	-327.67
	70	1410	0.0100011	0.0546531	-0.0228073	1	0.0592211	-22.65124	0.0002836	3.249606	11	0.1589997	0.0094161	-327.67
