EXPLAIN
TAG	GALVEIS
TITLE	LABEL	Galvanostatic EIS	Test Identifier
DATE	LABEL	3.2.2024	Date
TIME	LABEL	8:50:46	Time
NOTES	NOTES	1	Notes...
	
PSTAT	PSTAT	REF600-12055	Potentiostat
FREQINIT	QUANT	1.00000E+005	Initial Freq. (Hz)
FREQFINAL	QUANT	1.00000E-002	Final Freq. (Hz)
PTSPERDEC	QUANT	1.00000E+001	Points/decade
IACREQ	QUANT	1.59000E-001	AC Current (A rms)
IDCREQ	QUANT	0.00000E+000	DC Current (A)
AREA	QUANT	1.00000E+000	Sample Area (cm^2)
SPEED	SELECTOR	1	Optimize for:
DRIFTCOR	SELECTOR	0	Drift Correction
THD	SELECTOR	0	THD
ZGUESS	QUANT	1.00000E-001	Estimated Z (ohms)
EOC	QUANT	3.93582	Open Circuit (V)
SEQUENCER	TOGGLE	TRUE	Run as Sequence
PSTATMODEL	IQUANT	4	Pstat Model
PSTATSECTION	LABEL	REF600-12055	Pstat Section
PSTATSERIALNO	LABEL	12055	Pstat Serial Number
CTRLMODE	IQUANT	0	Control Mode
ELECTROMETER	IQUANT	0	RE=0 or CS=1
IESTAB	IQUANT	0	I/E Stability
CASPEED	IQUANT	4	Control Amp Speed
CONVENTION	IQUANT	1	Current Convention
ICHRANGE	IQUANT	2	Ich Range
ICHRANGEMODE	TOGGLE	F	Ich Auto Range
ICHOFFSETENABLE	TOGGLE	T	Ich Offset Enable
ICHOFFSET	QUANT	0	Ich Offset (V)
ICHFILTER	IQUANT	3	Ich Filter
VCHRANGE	IQUANT	2	Vch Range
VCHRANGEMODE	TOGGLE	F	Vch Auto Range
VCHOFFSETENABLE	TOGGLE	T	Vch Offset Enable
VCHOFFSET	QUANT	0	Vch Offset (V)
VCHFILTER	IQUANT	3	Vch Filter
ACHRANGE	IQUANT	2	Ach Range
ACHOFFSETENABLE	TOGGLE	F	Ach Offset Enable
ACHOFFSET	QUANT	0	Ach Offset (V)
ACHFILTER	IQUANT	1	Ach Filter
IERANGELOWERLIMIT	IQUANT	1	I/E Range Lower Limit
IERANGEMODE	TOGGLE	F	I/E AutoRange
IERANGE	IQUANT	7	I/E Range
POSFEEDENABLE	TOGGLE	F	Positive Feedback IR Comp
POSFEEDRESISTANCE	QUANT	0	Positive Feedback Resistance (ohm)
ACHSELECT	IQUANT	4	Ach Select
SENSECABLEID	IQUANT	14	Sense Cable ID
PWRCABLEID	IQUANT	14	Power Cable ID
DCCALDATE	LABEL		DC Calibration Date
ACCALDATE	LABEL		AC Calibration Date
THERMOSELECT	IQUANT	1	Thermo Select
FRAMEWORKVERSION	LABEL	7.10.3	Framework Version
INSTRUMENTVERSION	LABEL	4.91	Instrument Version
COMMVERSION	LABEL	2.24	Communications Version
CPUPLDVERSION	LABEL	0.00	CPU PLD Version
CTRLPLDVERSION	LABEL	0.00	CTRL PLD Version
PSTATPLDVERSION	LABEL	0.00	PSTAT PLD Version
ZCURVE	TABLE
	Pt	Time	Freq	Zreal	Zimag	Zsig	Zmod	Zphz	Idc	Vdc	IERange	Imod	Vmod	Temp
	#	s	Hz	ohm	ohm	V	ohm	°	A	V	#	A	V	°C
	0	5	100078.1	0.1064451	0.2370407	1	0.2598439	65.81714	0.00037	3.935229	11	0.1596624	0.0412102	-327.67
	1	7	79453.13	0.0880423	0.19762	1	0.216345	65.9864	0.0003531	3.935237	11	0.1642558	0.0353731	-327.67
	2	9	63140.62	0.0738105	0.1640409	1	0.1798816	65.77457	0.0003416	3.935231	11	0.1619738	0.0290468	-327.67
	3	11	50203.12	0.062913	0.1356417	1	0.1495216	65.11732	0.0003325	3.935232	11	0.1609347	0.0240147	-327.67
	4	12	39890.62	0.0546386	0.1117604	1	0.1244016	63.94641	0.0003328	3.935239	11	0.1602736	0.0199123	-327.67
	5	14	31640.63	0.0483432	0.0917712	1	0.1037257	62.22063	0.0003234	3.935235	11	0.1598401	0.0165657	-327.67
	6	16	25171.88	0.0435817	0.0755524	1	0.0872212	60.02189	0.000324	3.935242	11	0.1595463	0.0139084	-327.67
	7	17	20015.62	0.0398278	0.0622172	1	0.0738731	57.375	0.0003223	3.935211	11	0.1593577	0.0117683	-327.67
	8	19	15890.62	0.0367148	0.0511953	1	0.0629995	54.35372	0.0003265	3.935216	11	0.1592246	0.0100289	-327.67
	9	21	12609.38	0.0341196	0.0420421	1	0.0541451	50.93864	0.0003201	3.935219	11	0.1591408	0.0086155	-327.67
	10	23	10078.13	0.0320312	0.0345978	1	0.0471488	47.20604	0.0003208	3.935215	11	0.1590911	0.0075003	-327.67
	11	24	8015.625	0.0303139	0.0281482	1	0.0413673	42.87848	0.0003172	3.93522	11	0.1590485	0.006579	-327.67
	12	26	6328.125	0.028998	0.0225304	1	0.0367219	37.8459	0.0003101	3.935219	11	0.1590353	0.0058399	-327.67
	13	28	5015.625	0.0280879	0.017911	1	0.0333127	32.52471	0.0003214	3.935233	11	0.1590129	0.005297	-327.67
	14	29	3984.375	0.0275041	0.0141085	1	0.0309116	27.15602	0.0003178	3.935225	11	0.1590102	0.0049152	-327.67
	15	31	3170.956	0.027173	0.0109411	1	0.029293	21.93202	0.0003195	3.935234	11	0.1590065	0.0046577	-327.67
	16	32	2527.573	0.0270461	0.0083711	1	0.0283119	17.19805	0.0003219	3.935228	11	0.1590039	0.0045017	-327.67
	17	34	1976.103	0.0270555	0.0060861	1	0.0277316	12.67751	0.000321	3.935238	11	0.1589987	0.0044093	-327.67
	18	35	1577.524	0.0271724	0.0044973	1	0.0275421	9.397768	0.0003087	3.93524	11	0.1590044	0.0043793	-327.67
	19	37	1265.625	0.0273475	0.003085	1	0.027521	6.436103	0.0003184	3.935249	11	0.1589986	0.0043758	-327.67
	20	39	998.264	0.0276054	0.0019157	1	0.0276718	3.969722	0.0003209	3.935255	11	0.1589992	0.0043998	-327.67
	21	40	796.875	0.0279153	0.0010637	1	0.0279355	2.18214	0.0003168	3.935245	11	0.1590043	0.0044419	-327.67
	22	42	627.7902	0.0282511	0.0003756	1	0.0282536	0.7617782	0.0003172	3.93525	11	0.159004	0.0044924	-327.67
	23	43	505.5147	0.028414	3.650661E-005	1	0.028414	0.0736143	0.0003002	3.93517	11	0.1575941	0.0044779	-327.67
	24	45	397.9953	0.0288494	-0.0005049	1	0.0288539	-1.002652	0.0003106	3.935174	11	0.1606004	0.0046339	-327.67
	25	46	315.5048	0.0292632	-0.0008762	1	0.0292763	-1.715029	0.0003074	3.935176	11	0.1593394	0.0046649	-327.67
	26	48	252.4038	0.0296444	-0.0011387	1	0.0296662	-2.19977	0.0003099	3.935179	11	0.1589744	0.0047162	-327.67
	27	49	198.6229	0.0300494	-0.0013286	1	0.0300788	-2.531709	0.0003106	3.93518	11	0.1588762	0.0047788	-327.67
	28	51	158.3615	0.030406	-0.0014452	1	0.0304404	-2.721157	0.0003105	3.93518	11	0.1588875	0.0048366	-327.67
	29	53	125.558	0.030762	-0.0015061	1	0.0307989	-2.802997	0.0003063	3.935185	11	0.1589107	0.0048943	-327.67
	30	54	100.4464	0.0310821	-0.001519	1	0.0311192	-2.797844	0.0003152	3.935192	11	0.158944	0.0049462	-327.67
	31	56	79.00281	0.0314089	-0.0014907	1	0.0314443	-2.717311	0.0003026	3.935196	11	0.1589589	0.0049983	-327.67
	32	58	63.3446	0.0316798	-0.0014346	1	0.0317123	-2.592753	0.0003099	3.935194	11	0.1589714	0.0050414	-327.67
	33	60	50.22321	0.0319363	-0.0013448	1	0.0319646	-2.411191	0.0003097	3.935199	11	0.1589789	0.0050817	-327.67
	34	61	38.42213	0.0321895	-0.0012272	1	0.0322129	-2.183378	0.0003109	3.935209	11	0.158993	0.0051216	-327.67
	35	63	31.25	0.032364	-0.0011237	1	0.0323835	-1.988538	0.0003091	3.935212	11	0.158997	0.0051489	-327.67
	36	65	24.93351	0.032511	-0.0010166	1	0.0325269	-1.790968	0.0003069	3.935225	11	0.1589898	0.0051714	-327.67
	37	66	19.86229	0.0326329	-0.0009136	1	0.0326457	-1.603735	0.0003179	3.935228	11	0.1589976	0.0051906	-327.67
	38	68	15.625	0.0327452	-0.0008194	1	0.0327555	-1.43338	0.0003258	3.935215	11	0.158981	0.0052075	-327.67
	39	69	12.40079	0.0328309	-0.0007399	1	0.0328392	-1.29106	0.0002904	3.935234	11	0.158996	0.0052213	-327.67
	40	71	9.93114	0.0329085	-0.0006886	1	0.0329157	-1.198673	0.0003048	3.935219	11	0.1590169	0.0052342	-327.67
	41	73	7.944915	0.0329538	-0.0006338	1	0.0329599	-1.101833	0.0002779	3.935239	11	0.1589979	0.0052406	-327.67
	42	74	6.317385	0.0330177	-0.0006042	1	0.0330232	-1.048412	0.0003255	3.935253	11	0.1589558	0.0052492	-327.67
	43	76	5.008013	0.0330675	-0.0005962	1	0.0330729	-1.032948	0.0002706	3.935267	11	0.1590317	0.0052596	-327.67
	44	79	3.945707	0.0331233	-0.0005969	1	0.0331287	-1.032402	0.0003417	3.935243	11	0.1589928	0.0052672	-327.67
	45	82	3.158693	0.0331734	-0.0006216	1	0.0331793	-1.073519	0.0004109	3.935217	11	0.1589776	0.0052748	-327.67
	46	84	2.504006	0.0331031	-0.00056	1	0.0331079	-0.969093	0.0003634	3.935182	11	0.15544	0.0051463	-327.67
	47	89	1.998082	0.0332062	-0.0006543	1	0.0332127	-1.12886	0.0001443	3.93516	11	0.1614154	0.005361	-327.67
	48	92	1.584686	0.0332958	-0.0007396	1	0.033304	-1.272429	-2.299028E-005	3.935176	11	0.1600593	0.0053306	-327.67
	49	96	1.266892	0.0333871	-0.0008278	1	0.0333973	-1.420349	0.0005864	3.935216	11	0.1592728	0.0053193	-327.67
	50	101	0.999041	0.0334907	-0.0009416	1	0.0335039	-1.610465	0.0005812	3.93525	11	0.1590703	0.0053295	-327.67
	51	106	0.7923428	0.033632	-0.0010462	1	0.0336482	-1.781736	0.0002818	3.935307	11	0.1591229	0.0053542	-327.67
	52	112	0.6334459	0.0337453	-0.0011954	1	0.0337665	-2.028762	0.0002817	3.935298	11	0.1589836	0.0053683	-327.67
	53	122	0.5040323	0.033861	-0.0013616	1	0.0338884	-2.302669	0.0002748	3.935311	11	0.1589815	0.0053876	-327.67
	54	133	0.400641	0.0340424	-0.0015421	1	0.0340773	-2.593737	0.0002783	3.935333	11	0.1589857	0.0054178	-327.67
	55	145	0.316723	0.0342371	-0.0017541	1	0.034282	-2.932866	0.0002801	3.935354	11	0.1589911	0.0054505	-327.67
	56	159	0.2520161	0.0344474	-0.0019871	1	0.0345047	-3.301505	0.0002799	3.935389	11	0.158994	0.005486	-327.67
	57	176	0.2003205	0.0347003	-0.0022277	1	0.0347717	-3.673332	0.0002762	3.935421	11	0.1589949	0.0055285	-327.67
	58	198	0.1588983	0.0349919	-0.0024961	1	0.0350808	-4.080232	0.0002806	3.935463	11	0.158998	0.0055778	-327.67
	59	223	0.1260081	0.0353272	-0.0027882	1	0.035437	-4.51279	0.000282	3.935598	11	0.1589985	0.0056344	-327.67
	60	253	0.1001603	0.0357171	-0.0030946	1	0.0358509	-4.951847	0.0002797	3.935834	11	0.1589978	0.0057002	-327.67
	61	290	0.0794492	0.0361357	-0.0034315	1	0.0362982	-5.424695	0.000278	3.936066	11	0.1590017	0.0057715	-327.67
	62	329	0.0631739	0.0364486	-0.0038385	1	0.0366501	-6.011843	0.0002814	3.935933	11	0.1589993	0.0058273	-327.67
	63	394	0.0501337	0.0368464	-0.0042979	1	0.0370962	-6.653078	0.0002802	3.935921	11	0.1589996	0.0058983	-327.67
	64	475	0.0398258	0.0373059	-0.004804	1	0.037614	-7.337749	0.0002794	3.93599	11	0.1590006	0.0059806	-327.67
	65	577	0.0316296	0.0378019	-0.0054105	1	0.0381872	-8.145319	0.0002842	3.936082	11	0.1589992	0.0060717	-327.67
	66	705	0.0251206	0.038364	-0.0061139	1	0.0388481	-9.054801	0.0002814	3.936184	11	0.159	0.0061768	-327.67
	67	826	0.0199553	0.0389748	-0.0069344	1	0.0395869	-10.08854	0.0002841	3.936302	11	0.158999	0.0062943	-327.67
	68	1028	0.0158522	0.0396873	-0.0079042	1	0.0404668	-11.2638	0.0002827	3.936461	11	0.1590009	0.0064343	-327.67
	69	1219	0.0125907	0.0405253	-0.0090498	1	0.0415235	-12.58834	0.0002817	3.936607	11	0.1589999	0.0066022	-327.67
	70	1459	0.0100011	0.0415723	-0.0103526	1	0.042842	-13.9837	0.0002816	3.936767	11	0.1590001	0.0068119	-327.67
