EXPLAIN
TAG	GALVEIS
TITLE	LABEL	Galvanostatic EIS	Test Identifier
DATE	LABEL	3.2.2024	Date
TIME	LABEL	17:05:32	Time
NOTES	NOTES	1	Notes...
	
PSTAT	PSTAT	REF600-12055	Potentiostat
FREQINIT	QUANT	1.00000E+005	Initial Freq. (Hz)
FREQFINAL	QUANT	1.00000E-002	Final Freq. (Hz)
PTSPERDEC	QUANT	1.00000E+001	Points/decade
IACREQ	QUANT	1.59000E-001	AC Current (A rms)
IDCREQ	QUANT	0.00000E+000	DC Current (A)
AREA	QUANT	1.00000E+000	Sample Area (cm^2)
SPEED	SELECTOR	1	Optimize for:
DRIFTCOR	SELECTOR	0	Drift Correction
THD	SELECTOR	0	THD
ZGUESS	QUANT	1.00000E-001	Estimated Z (ohms)
EOC	QUANT	3.431595	Open Circuit (V)
SEQUENCER	TOGGLE	TRUE	Run as Sequence
PSTATMODEL	IQUANT	4	Pstat Model
PSTATSECTION	LABEL	REF600-12055	Pstat Section
PSTATSERIALNO	LABEL	12055	Pstat Serial Number
CTRLMODE	IQUANT	0	Control Mode
ELECTROMETER	IQUANT	0	RE=0 or CS=1
IESTAB	IQUANT	0	I/E Stability
CASPEED	IQUANT	4	Control Amp Speed
CONVENTION	IQUANT	1	Current Convention
ICHRANGE	IQUANT	2	Ich Range
ICHRANGEMODE	TOGGLE	F	Ich Auto Range
ICHOFFSETENABLE	TOGGLE	T	Ich Offset Enable
ICHOFFSET	QUANT	0	Ich Offset (V)
ICHFILTER	IQUANT	3	Ich Filter
VCHRANGE	IQUANT	2	Vch Range
VCHRANGEMODE	TOGGLE	F	Vch Auto Range
VCHOFFSETENABLE	TOGGLE	T	Vch Offset Enable
VCHOFFSET	QUANT	0	Vch Offset (V)
VCHFILTER	IQUANT	3	Vch Filter
ACHRANGE	IQUANT	2	Ach Range
ACHOFFSETENABLE	TOGGLE	F	Ach Offset Enable
ACHOFFSET	QUANT	0	Ach Offset (V)
ACHFILTER	IQUANT	1	Ach Filter
IERANGELOWERLIMIT	IQUANT	1	I/E Range Lower Limit
IERANGEMODE	TOGGLE	F	I/E AutoRange
IERANGE	IQUANT	7	I/E Range
POSFEEDENABLE	TOGGLE	F	Positive Feedback IR Comp
POSFEEDRESISTANCE	QUANT	0	Positive Feedback Resistance (ohm)
ACHSELECT	IQUANT	4	Ach Select
SENSECABLEID	IQUANT	14	Sense Cable ID
PWRCABLEID	IQUANT	14	Power Cable ID
DCCALDATE	LABEL		DC Calibration Date
ACCALDATE	LABEL		AC Calibration Date
THERMOSELECT	IQUANT	1	Thermo Select
FRAMEWORKVERSION	LABEL	7.10.3	Framework Version
INSTRUMENTVERSION	LABEL	4.91	Instrument Version
COMMVERSION	LABEL	2.24	Communications Version
CPUPLDVERSION	LABEL	0.00	CPU PLD Version
CTRLPLDVERSION	LABEL	0.00	CTRL PLD Version
PSTATPLDVERSION	LABEL	0.00	PSTAT PLD Version
ZCURVE	TABLE
	Pt	Time	Freq	Zreal	Zimag	Zsig	Zmod	Zphz	Idc	Vdc	IERange	Imod	Vmod	Temp
	#	s	Hz	ohm	ohm	V	ohm	°	A	V	#	A	V	°C
	0	5	100078.1	0.1058999	0.2382894	1	0.2607616	66.03882	0.0003712	3.430835	11	0.1596726	0.0413584	-327.67
	1	7	79453.13	0.0876822	0.1984909	1	0.216995	66.16682	0.0003542	3.43084	11	0.1642428	0.0354766	-327.67
	2	9	63140.62	0.0735802	0.1646587	1	0.1803512	65.92182	0.0003358	3.430843	11	0.1619612	0.0291203	-327.67
	3	11	50203.12	0.0627894	0.1360841	1	0.1498712	65.23132	0.0003381	3.430851	11	0.1609259	0.0240696	-327.67
	4	12	39890.62	0.0545966	0.1120773	1	0.124668	64.02776	0.0003292	3.43085	11	0.1602738	0.0199549	-327.67
	5	14	31640.63	0.0483573	0.0920071	1	0.103941	62.27438	0.0003289	3.430846	11	0.159838	0.0165999	-327.67
	6	16	25171.88	0.0436271	0.0757321	1	0.0873995	60.05498	0.0003237	3.430852	11	0.1595453	0.0139367	-327.67
	7	18	20015.62	0.0399032	0.062342	1	0.0740188	57.37796	0.0003269	3.430826	11	0.1593551	0.0117913	-327.67
	8	19	15890.62	0.0368139	0.0512824	1	0.0631281	54.32671	0.0003201	3.430826	11	0.1592278	0.0100496	-327.67
	9	21	12609.38	0.0342257	0.0421101	1	0.0542647	50.89695	0.0003224	3.430829	11	0.1591439	0.0086347	-327.67
	10	23	10078.13	0.0321476	0.034651	1	0.0472669	47.14622	0.0003097	3.430827	11	0.1590872	0.0075189	-327.67
	11	24	8015.625	0.0304504	0.0281991	1	0.041502	42.80167	0.0003235	3.43083	11	0.1590506	0.0066006	-327.67
	12	26	6328.125	0.0291251	0.0225749	1	0.0368496	37.77932	0.0003172	3.430837	11	0.1590323	0.0058601	-327.67
	13	28	5015.625	0.0282264	0.017946	1	0.0334483	32.4477	0.0003215	3.430835	11	0.1590145	0.0053187	-327.67
	14	29	3984.375	0.0276191	0.0141189	1	0.0310186	27.07612	0.0003192	3.430838	11	0.15901	0.0049322	-327.67
	15	31	3170.956	0.0272859	0.011002	1	0.0294205	21.95979	0.0003215	3.430842	11	0.1590095	0.0046781	-327.67
	16	32	2527.573	0.0271632	0.008409	1	0.0284351	17.20117	0.0003206	3.430842	11	0.1590015	0.0045212	-327.67
	17	34	1976.103	0.0271606	0.0061184	1	0.0278412	12.69505	0.0003112	3.430855	11	0.1589974	0.0044267	-327.67
	18	36	1577.524	0.0272619	0.0044806	1	0.0276276	9.333309	0.0003182	3.430853	11	0.1590002	0.0043928	-327.67
	19	37	1265.625	0.0274711	0.0031501	1	0.0276512	6.541591	0.0003106	3.430857	11	0.1590058	0.0043967	-327.67
	20	39	998.264	0.0276938	0.001943	1	0.0277618	4.013349	0.0003113	3.430855	11	0.1589928	0.0044139	-327.67
	21	40	796.875	0.027977	0.0010284	1	0.0279959	2.105081	0.0003056	3.430865	11	0.1590016	0.0044514	-327.67
	22	42	627.7902	0.0283112	0.0003235	1	0.0283131	0.6545683	0.000322	3.430874	11	0.1590086	0.004502	-327.67
	23	43	505.5147	0.0284976	-4.176105E-005	1	0.0284977	-0.0839624	0.0003091	3.430782	11	0.1575951	0.0044911	-327.67
	24	45	397.9953	0.0289363	-0.000613	1	0.0289428	-1.21369	0.0003121	3.430786	11	0.1606012	0.0046483	-327.67
	25	46	315.5048	0.029351	-0.0010241	1	0.0293688	-1.998234	0.0003108	3.430793	11	0.1593406	0.0046796	-327.67
	26	48	252.4038	0.0297506	-0.0013227	1	0.02978	-2.545653	0.0003126	3.430796	11	0.1589659	0.004734	-327.67
	27	50	198.6229	0.0301686	-0.0015637	1	0.0302091	-2.967166	0.0003021	3.430797	11	0.1588831	0.0047997	-327.67
	28	51	158.3615	0.0305511	-0.0017361	1	0.0306004	-3.25246	0.0002996	3.430802	11	0.1588906	0.0048621	-327.67
	29	53	125.558	0.0309481	-0.0018572	1	0.0310037	-3.434145	0.0003054	3.430809	11	0.1589063	0.0049267	-327.67
	30	54	100.4464	0.031318	-0.0019358	1	0.0313778	-3.537001	0.0003056	3.430809	11	0.1589431	0.0049873	-327.67
	31	56	79.00281	0.0317093	-0.0019843	1	0.0317713	-3.580777	0.0003089	3.430812	11	0.1589607	0.0050504	-327.67
	32	58	63.3446	0.0320628	-0.0019923	1	0.0321247	-3.555692	0.0003114	3.430822	11	0.1589741	0.005107	-327.67
	33	59	50.22321	0.0324183	-0.0019901	1	0.0324793	-3.512924	0.0003028	3.430827	11	0.1589821	0.0051636	-327.67
	34	61	38.42213	0.0328189	-0.0019356	1	0.032876	-3.375285	0.0003128	3.430825	11	0.1589896	0.0052269	-327.67
	35	63	31.25	0.0331109	-0.0018816	1	0.0331643	-3.252445	0.0003229	3.430834	11	0.1589839	0.0052726	-327.67
	36	65	24.93351	0.0334234	-0.0018023	1	0.033472	-3.086503	0.0003096	3.430834	11	0.1590026	0.0053221	-327.67
	37	66	19.86229	0.0336999	-0.0017032	1	0.0337429	-2.893201	0.0002916	3.430837	11	0.1589852	0.0053646	-327.67
	38	68	15.625	0.0339798	-0.0015849	1	0.0340167	-2.670529	0.0003126	3.430834	11	0.1590026	0.0054087	-327.67
	39	69	12.40079	0.0342191	-0.0014737	1	0.0342509	-2.466071	0.0003277	3.430838	11	0.1589896	0.0054455	-327.67
	40	71	9.93114	0.0344169	-0.0013608	1	0.0344438	-2.26419	0.0002803	3.430846	11	0.1589932	0.0054763	-327.67
	41	72	7.944915	0.0345748	-0.0012467	1	0.0345973	-2.065158	0.0002978	3.430851	11	0.1590021	0.005501	-327.67
	42	74	6.317385	0.0347343	-0.001141	1	0.034753	-1.881478	0.0002307	3.43087	11	0.1590179	0.0055264	-327.67
	43	76	5.008013	0.0348677	-0.0010464	1	0.0348834	-1.718949	0.000355	3.430879	11	0.1589813	0.0055458	-327.67
	44	79	3.945707	0.0349876	-0.0009717	1	0.0350011	-1.590879	0.000278	3.43088	11	0.1589995	0.0055652	-327.67
	45	82	3.158693	0.0350869	-0.0009153	1	0.0350988	-1.494239	0.0002104	3.430891	11	0.1589781	0.0055799	-327.67
	46	84	2.504006	0.0350456	-0.0007789	1	0.0350542	-1.273205	0.0002775	3.430885	11	0.1554521	0.0054493	-327.67
	47	88	1.998082	0.0351641	-0.0008144	1	0.0351735	-1.326725	0.0004186	3.430909	11	0.1613514	0.0056753	-327.67
	48	91	1.584686	0.0352741	-0.0008453	1	0.0352842	-1.372714	0.0006339	3.430913	11	0.1601049	0.0056492	-327.67
	49	95	1.266892	0.035374	-0.0008694	1	0.0353846	-1.407916	2.794596E-005	3.430893	11	0.1592728	0.0056358	-327.67
	50	100	0.999041	0.0354868	-0.0009203	1	0.0354987	-1.485627	4.899304E-005	3.43088	11	0.1590735	0.0056469	-327.67
	51	105	0.7923428	0.0355948	-0.0009805	1	0.0356083	-1.577837	0.0002805	3.430933	11	0.1591216	0.0056661	-327.67
	52	113	0.6334459	0.035715	-0.0010558	1	0.0357306	-1.693315	0.0002758	3.430951	11	0.1589826	0.0056805	-327.67
	53	121	0.5040323	0.0358272	-0.0011564	1	0.0358459	-1.848748	0.0002821	3.430971	11	0.1589827	0.0056989	-327.67
	54	130	0.400641	0.0359618	-0.0012824	1	0.0359847	-2.042275	0.0002817	3.43099	11	0.1589851	0.005721	-327.67
	55	142	0.316723	0.0360988	-0.0014257	1	0.036127	-2.261728	0.0002831	3.431026	11	0.1589908	0.0057439	-327.67
	56	156	0.2520161	0.0362627	-0.0015907	1	0.0362975	-2.511732	0.0002802	3.431064	11	0.1589932	0.0057711	-327.67
	57	173	0.2003205	0.036453	-0.0017781	1	0.0364964	-2.792562	0.0002792	3.431104	11	0.1589955	0.0058028	-327.67
	58	195	0.1588983	0.0366419	-0.0019964	1	0.0366963	-3.118598	0.0002794	3.431164	11	0.1589984	0.0058347	-327.67
	59	220	0.1260081	0.0368948	-0.0022433	1	0.0369629	-3.47946	0.0002808	3.431335	11	0.1589978	0.005877	-327.67
	60	250	0.1001603	0.0371623	-0.0025267	1	0.0372481	-3.889601	0.0002811	3.431595	11	0.1589985	0.0059224	-327.67
	61	297	0.0794492	0.0374833	-0.0028636	1	0.0375926	-4.368741	0.0002812	3.43191	11	0.1589999	0.0059772	-327.67
	62	336	0.0631739	0.0377023	-0.0032644	1	0.0378434	-4.948487	0.000281	3.431845	11	0.1589983	0.006017	-327.67
	63	385	0.0501337	0.0379817	-0.0037521	1	0.0381666	-5.641803	0.0002808	3.431889	11	0.1590002	0.0060685	-327.67
	64	446	0.0398258	0.0383276	-0.0043237	1	0.0385708	-6.436286	0.0002809	3.431992	11	0.1590012	0.0061328	-327.67
	65	549	0.0316296	0.0387464	-0.0050147	1	0.0390695	-7.374365	0.0002798	3.432161	11	0.1589994	0.006212	-327.67
	66	677	0.0251206	0.039204	-0.005836	1	0.039636	-8.466943	0.0002836	3.432373	11	0.1590001	0.0063021	-327.67
	67	837	0.0199553	0.0397862	-0.0068112	1	0.040365	-9.71465	0.0002805	3.432611	11	0.1590003	0.006418	-327.67
	68	1039	0.0158522	0.0405022	-0.0079835	1	0.0412815	-11.15073	0.0002821	3.432898	11	0.1589996	0.0065637	-327.67
	69	1293	0.0125907	0.0412885	-0.0093115	1	0.0423255	-12.70884	0.0002821	3.43319	11	0.159	0.0067298	-327.67
	70	1533	0.0100011	0.0422138	-0.010822	1	0.0435789	-14.37881	0.0002818	3.433493	11	0.1590002	0.0069291	-327.67
