EXPLAIN
TAG	GALVEIS
TITLE	LABEL	Galvanostatic EIS	Test Identifier
DATE	LABEL	3.2.2024	Date
TIME	LABEL	12:55:50	Time
NOTES	NOTES	1	Notes...
	
PSTAT	PSTAT	REF600-12055	Potentiostat
FREQINIT	QUANT	1.00000E+005	Initial Freq. (Hz)
FREQFINAL	QUANT	1.00000E-002	Final Freq. (Hz)
PTSPERDEC	QUANT	1.00000E+001	Points/decade
IACREQ	QUANT	1.59000E-001	AC Current (A rms)
IDCREQ	QUANT	0.00000E+000	DC Current (A)
AREA	QUANT	1.00000E+000	Sample Area (cm^2)
SPEED	SELECTOR	1	Optimize for:
DRIFTCOR	SELECTOR	0	Drift Correction
THD	SELECTOR	0	THD
ZGUESS	QUANT	1.00000E-001	Estimated Z (ohms)
EOC	QUANT	3.662664	Open Circuit (V)
SEQUENCER	TOGGLE	TRUE	Run as Sequence
PSTATMODEL	IQUANT	4	Pstat Model
PSTATSECTION	LABEL	REF600-12055	Pstat Section
PSTATSERIALNO	LABEL	12055	Pstat Serial Number
CTRLMODE	IQUANT	0	Control Mode
ELECTROMETER	IQUANT	0	RE=0 or CS=1
IESTAB	IQUANT	0	I/E Stability
CASPEED	IQUANT	4	Control Amp Speed
CONVENTION	IQUANT	1	Current Convention
ICHRANGE	IQUANT	2	Ich Range
ICHRANGEMODE	TOGGLE	F	Ich Auto Range
ICHOFFSETENABLE	TOGGLE	T	Ich Offset Enable
ICHOFFSET	QUANT	0	Ich Offset (V)
ICHFILTER	IQUANT	3	Ich Filter
VCHRANGE	IQUANT	2	Vch Range
VCHRANGEMODE	TOGGLE	F	Vch Auto Range
VCHOFFSETENABLE	TOGGLE	T	Vch Offset Enable
VCHOFFSET	QUANT	0	Vch Offset (V)
VCHFILTER	IQUANT	3	Vch Filter
ACHRANGE	IQUANT	2	Ach Range
ACHOFFSETENABLE	TOGGLE	F	Ach Offset Enable
ACHOFFSET	QUANT	0	Ach Offset (V)
ACHFILTER	IQUANT	1	Ach Filter
IERANGELOWERLIMIT	IQUANT	1	I/E Range Lower Limit
IERANGEMODE	TOGGLE	F	I/E AutoRange
IERANGE	IQUANT	7	I/E Range
POSFEEDENABLE	TOGGLE	F	Positive Feedback IR Comp
POSFEEDRESISTANCE	QUANT	0	Positive Feedback Resistance (ohm)
ACHSELECT	IQUANT	4	Ach Select
SENSECABLEID	IQUANT	14	Sense Cable ID
PWRCABLEID	IQUANT	14	Power Cable ID
DCCALDATE	LABEL		DC Calibration Date
ACCALDATE	LABEL		AC Calibration Date
THERMOSELECT	IQUANT	1	Thermo Select
FRAMEWORKVERSION	LABEL	7.10.3	Framework Version
INSTRUMENTVERSION	LABEL	4.91	Instrument Version
COMMVERSION	LABEL	2.24	Communications Version
CPUPLDVERSION	LABEL	0.00	CPU PLD Version
CTRLPLDVERSION	LABEL	0.00	CTRL PLD Version
PSTATPLDVERSION	LABEL	0.00	PSTAT PLD Version
ZCURVE	TABLE
	Pt	Time	Freq	Zreal	Zimag	Zsig	Zmod	Zphz	Idc	Vdc	IERange	Imod	Vmod	Temp
	#	s	Hz	ohm	ohm	V	ohm	°	A	V	#	A	V	°C
	0	5	100078.1	0.106374	0.2373696	1	0.2601148	65.86111	0.0003656	3.662017	11	0.1596644	0.0412537	-327.67
	1	6	79453.13	0.0880084	0.1978465	1	0.216538	66.01897	0.0003501	3.662023	11	0.1642578	0.0354051	-327.67
	2	8	63140.62	0.0738069	0.1642024	1	0.1800274	65.79668	0.0003426	3.662035	11	0.1619694	0.0290695	-327.67
	3	10	50203.12	0.0629399	0.1357765	1	0.1496552	65.12966	0.0003326	3.662039	11	0.1609263	0.0240349	-327.67
	4	12	39890.62	0.0546736	0.1118593	1	0.1245059	63.95196	0.0003288	3.66205	11	0.1602831	0.0199301	-327.67
	5	13	31640.63	0.04839	0.0918487	1	0.1038161	62.21772	0.0003124	3.66205	11	0.1598346	0.0165795	-327.67
	6	15	25171.88	0.0436308	0.0756155	1	0.0873003	60.01469	0.0003271	3.662044	11	0.1595473	0.0139211	-327.67
	7	17	20015.62	0.0398815	0.0622688	1	0.0739455	57.3615	0.0003109	3.662003	11	0.1593579	0.0117798	-327.67
	8	19	15890.62	0.0367621	0.0512236	1	0.06305	54.33379	0.0003201	3.662009	11	0.1592244	0.0100369	-327.67
	9	20	12609.38	0.0341711	0.0420701	1	0.0541993	50.91508	0.0003196	3.662018	11	0.1591466	0.0086245	-327.67
	10	22	10078.13	0.032077	0.0346175	1	0.0471943	47.18148	0.0003236	3.662012	11	0.159084	0.0075072	-327.67
	11	24	8015.625	0.0303772	0.0281662	1	0.041426	42.83713	0.0003163	3.662023	11	0.1590541	0.0065886	-327.67
	12	25	6328.125	0.0290544	0.0225398	1	0.0367723	37.80357	0.0003195	3.662026	11	0.1590343	0.0058479	-327.67
	13	27	5015.625	0.028148	0.0179293	1	0.0333732	32.49575	0.0003189	3.662036	11	0.1590114	0.0053066	-327.67
	14	29	3984.375	0.0275588	0.0141001	1	0.0309565	27.09593	0.0003222	3.662039	11	0.1590117	0.0049224	-327.67
	15	31	3170.956	0.0272322	0.0109733	1	0.0293599	21.94714	0.0003192	3.662035	11	0.1590074	0.0046684	-327.67
	16	32	2527.573	0.0270907	0.0083987	1	0.0283627	17.22452	0.0003178	3.66204	11	0.1590033	0.0045097	-327.67
	17	34	1976.103	0.0271088	0.0060992	1	0.0277864	12.67986	0.0003169	3.662042	11	0.1589978	0.004418	-327.67
	18	36	1577.524	0.0272198	0.0045076	1	0.0275905	9.402862	0.000317	3.662051	11	0.1590054	0.004387	-327.67
	19	37	1265.625	0.0274033	0.0031193	1	0.0275803	6.493923	0.0003161	3.66205	11	0.158999	0.0043852	-327.67
	20	39	998.264	0.0276637	0.0019846	1	0.0277348	4.103478	0.0003177	3.662055	11	0.1590002	0.0044098	-327.67
	21	40	796.875	0.027983	0.0011173	1	0.0280053	2.286515	0.0003179	3.662054	11	0.1590097	0.0044531	-327.67
	22	42	627.7902	0.0283146	0.0002943	1	0.0283161	0.5956017	0.0003177	3.662057	11	0.1589855	0.0045018	-327.67
	23	44	505.5147	0.0284764	4.371062E-005	1	0.0284764	0.0879476	0.0003042	3.661982	11	0.1575988	0.0044879	-327.67
	24	45	397.9953	0.0289095	-0.0004855	1	0.0289135	-0.962174	0.0003109	3.661986	11	0.1606055	0.0046437	-327.67
	25	47	315.5048	0.0293193	-0.0008567	1	0.0293318	-1.673707	0.0003107	3.661987	11	0.1593386	0.0046737	-327.67
	26	48	252.4038	0.0297075	-0.0011138	1	0.0297283	-2.147063	0.0003072	3.661999	11	0.1589691	0.0047259	-327.67
	27	50	198.6229	0.030106	-0.0012969	1	0.0301339	-2.46656	0.0003125	3.661999	11	0.1588805	0.0047877	-327.67
	28	51	158.3615	0.0304647	-0.0013994	1	0.0304968	-2.629966	0.0003098	3.662001	11	0.1588863	0.0048455	-327.67
	29	53	125.558	0.0308107	-0.0014479	1	0.0308447	-2.690506	0.0003057	3.662002	11	0.1589153	0.0049017	-327.67
	30	55	100.4464	0.0311238	-0.0014453	1	0.0311574	-2.658678	0.0003114	3.662007	11	0.1589399	0.0049522	-327.67
	31	56	79.00281	0.0314316	-0.0014068	1	0.0314631	-2.562734	0.0003055	3.66201	11	0.1589587	0.0050013	-327.67
	32	58	63.3446	0.0316913	-0.0013474	1	0.0317199	-2.434495	0.0003093	3.662014	11	0.1589695	0.0050425	-327.67
	33	59	50.22321	0.0319318	-0.0012475	1	0.0319561	-2.237304	0.0003138	3.662012	11	0.1589861	0.0050806	-327.67
	34	61	38.42213	0.0321607	-0.0011152	1	0.03218	-1.986014	0.00031	3.662017	11	0.1589854	0.0051162	-327.67
	35	63	31.25	0.0323116	-0.0010218	1	0.0323277	-1.811298	0.0003277	3.662027	11	0.1589938	0.0051399	-327.67
	36	65	24.93351	0.0324455	-0.0009212	1	0.0324586	-1.626229	0.0003018	3.662026	11	0.1589947	0.0051607	-327.67
	37	66	19.86229	0.0325496	-0.0008105	1	0.0325597	-1.426439	0.0003376	3.662033	11	0.1589802	0.0051764	-327.67
	38	68	15.625	0.0326561	-0.0007233	1	0.0326641	-1.26879	0.0003204	3.662046	11	0.1590029	0.0051937	-327.67
	39	69	12.40079	0.0327201	-0.0006347	1	0.0327262	-1.111241	0.0003012	3.66205	11	0.1590071	0.0052037	-327.67
	40	71	9.93114	0.032789	-0.0005844	1	0.0327942	-1.021015	0.0003132	3.66204	11	0.1590056	0.0052145	-327.67
	41	72	7.944915	0.0328382	-0.00054	1	0.0328426	-0.9421534	0.0002814	3.662055	11	0.1589899	0.0052216	-327.67
	42	74	6.317385	0.0328803	-0.0005138	1	0.0328843	-0.8951856	0.0002422	3.662052	11	0.1590028	0.0052287	-327.67
	43	76	5.008013	0.0329294	-0.0004922	1	0.0329331	-0.8563006	0.0003595	3.66205	11	0.1589801	0.0052357	-327.67
	44	79	3.945707	0.0329675	-0.00049	1	0.0329711	-0.85146	0.0002759	3.662066	11	0.1589995	0.0052424	-327.67
	45	82	3.158693	0.0330081	-0.0005007	1	0.0330118	-0.8690354	0.0002016	3.662083	11	0.1589766	0.0052481	-327.67
	46	86	2.504006	0.0329271	-0.0004323	1	0.03293	-0.7521175	0.0002914	3.662079	11	0.1554632	0.0051194	-327.67
	47	89	1.998082	0.0330144	-0.0005138	1	0.0330184	-0.8916361	0.0003872	3.662097	11	0.1613379	0.0053271	-327.67
	48	92	1.584686	0.0330965	-0.000581	1	0.0331016	-1.005738	0.000623	3.662103	11	0.1601008	0.0052996	-327.67
	49	96	1.266892	0.0331724	-0.0006543	1	0.0331788	-1.130049	4.291092E-005	3.662071	11	0.1592727	0.0052845	-327.67
	50	102	0.999041	0.0332643	-0.0007355	1	0.0332725	-1.266638	5.189015E-005	3.662064	11	0.1590818	0.005293	-327.67
	51	107	0.7923428	0.0333555	-0.0008186	1	0.0333655	-1.405909	0.0002866	3.662125	11	0.1591298	0.0053094	-327.67
	52	113	0.6334459	0.0334466	-0.0009242	1	0.0334594	-1.582745	0.0002808	3.662141	11	0.1589846	0.0053195	-327.67
	53	123	0.5040323	0.0335666	-0.0010458	1	0.0335829	-1.784473	0.0002813	3.662161	11	0.158983	0.0053391	-327.67
	54	132	0.400641	0.0336913	-0.0011817	1	0.033712	-2.00873	0.0002801	3.662178	11	0.1589843	0.0053597	-327.67
	55	146	0.316723	0.0338409	-0.0013366	1	0.0338673	-2.261748	0.0002795	3.66221	11	0.1589906	0.0053846	-327.67
	56	164	0.2520161	0.0340203	-0.0015001	1	0.0340534	-2.524761	0.0002813	3.662251	11	0.1589936	0.0054143	-327.67
	57	181	0.2003205	0.0342143	-0.0016723	1	0.0342551	-2.798217	0.0002801	3.662301	11	0.1589945	0.0054464	-327.67
	58	207	0.1588983	0.0344428	-0.0018606	1	0.034493	-3.092112	0.0002824	3.66235	11	0.1589985	0.0054843	-327.67
	59	233	0.1260081	0.0346996	-0.0020695	1	0.0347613	-3.413059	0.0002852	3.662468	11	0.1589979	0.005527	-327.67
	60	263	0.1001603	0.0349805	-0.002282	1	0.0350549	-3.732503	0.0002818	3.662667	11	0.1589996	0.0055737	-327.67
	61	309	0.0794492	0.0353008	-0.0025163	1	0.0353904	-4.077311	0.0002825	3.66289	11	0.1589992	0.005627	-327.67
	62	349	0.0631739	0.0355373	-0.0028038	1	0.0356477	-4.511189	0.0002815	3.662832	11	0.1590006	0.005668	-327.67
	63	414	0.0501337	0.0358125	-0.0031231	1	0.0359485	-4.983995	0.0002859	3.662892	11	0.1589981	0.0057157	-327.67
	64	475	0.0398258	0.0361548	-0.0035001	1	0.0363238	-5.529473	0.0002835	3.662971	11	0.1590006	0.0057755	-327.67
	65	552	0.0316296	0.0365133	-0.0039527	1	0.0367266	-6.178385	0.0002826	3.663075	11	0.159	0.0058395	-327.67
	66	680	0.0251206	0.0369034	-0.0044884	1	0.0371753	-6.934617	0.0002813	3.663202	11	0.1590007	0.0059109	-327.67
	67	801	0.0199553	0.0373561	-0.0051555	1	0.0377102	-7.857775	0.0002834	3.663341	11	0.1589996	0.0059959	-327.67
	68	953	0.0158522	0.0379113	-0.0059365	1	0.0383733	-8.899572	0.0002829	3.663489	11	0.1589998	0.0061013	-327.67
	69	1144	0.0125907	0.0385874	-0.0068474	1	0.0391902	-10.06241	0.000282	3.663676	11	0.1590003	0.0062313	-327.67
	70	1463	0.0100011	0.0394102	-0.0079042	1	0.0401951	-11.34093	0.0002817	3.663868	11	0.1590005	0.006391	-327.67
