EXPLAIN
TAG	GALVEIS
TITLE	LABEL	Galvanostatic EIS	Test Identifier
DATE	LABEL	3.2.2024	Date
TIME	LABEL	11:31:17	Time
NOTES	NOTES	1	Notes...
	
PSTAT	PSTAT	REF600-12055	Potentiostat
FREQINIT	QUANT	1.00000E+005	Initial Freq. (Hz)
FREQFINAL	QUANT	1.00000E-002	Final Freq. (Hz)
PTSPERDEC	QUANT	1.00000E+001	Points/decade
IACREQ	QUANT	1.59000E-001	AC Current (A rms)
IDCREQ	QUANT	0.00000E+000	DC Current (A)
AREA	QUANT	1.00000E+000	Sample Area (cm^2)
SPEED	SELECTOR	1	Optimize for:
DRIFTCOR	SELECTOR	0	Drift Correction
THD	SELECTOR	0	THD
ZGUESS	QUANT	1.00000E-001	Estimated Z (ohms)
EOC	QUANT	3.74885	Open Circuit (V)
SEQUENCER	TOGGLE	TRUE	Run as Sequence
PSTATMODEL	IQUANT	4	Pstat Model
PSTATSECTION	LABEL	REF600-12055	Pstat Section
PSTATSERIALNO	LABEL	12055	Pstat Serial Number
CTRLMODE	IQUANT	0	Control Mode
ELECTROMETER	IQUANT	0	RE=0 or CS=1
IESTAB	IQUANT	0	I/E Stability
CASPEED	IQUANT	4	Control Amp Speed
CONVENTION	IQUANT	1	Current Convention
ICHRANGE	IQUANT	2	Ich Range
ICHRANGEMODE	TOGGLE	F	Ich Auto Range
ICHOFFSETENABLE	TOGGLE	T	Ich Offset Enable
ICHOFFSET	QUANT	0	Ich Offset (V)
ICHFILTER	IQUANT	3	Ich Filter
VCHRANGE	IQUANT	2	Vch Range
VCHRANGEMODE	TOGGLE	F	Vch Auto Range
VCHOFFSETENABLE	TOGGLE	T	Vch Offset Enable
VCHOFFSET	QUANT	0	Vch Offset (V)
VCHFILTER	IQUANT	3	Vch Filter
ACHRANGE	IQUANT	2	Ach Range
ACHOFFSETENABLE	TOGGLE	F	Ach Offset Enable
ACHOFFSET	QUANT	0	Ach Offset (V)
ACHFILTER	IQUANT	1	Ach Filter
IERANGELOWERLIMIT	IQUANT	1	I/E Range Lower Limit
IERANGEMODE	TOGGLE	F	I/E AutoRange
IERANGE	IQUANT	7	I/E Range
POSFEEDENABLE	TOGGLE	F	Positive Feedback IR Comp
POSFEEDRESISTANCE	QUANT	0	Positive Feedback Resistance (ohm)
ACHSELECT	IQUANT	4	Ach Select
SENSECABLEID	IQUANT	14	Sense Cable ID
PWRCABLEID	IQUANT	14	Power Cable ID
DCCALDATE	LABEL		DC Calibration Date
ACCALDATE	LABEL		AC Calibration Date
THERMOSELECT	IQUANT	1	Thermo Select
FRAMEWORKVERSION	LABEL	7.10.3	Framework Version
INSTRUMENTVERSION	LABEL	4.91	Instrument Version
COMMVERSION	LABEL	2.24	Communications Version
CPUPLDVERSION	LABEL	0.00	CPU PLD Version
CTRLPLDVERSION	LABEL	0.00	CTRL PLD Version
PSTATPLDVERSION	LABEL	0.00	PSTAT PLD Version
ZCURVE	TABLE
	Pt	Time	Freq	Zreal	Zimag	Zsig	Zmod	Zphz	Idc	Vdc	IERange	Imod	Vmod	Temp
	#	s	Hz	ohm	ohm	V	ohm	°	A	V	#	A	V	°C
	0	5	100078.1	0.1063591	0.2372619	1	0.2600105	65.8544	0.0003664	3.748192	11	0.1596763	0.0412402	-327.67
	1	7	79453.13	0.0879904	0.1977688	1	0.2164597	66.01498	0.0003543	3.748204	11	0.1642506	0.0353907	-327.67
	2	9	63140.62	0.0737831	0.1641571	1	0.1799764	65.79768	0.0003425	3.748201	11	0.161953	0.0290584	-327.67
	3	11	50203.12	0.0629032	0.1357433	1	0.1496097	65.13706	0.0003362	3.748209	11	0.1609247	0.0240274	-327.67
	4	12	39890.62	0.0546433	0.1118263	1	0.1244629	63.9578	0.0003276	3.748211	11	0.1602811	0.019923	-327.67
	5	14	31640.63	0.0483551	0.0918336	1	0.1037864	62.2309	0.0003292	3.748214	11	0.1598368	0.016575	-327.67
	6	16	25171.88	0.0435939	0.0755966	1	0.0872655	60.02947	0.0003253	3.74822	11	0.1595408	0.013915	-327.67
	7	18	20015.62	0.0398409	0.0622463	1	0.0739047	57.37866	0.0003115	3.748196	11	0.1593591	0.0117734	-327.67
	8	19	15890.62	0.0367249	0.0512197	1	0.0630251	54.35921	0.000324	3.748197	11	0.1592307	0.0100334	-327.67
	9	21	12609.38	0.0341374	0.0420593	1	0.0541696	50.93551	0.000323	3.748202	11	0.1591401	0.0086194	-327.67
	10	23	10078.13	0.0320404	0.0346086	1	0.0471629	47.20664	0.0003216	3.748207	11	0.1590841	0.0075022	-327.67
	11	24	8015.625	0.0303342	0.0281626	1	0.041392	42.87398	0.0003188	3.748204	11	0.159054	0.0065832	-327.67
	12	26	6328.125	0.0290185	0.0225489	1	0.0367495	37.84912	0.0003093	3.748217	11	0.1590337	0.0058442	-327.67
	13	28	5015.625	0.0281058	0.0179193	1	0.0333322	32.52023	0.0003084	3.748214	11	0.1590156	0.0053002	-327.67
	14	29	3984.375	0.0275174	0.0141135	1	0.0309257	27.1529	0.0003048	3.748226	11	0.1590062	0.0049173	-327.67
	15	31	3170.956	0.0271891	0.0109844	1	0.0293242	21.99862	0.0003081	3.74822	11	0.1590046	0.0046626	-327.67
	16	33	2527.573	0.0270518	0.0083658	1	0.0283158	17.18436	0.000323	3.748232	11	0.159002	0.0045022	-327.67
	17	34	1976.103	0.0270729	0.0061675	1	0.0277665	12.83366	0.0003188	3.748234	11	0.1590068	0.004415	-327.67
	18	36	1577.524	0.0271879	0.0044155	1	0.0275441	9.224651	0.0003177	3.748226	11	0.158998	0.0043795	-327.67
	19	37	1265.625	0.027362	0.0030718	1	0.0275339	6.405562	0.0003195	3.748236	11	0.1589983	0.0043778	-327.67
	20	39	998.264	0.0276357	0.0019944	1	0.0277076	4.127648	0.0003245	3.748252	11	0.1590146	0.0044059	-327.67
	21	40	796.875	0.0279386	0.0010674	1	0.027959	2.187836	0.0003129	3.74826	11	0.1589916	0.0044452	-327.67
	22	42	627.7902	0.0282761	0.0003055	1	0.0282778	0.6190972	0.0003198	3.748251	11	0.1590029	0.0044962	-327.67
	23	43	505.5147	0.0284372	2.757138E-005	1	0.0284372	0.0555512	0.0003003	3.748176	11	0.1575927	0.0044815	-327.67
	24	45	397.9953	0.0288782	-0.000503	1	0.0288826	-0.997903	0.0003129	3.74818	11	0.1606047	0.0046387	-327.67
	25	47	315.5048	0.029296	-0.0008776	1	0.0293092	-1.715764	0.0003129	3.748174	11	0.1593373	0.00467	-327.67
	26	48	252.4038	0.0296812	-0.0011348	1	0.0297029	-2.189522	0.0003096	3.74818	11	0.1589696	0.0047219	-327.67
	27	50	198.6229	0.0300817	-0.001323	1	0.0301107	-2.518264	0.0003101	3.748188	11	0.1588809	0.004784	-327.67
	28	51	158.3615	0.0304448	-0.0014287	1	0.0304783	-2.686713	0.0002983	3.74819	11	0.1588866	0.0048426	-327.67
	29	53	125.558	0.0307993	-0.0014776	1	0.0308347	-2.746702	0.0003122	3.748192	11	0.1589121	0.0049	-327.67
	30	54	100.4464	0.0311124	-0.0014888	1	0.031148	-2.739663	0.000314	3.748202	11	0.1589399	0.0049507	-327.67
	31	56	79.00281	0.0314258	-0.0014464	1	0.031459	-2.635224	0.0003116	3.748215	11	0.1589561	0.0050006	-327.67
	32	57	63.3446	0.031701	-0.0013805	1	0.031731	-2.493581	0.0003077	3.748217	11	0.1589761	0.0050445	-327.67
	33	59	50.22321	0.0319405	-0.0012904	1	0.0319665	-2.313529	0.0003061	3.748222	11	0.1589849	0.0050822	-327.67
	34	61	38.42213	0.0321858	-0.0011644	1	0.0322068	-2.071936	0.0003119	3.748227	11	0.1589834	0.0051204	-327.67
	35	62	31.25	0.0323413	-0.0010651	1	0.0323589	-1.886223	0.0003046	3.748238	11	0.1590029	0.0051452	-327.67
	36	64	24.93351	0.0324826	-0.0009515	1	0.0324965	-1.677823	0.0003109	3.748237	11	0.158988	0.0051666	-327.67
	37	66	19.86229	0.0325962	-0.0008498	1	0.0326073	-1.493383	0.0003447	3.748251	11	0.1589766	0.0051838	-327.67
	38	67	15.625	0.0326992	-0.0007717	1	0.0327083	-1.351851	0.0003087	3.748259	11	0.1590141	0.0052011	-327.67
	39	69	12.40079	0.0327795	-0.0006964	1	0.0327869	-1.217046	0.0003302	3.748251	11	0.1589908	0.0052128	-327.67
	40	70	9.93114	0.032841	-0.0006124	1	0.0328467	-1.06835	0.000279	3.748254	11	0.1590002	0.0052226	-327.67
	41	72	7.944915	0.0328878	-0.0005716	1	0.0328927	-0.995804	0.0002833	3.74826	11	0.1590032	0.00523	-327.67
	42	74	6.317385	0.0329415	-0.0005342	1	0.0329458	-0.9290007	0.0002368	3.748278	11	0.1589998	0.0052384	-327.67
	43	76	5.008013	0.0329829	-0.0005115	1	0.0329869	-0.8884541	0.0003418	3.748294	11	0.1589985	0.0052449	-327.67
	44	78	3.945707	0.0330246	-0.000517	1	0.0330287	-0.8968362	0.000331	3.74828	11	0.1589951	0.0052514	-327.67
	45	80	3.158693	0.0330676	-0.0005262	1	0.0330718	-0.911623	0.0003956	3.748268	11	0.1589855	0.0052579	-327.67
	46	84	2.504006	0.032989	-0.000457	1	0.0329921	-0.7937357	0.0003642	3.748238	11	0.1554177	0.0051276	-327.67
	47	87	1.998082	0.0330762	-0.0005446	1	0.0330807	-0.9432104	6.953161E-005	3.748225	11	0.161507	0.0053428	-327.67
	48	91	1.584686	0.0331565	-0.0006139	1	0.0331622	-1.060684	2.541114E-005	3.748248	11	0.1599164	0.0053032	-327.67
	49	95	1.266892	0.0332419	-0.0006779	1	0.0332488	-1.16823	0.000554	3.748264	11	0.1592654	0.0052954	-327.67
	50	102	0.999041	0.0333304	-0.0007599	1	0.033339	-1.305986	0.0005423	3.748294	11	0.1590799	0.0053036	-327.67
	51	106	0.7923428	0.0334378	-0.0008669	1	0.033449	-1.485018	0.0002783	3.748365	11	0.1591765	0.0053243	-327.67
	52	114	0.6334459	0.0335313	-0.0009767	1	0.0335456	-1.668465	0.000283	3.74837	11	0.158983	0.0053332	-327.67
	53	124	0.5040323	0.0336426	-0.001111	1	0.0336609	-1.891384	0.0002718	3.748398	11	0.1589825	0.0053515	-327.67
	54	135	0.400641	0.0337717	-0.0012565	1	0.0337951	-2.130778	0.0002816	3.748425	11	0.1589867	0.005373	-327.67
	55	149	0.316723	0.0339346	-0.00143	1	0.0339647	-2.413009	0.0002779	3.748462	11	0.1589897	0.0054	-327.67
	56	164	0.2520161	0.0341051	-0.0016019	1	0.0341427	-2.689107	0.0002818	3.748508	11	0.1589938	0.0054285	-327.67
	57	181	0.2003205	0.0343148	-0.0017973	1	0.0343618	-2.998184	0.000281	3.748557	11	0.1589953	0.0054634	-327.67
	58	207	0.1588983	0.0345467	-0.0020112	1	0.0346052	-3.331871	0.0002811	3.748626	11	0.1589987	0.0055022	-327.67
	59	239	0.1260081	0.0348183	-0.0022302	1	0.0348896	-3.66492	0.0002724	3.748778	11	0.1589989	0.0055474	-327.67
	60	269	0.1001603	0.0351165	-0.0024798	1	0.0352039	-4.039383	0.000283	3.749004	11	0.158998	0.0055974	-327.67
	61	315	0.0794492	0.0354569	-0.0027588	1	0.0355641	-4.449127	0.0002838	3.749267	11	0.158999	0.0056547	-327.67
	62	355	0.0631739	0.0356876	-0.0030766	1	0.0358199	-4.92717	0.0002812	3.749243	11	0.1589982	0.0056953	-327.67
	63	420	0.0501337	0.0359926	-0.003437	1	0.0361564	-5.45478	0.0002811	3.74934	11	0.1590017	0.0057489	-327.67
	64	481	0.0398258	0.0363336	-0.0038684	1	0.036539	-6.077367	0.000283	3.749479	11	0.1590004	0.0058097	-327.67
	65	583	0.0316296	0.0367236	-0.0043924	1	0.0369853	-6.820594	0.0002808	3.749665	11	0.1589976	0.0058806	-327.67
	66	680	0.0251206	0.0371444	-0.0050224	1	0.0374824	-7.700387	0.0002823	3.749858	11	0.1590011	0.0059597	-327.67
	67	840	0.0199553	0.0376541	-0.0057884	1	0.0380964	-8.739479	0.0002811	3.750114	11	0.1590003	0.0060573	-327.67
	68	1042	0.0158522	0.0382549	-0.0067017	1	0.0388375	-9.93652	0.0002815	3.750353	11	0.1589999	0.0061752	-327.67
	69	1233	0.0125907	0.0390024	-0.0077951	1	0.0397737	-11.30229	0.0002798	3.750618	11	0.1590007	0.0063241	-327.67
	70	1553	0.0100011	0.0399307	-0.0090428	1	0.0409418	-12.76019	0.0002832	3.75089	11	0.1589998	0.0065097	-327.67
