EXPLAIN
TAG	GALVEIS
TITLE	LABEL	Galvanostatic EIS	Test Identifier
DATE	LABEL	3.2.2024	Date
TIME	LABEL	15:41:46	Time
NOTES	NOTES	1	Notes...
	
PSTAT	PSTAT	REF600-12055	Potentiostat
FREQINIT	QUANT	1.00000E+005	Initial Freq. (Hz)
FREQFINAL	QUANT	1.00000E-002	Final Freq. (Hz)
PTSPERDEC	QUANT	1.00000E+001	Points/decade
IACREQ	QUANT	1.59000E-001	AC Current (A rms)
IDCREQ	QUANT	0.00000E+000	DC Current (A)
AREA	QUANT	1.00000E+000	Sample Area (cm^2)
SPEED	SELECTOR	1	Optimize for:
DRIFTCOR	SELECTOR	0	Drift Correction
THD	SELECTOR	0	THD
ZGUESS	QUANT	1.00000E-001	Estimated Z (ohms)
EOC	QUANT	3.529659	Open Circuit (V)
SEQUENCER	TOGGLE	TRUE	Run as Sequence
PSTATMODEL	IQUANT	4	Pstat Model
PSTATSECTION	LABEL	REF600-12055	Pstat Section
PSTATSERIALNO	LABEL	12055	Pstat Serial Number
CTRLMODE	IQUANT	0	Control Mode
ELECTROMETER	IQUANT	0	RE=0 or CS=1
IESTAB	IQUANT	0	I/E Stability
CASPEED	IQUANT	4	Control Amp Speed
CONVENTION	IQUANT	1	Current Convention
ICHRANGE	IQUANT	2	Ich Range
ICHRANGEMODE	TOGGLE	F	Ich Auto Range
ICHOFFSETENABLE	TOGGLE	T	Ich Offset Enable
ICHOFFSET	QUANT	0	Ich Offset (V)
ICHFILTER	IQUANT	3	Ich Filter
VCHRANGE	IQUANT	2	Vch Range
VCHRANGEMODE	TOGGLE	F	Vch Auto Range
VCHOFFSETENABLE	TOGGLE	T	Vch Offset Enable
VCHOFFSET	QUANT	0	Vch Offset (V)
VCHFILTER	IQUANT	3	Vch Filter
ACHRANGE	IQUANT	2	Ach Range
ACHOFFSETENABLE	TOGGLE	F	Ach Offset Enable
ACHOFFSET	QUANT	0	Ach Offset (V)
ACHFILTER	IQUANT	1	Ach Filter
IERANGELOWERLIMIT	IQUANT	1	I/E Range Lower Limit
IERANGEMODE	TOGGLE	F	I/E AutoRange
IERANGE	IQUANT	7	I/E Range
POSFEEDENABLE	TOGGLE	F	Positive Feedback IR Comp
POSFEEDRESISTANCE	QUANT	0	Positive Feedback Resistance (ohm)
ACHSELECT	IQUANT	4	Ach Select
SENSECABLEID	IQUANT	14	Sense Cable ID
PWRCABLEID	IQUANT	14	Power Cable ID
DCCALDATE	LABEL		DC Calibration Date
ACCALDATE	LABEL		AC Calibration Date
THERMOSELECT	IQUANT	1	Thermo Select
FRAMEWORKVERSION	LABEL	7.10.3	Framework Version
INSTRUMENTVERSION	LABEL	4.91	Instrument Version
COMMVERSION	LABEL	2.24	Communications Version
CPUPLDVERSION	LABEL	0.00	CPU PLD Version
CTRLPLDVERSION	LABEL	0.00	CTRL PLD Version
PSTATPLDVERSION	LABEL	0.00	PSTAT PLD Version
ZCURVE	TABLE
	Pt	Time	Freq	Zreal	Zimag	Zsig	Zmod	Zphz	Idc	Vdc	IERange	Imod	Vmod	Temp
	#	s	Hz	ohm	ohm	V	ohm	°	A	V	#	A	V	°C
	0	5	100078.1	0.1061721	0.2379019	1	0.2605184	65.94951	0.0003581	3.528982	11	0.1596514	0.0413143	-327.67
	1	7	79453.13	0.0878734	0.1982135	1	0.2168187	66.091	0.0003494	3.528979	11	0.1642608	0.0354516	-327.67
	2	8	63140.62	0.0737074	0.1644853	1	0.1802448	65.8624	0.0003421	3.528985	11	0.161964	0.0291037	-327.67
	3	10	50203.12	0.06287	0.1359814	1	0.1498118	65.1869	0.0003346	3.528987	11	0.1609381	0.0240619	-327.67
	4	12	39890.62	0.0546403	0.1119912	1	0.1246098	63.99234	0.0003207	3.528979	11	0.1602675	0.0199448	-327.67
	5	14	31640.63	0.0483688	0.091964	1	0.1039082	62.25771	0.0003279	3.528996	11	0.159841	0.0165949	-327.67
	6	15	25171.88	0.0436241	0.0757023	1	0.0873722	60.04691	0.0003211	3.529001	11	0.1595487	0.0139327	-327.67
	7	17	20015.62	0.0398781	0.0623216	1	0.0739881	57.38581	0.0003111	3.52897	11	0.159358	0.0117866	-327.67
	8	19	15890.62	0.0367826	0.0512751	1	0.0631039	54.34595	0.0003077	3.528963	11	0.1592241	0.0100455	-327.67
	9	21	12609.38	0.0341779	0.0420992	1	0.0542261	50.9289	0.0003184	3.528964	11	0.1591402	0.0086284	-327.67
	10	22	10078.13	0.0321043	0.0346446	1	0.0472327	47.17947	0.0003198	3.528969	11	0.1590899	0.0075136	-327.67
	11	24	8015.625	0.030395	0.0281915	1	0.0414562	42.84603	0.0003187	3.528963	11	0.159055	0.0065935	-327.67
	12	26	6328.125	0.0290815	0.0225655	1	0.0368095	37.80934	0.0003201	3.528967	11	0.159031	0.0058537	-327.67
	13	27	5015.625	0.0281735	0.0179435	1	0.0334024	32.4928	0.0003205	3.528967	11	0.1590114	0.0053112	-327.67
	14	29	3984.375	0.0275904	0.0141219	1	0.0309945	27.10512	0.0003209	3.528973	11	0.1590149	0.0049285	-327.67
	15	30	3170.956	0.0272459	0.0109909	1	0.0293793	21.96898	0.0003161	3.528976	11	0.1590007	0.0046713	-327.67
	16	32	2527.573	0.0271133	0.008423	1	0.0283915	17.25787	0.0003199	3.528985	11	0.1590039	0.0045143	-327.67
	17	34	1976.103	0.027118	0.0061822	1	0.0278137	12.84252	0.00032	3.528993	11	0.1590062	0.0044225	-327.67
	18	35	1577.524	0.0272427	0.0044906	1	0.0276103	9.36027	0.0003191	3.528998	11	0.1590047	0.0043902	-327.67
	19	37	1265.625	0.0274152	0.0031559	1	0.0275963	6.566789	0.0003219	3.529002	11	0.1589939	0.0043876	-327.67
	20	39	998.264	0.0276727	0.0019215	1	0.0277393	3.972011	0.0003198	3.529007	11	0.158997	0.0044105	-327.67
	21	40	796.875	0.027954	0.0010948	1	0.0279754	2.242872	0.0003164	3.529013	11	0.1590052	0.0044482	-327.67
	22	42	627.7902	0.0283108	0.0002936	1	0.0283123	0.5942527	0.0003175	3.529	11	0.1589984	0.0045016	-327.67
	23	43	505.5147	0.0284859	-1.152E-005	1	0.0284859	-0.0231711	0.0003092	3.528924	11	0.1575988	0.0044893	-327.67
	24	45	397.9953	0.0289253	-0.000557	1	0.0289307	-1.103108	0.0003124	3.52892	11	0.1605992	0.0046462	-327.67
	25	46	315.5048	0.0293396	-0.0009539	1	0.0293551	-1.862076	0.0003098	3.528925	11	0.159339	0.0046774	-327.67
	26	48	252.4038	0.0297406	-0.0012354	1	0.0297662	-2.378644	0.0003079	3.528924	11	0.1589681	0.0047319	-327.67
	27	49	198.6229	0.0301535	-0.0014449	1	0.0301881	-2.743362	0.0003102	3.528931	11	0.1588813	0.0047963	-327.67
	28	51	158.3615	0.0305287	-0.0015763	1	0.0305694	-2.955665	0.0003085	3.528931	11	0.1588858	0.004857	-327.67
	29	52	125.558	0.0309088	-0.0016514	1	0.0309528	-3.058331	0.000308	3.528932	11	0.1589151	0.0049189	-327.67
	30	54	100.4464	0.0312557	-0.0016839	1	0.031301	-3.08392	0.0003077	3.528933	11	0.1589392	0.004975	-327.67
	31	56	79.00281	0.0316117	-0.0016748	1	0.031656	-3.032735	0.0003101	3.528938	11	0.1589557	0.0050319	-327.67
	32	57	63.3446	0.0319184	-0.001628	1	0.0319599	-2.919866	0.0003097	3.528939	11	0.158975	0.0050808	-327.67
	33	59	50.22321	0.0322176	-0.0015552	1	0.0322551	-2.763542	0.0003093	3.52894	11	0.1589833	0.005128	-327.67
	34	61	38.42213	0.0325247	-0.0014402	1	0.0325566	-2.535476	0.0003065	3.528945	11	0.1589918	0.0051762	-327.67
	35	62	31.25	0.0327299	-0.001331	1	0.032757	-2.328671	0.0003035	3.52895	11	0.158997	0.0052083	-327.67
	36	64	24.93351	0.032934	-0.0012096	1	0.0329562	-2.103378	0.0003076	3.528945	11	0.1589863	0.0052396	-327.67
	37	65	19.86229	0.0330975	-0.001078	1	0.033115	-1.86554	0.0002786	3.528949	11	0.1589841	0.0052648	-327.67
	38	67	15.625	0.0332416	-0.0009726	1	0.0332558	-1.675846	0.0002975	3.52895	11	0.1590017	0.0052877	-327.67
	39	68	12.40079	0.0333488	-0.0008743	1	0.0333603	-1.501779	0.0002996	3.528954	11	0.1590066	0.0053045	-327.67
	40	70	9.93114	0.0334411	-0.0007767	1	0.0334501	-1.33055	0.0002725	3.52895	11	0.1589882	0.0053182	-327.67
	41	72	7.944915	0.0335117	-0.0007044	1	0.0335191	-1.204135	0.0002683	3.528961	11	0.1590112	0.0053299	-327.67
	42	73	6.317385	0.0335797	-0.0006539	1	0.033586	-1.115641	0.0002809	3.528973	11	0.1589604	0.0053389	-327.67
	43	76	5.008013	0.0336353	-0.000608	1	0.0336408	-1.035603	0.0003605	3.528968	11	0.1590125	0.0053493	-327.67
	44	78	3.945707	0.0336911	-0.0005912	1	0.0336963	-1.005346	0.0002691	3.528977	11	0.1590067	0.0053579	-327.67
	45	81	3.158693	0.0337405	-0.0005765	1	0.0337454	-0.978839	0.0002137	3.528998	11	0.158987	0.0053651	-327.67
	46	84	2.504006	0.0336636	-0.0004935	1	0.0336672	-0.8398715	0.0002641	3.528985	11	0.1554239	0.0052327	-327.67
	47	88	1.998082	0.0337526	-0.000564	1	0.0337573	-0.957346	0.0005674	3.529015	11	0.161515	0.0054523	-327.67
	48	92	1.584686	0.0338385	-0.0006202	1	0.0338441	-1.049978	0.0005628	3.52901	11	0.1598635	0.0054104	-327.67
	49	97	1.266892	0.0339216	-0.0006776	1	0.0339283	-1.144364	0.0001305	3.529031	11	0.1592624	0.0054035	-327.67
	50	102	0.999041	0.0340136	-0.0007516	1	0.0340219	-1.265808	0.000149	3.529019	11	0.1590735	0.005412	-327.67
	51	107	0.7923428	0.0341103	-0.000833	1	0.0341204	-1.398938	0.0002796	3.529035	11	0.1592393	0.0054333	-327.67
	52	115	0.6334459	0.0342068	-0.0009319	1	0.0342195	-1.560541	0.0002853	3.529049	11	0.1589827	0.0054403	-327.67
	53	123	0.5040323	0.0343044	-0.001043	1	0.0343203	-1.741505	0.0002812	3.529065	11	0.1589839	0.0054564	-327.67
	54	134	0.400641	0.0344357	-0.0011756	1	0.0344558	-1.955257	0.0002815	3.529083	11	0.1589842	0.0054779	-327.67
	55	148	0.316723	0.0345788	-0.001325	1	0.0346042	-2.194338	0.0002779	3.529109	11	0.1589922	0.0055018	-327.67
	56	162	0.2520161	0.0347432	-0.0014856	1	0.0347749	-2.448496	0.0002816	3.529136	11	0.1589915	0.0055289	-327.67
	57	180	0.2003205	0.0349254	-0.0016768	1	0.0349657	-2.748724	0.0002794	3.529169	11	0.1589978	0.0055595	-327.67
	58	201	0.1588983	0.0351329	-0.001868	1	0.0351825	-3.043489	0.0002813	3.52921	11	0.1589973	0.0055939	-327.67
	59	227	0.1260081	0.0353758	-0.0020945	1	0.0354377	-3.388305	0.0002811	3.529334	11	0.158999	0.0056346	-327.67
	60	257	0.1001603	0.0356522	-0.0023382	1	0.0357288	-3.752251	0.0002786	3.529542	11	0.158997	0.0056808	-327.67
	61	303	0.0794492	0.0359542	-0.0026146	1	0.0360491	-4.159268	0.0002811	3.529773	11	0.1590005	0.0057318	-327.67
	62	355	0.0631739	0.0361867	-0.0029501	1	0.0363067	-4.660763	0.0002816	3.52972	11	0.1589983	0.0057727	-327.67
	63	420	0.0501337	0.0364848	-0.0033252	1	0.036636	-5.207544	0.0002799	3.529756	11	0.1590011	0.0058252	-327.67
	64	501	0.0398258	0.0368349	-0.0037733	1	0.0370277	-5.848919	0.00028	3.529844	11	0.1589995	0.0058874	-327.67
	65	578	0.0316296	0.0371977	-0.0043165	1	0.0374473	-6.619146	0.0002801	3.529941	11	0.1589997	0.0059541	-327.67
	66	706	0.0251206	0.0376164	-0.0049662	1	0.0379428	-7.520807	0.0002801	3.530078	11	0.1590009	0.0060329	-327.67
	67	827	0.0199553	0.0381032	-0.0057602	1	0.0385361	-8.596514	0.000276	3.530227	11	0.1590004	0.0061273	-327.67
	68	979	0.0158522	0.0386939	-0.0066933	1	0.0392685	-9.81402	0.0002806	3.530411	11	0.1589978	0.0062436	-327.67
	69	1233	0.0125907	0.0394453	-0.0078031	1	0.0402097	-11.18985	0.000281	3.530635	11	0.1589997	0.0063933	-327.67
	70	1473	0.0100011	0.0403155	-0.0090716	1	0.0413236	-12.68115	0.0002799	3.530906	11	0.1590006	0.0065705	-327.67
