EXPLAIN
TAG	GALVEIS
TITLE	LABEL	Galvanostatic EIS	Test Identifier
DATE	LABEL	3.2.2024	Date
TIME	LABEL	6:13:06	Time
NOTES	NOTES	1	Notes...
	
PSTAT	PSTAT	REF600-12055	Potentiostat
FREQINIT	QUANT	1.00000E+005	Initial Freq. (Hz)
FREQFINAL	QUANT	1.00000E-002	Final Freq. (Hz)
PTSPERDEC	QUANT	1.00000E+001	Points/decade
IACREQ	QUANT	1.59000E-001	AC Current (A rms)
IDCREQ	QUANT	0.00000E+000	DC Current (A)
AREA	QUANT	1.00000E+000	Sample Area (cm^2)
SPEED	SELECTOR	1	Optimize for:
DRIFTCOR	SELECTOR	0	Drift Correction
THD	SELECTOR	0	THD
ZGUESS	QUANT	1.00000E-001	Estimated Z (ohms)
EOC	QUANT	4.088519	Open Circuit (V)
SEQUENCER	TOGGLE	TRUE	Run as Sequence
PSTATMODEL	IQUANT	4	Pstat Model
PSTATSECTION	LABEL	REF600-12055	Pstat Section
PSTATSERIALNO	LABEL	12055	Pstat Serial Number
CTRLMODE	IQUANT	0	Control Mode
ELECTROMETER	IQUANT	0	RE=0 or CS=1
IESTAB	IQUANT	0	I/E Stability
CASPEED	IQUANT	4	Control Amp Speed
CONVENTION	IQUANT	1	Current Convention
ICHRANGE	IQUANT	2	Ich Range
ICHRANGEMODE	TOGGLE	F	Ich Auto Range
ICHOFFSETENABLE	TOGGLE	T	Ich Offset Enable
ICHOFFSET	QUANT	0	Ich Offset (V)
ICHFILTER	IQUANT	3	Ich Filter
VCHRANGE	IQUANT	2	Vch Range
VCHRANGEMODE	TOGGLE	F	Vch Auto Range
VCHOFFSETENABLE	TOGGLE	T	Vch Offset Enable
VCHOFFSET	QUANT	0	Vch Offset (V)
VCHFILTER	IQUANT	3	Vch Filter
ACHRANGE	IQUANT	2	Ach Range
ACHOFFSETENABLE	TOGGLE	F	Ach Offset Enable
ACHOFFSET	QUANT	0	Ach Offset (V)
ACHFILTER	IQUANT	1	Ach Filter
IERANGELOWERLIMIT	IQUANT	1	I/E Range Lower Limit
IERANGEMODE	TOGGLE	F	I/E AutoRange
IERANGE	IQUANT	7	I/E Range
POSFEEDENABLE	TOGGLE	F	Positive Feedback IR Comp
POSFEEDRESISTANCE	QUANT	0	Positive Feedback Resistance (ohm)
ACHSELECT	IQUANT	4	Ach Select
SENSECABLEID	IQUANT	14	Sense Cable ID
PWRCABLEID	IQUANT	14	Power Cable ID
DCCALDATE	LABEL		DC Calibration Date
ACCALDATE	LABEL		AC Calibration Date
THERMOSELECT	IQUANT	1	Thermo Select
FRAMEWORKVERSION	LABEL	7.10.3	Framework Version
INSTRUMENTVERSION	LABEL	4.91	Instrument Version
COMMVERSION	LABEL	2.24	Communications Version
CPUPLDVERSION	LABEL	0.00	CPU PLD Version
CTRLPLDVERSION	LABEL	0.00	CTRL PLD Version
PSTATPLDVERSION	LABEL	0.00	PSTAT PLD Version
ZCURVE	TABLE
	Pt	Time	Freq	Zreal	Zimag	Zsig	Zmod	Zphz	Idc	Vdc	IERange	Imod	Vmod	Temp
	#	s	Hz	ohm	ohm	V	ohm	°	A	V	#	A	V	°C
	0	5	100078.1	0.1065717	0.2370881	1	0.259939	65.79597	0.0003723	4.087959	11	0.1596677	0.0412267	-327.67
	1	6	79453.13	0.0881248	0.1976604	1	0.2164154	65.97079	0.0003428	4.087952	11	0.1642486	0.0353831	-327.67
	2	8	63140.62	0.0738694	0.1640787	1	0.1799403	65.76239	0.0003354	4.087969	11	0.1619729	0.0290561	-327.67
	3	10	50203.12	0.0629447	0.1356816	1	0.1495712	65.1127	0.000335	4.087961	11	0.1609327	0.0240224	-327.67
	4	12	39890.62	0.0546535	0.1117804	1	0.1244262	63.94431	0.0003339	4.087964	11	0.1602824	0.0199173	-327.67
	5	13	31640.63	0.0483533	0.0917876	1	0.1037449	62.21994	0.0003299	4.087976	11	0.1598334	0.0165681	-327.67
	6	15	25171.88	0.0435856	0.0755648	1	0.0872338	60.02372	0.0003287	4.087975	11	0.159547	0.0139105	-327.67
	7	17	20015.62	0.0398335	0.0622169	1	0.0738759	57.37117	0.0003239	4.087928	11	0.1593568	0.0117686	-327.67
	8	19	15890.62	0.0367234	0.0511832	1	0.0629946	54.34099	0.0003226	4.087935	11	0.1592295	0.0100284	-327.67
	9	20	12609.38	0.0341321	0.0420277	1	0.0541417	50.91877	0.0003253	4.087942	11	0.1591395	0.0086149	-327.67
	10	22	10078.13	0.0320426	0.0345722	1	0.0471377	47.17469	0.0003233	4.08794	11	0.1590907	0.0074985	-327.67
	11	23	8015.625	0.0303409	0.0281258	1	0.0413719	42.8303	0.0003255	4.087932	11	0.1590529	0.00658	-327.67
	12	25	6328.125	0.0290164	0.0225124	1	0.0367255	37.80607	0.0003184	4.087933	11	0.1590274	0.0058402	-327.67
	13	27	5015.625	0.0281189	0.0178763	1	0.0333202	32.44569	0.0003198	4.087935	11	0.159017	0.0052984	-327.67
	14	28	3984.375	0.0275404	0.0140697	1	0.0309262	27.06133	0.0003203	4.087943	11	0.1590136	0.0049176	-327.67
	15	30	3170.956	0.027212	0.0109346	1	0.0293267	21.8918	0.0003225	4.087947	11	0.1589973	0.0046628	-327.67
	16	32	2527.573	0.0270892	0.008363	1	0.0283508	17.15651	0.0003241	4.087953	11	0.1590106	0.004508	-327.67
	17	33	1976.103	0.0271054	0.0060933	1	0.0277819	12.66941	0.0003188	4.08795	11	0.1589975	0.0044172	-327.67
	18	35	1577.524	0.0272312	0.0043788	1	0.027581	9.135011	0.0003193	4.087945	11	0.1590027	0.0043854	-327.67
	19	37	1265.625	0.0274287	0.0031319	1	0.0276069	6.514009	0.0003214	4.087955	11	0.1590046	0.0043896	-327.67
	20	38	998.264	0.0276783	0.0019226	1	0.027745	3.973424	0.0003242	4.087955	11	0.1589964	0.0044113	-327.67
	21	40	796.875	0.0279895	0.00108	1	0.0280103	2.209739	0.0003181	4.087952	11	0.1590069	0.0044538	-327.67
	22	41	627.7902	0.0283093	0.0003192	1	0.0283111	0.646062	0.0003242	4.087965	11	0.158996	0.0045014	-327.67
	23	43	505.5147	0.0284995	-1.63657E-005	1	0.0284995	-0.0329018	0.0003086	4.087873	11	0.1575964	0.0044914	-327.67
	24	45	397.9953	0.0289286	-0.000559	1	0.028934	-1.107034	0.0003156	4.087874	11	0.1606036	0.0046469	-327.67
	25	46	315.5048	0.0293293	-0.0009483	1	0.0293447	-1.85186	0.0003138	4.087875	11	0.1593361	0.0046757	-327.67
	26	48	252.4038	0.0297227	-0.0012219	1	0.0297478	-2.354033	0.0003092	4.087876	11	0.1589677	0.0047289	-327.67
	27	49	198.6229	0.0301189	-0.0014433	1	0.0301535	-2.743513	0.0003114	4.087877	11	0.1588784	0.0047907	-327.67
	28	51	158.3615	0.0304825	-0.0015908	1	0.030524	-2.987484	0.0003161	4.087877	11	0.1588907	0.00485	-327.67
	29	52	125.558	0.0308462	-0.0016918	1	0.0308925	-3.139348	0.000313	4.087881	11	0.1589154	0.0049093	-327.67
	30	54	100.4464	0.0311844	-0.0017563	1	0.0312338	-3.223447	0.0003118	4.08788	11	0.1589369	0.0049642	-327.67
	31	55	79.00281	0.0315504	-0.0017917	1	0.0316013	-3.25027	0.0003097	4.087887	11	0.1589603	0.0050233	-327.67
	32	57	63.3446	0.0318711	-0.0017886	1	0.0319212	-3.212102	0.0003135	4.087892	11	0.1589745	0.0050747	-327.67
	33	59	50.22321	0.0321991	-0.0017601	1	0.0322472	-3.12878	0.0003163	4.087893	11	0.1589835	0.0051268	-327.67
	34	61	38.42213	0.0325497	-0.0017	1	0.0325941	-2.989671	0.0003099	4.087889	11	0.1589835	0.0051819	-327.67
	35	62	31.25	0.0328099	-0.0016235	1	0.03285	-2.832878	0.0003194	4.087896	11	0.1590001	0.0052232	-327.67
	36	64	24.93351	0.0330658	-0.0015387	1	0.0331016	-2.664251	0.0003114	4.087906	11	0.1589916	0.0052629	-327.67
	37	66	19.86229	0.0333069	-0.001437	1	0.0333379	-2.470479	0.0003238	4.087908	11	0.1589945	0.0053005	-327.67
	38	67	15.625	0.033529	-0.0013209	1	0.033555	-2.255986	0.0003267	4.087909	11	0.1589852	0.0053347	-327.67
	39	69	12.40079	0.0337009	-0.0012083	1	0.0337226	-2.05342	0.0002901	4.087916	11	0.158995	0.0053617	-327.67
	40	70	9.93114	0.0338469	-0.00111	1	0.0338651	-1.878342	0.0003019	4.087903	11	0.1590135	0.005385	-327.67
	41	72	7.944915	0.0339792	-0.0010055	1	0.0339941	-1.69505	0.0002856	4.087922	11	0.1589937	0.0054048	-327.67
	42	74	6.317385	0.0340844	-0.000937	1	0.0340973	-1.574757	0.0002504	4.087936	11	0.1589919	0.0054212	-327.67
	43	76	5.008013	0.0341889	-0.000878	1	0.0342002	-1.471035	0.0003683	4.087922	11	0.1589841	0.0054373	-327.67
	44	79	3.945707	0.0342799	-0.0008366	1	0.0342901	-1.398088	0.0002798	4.087935	11	0.1590054	0.0054523	-327.67
	45	82	3.158693	0.0343533	-0.0008203	1	0.0343631	-1.367856	0.000208	4.087951	11	0.1589783	0.005463	-327.67
	46	85	2.504006	0.0343002	-0.000713	1	0.0343076	-1.190897	0.0002767	4.087941	11	0.1554478	0.005333	-327.67
	47	89	1.998082	0.0344188	-0.0007796	1	0.0344276	-1.297526	0.0004443	4.087965	11	0.1613773	0.0055558	-327.67
	48	93	1.584686	0.0345215	-0.0008481	1	0.0345319	-1.40734	0.0006408	4.087965	11	0.1600789	0.0055278	-327.67
	49	97	1.266892	0.0346269	-0.0009037	1	0.0346387	-1.49492	4.926999E-005	4.087918	11	0.1592604	0.0055166	-327.67
	50	104	0.999041	0.0347481	-0.0009923	1	0.0347623	-1.635779	5.857414E-005	4.087906	11	0.1590844	0.0055301	-327.67
	51	109	0.7923428	0.0348827	-0.0010693	1	0.0348991	-1.755873	0.0002845	4.087968	11	0.1591333	0.0055536	-327.67
	52	117	0.6334459	0.0350142	-0.0011817	1	0.0350341	-1.932948	0.000284	4.087971	11	0.1589836	0.0055699	-327.67
	53	125	0.5040323	0.0351581	-0.0013058	1	0.0351823	-2.127017	0.0002803	4.087974	11	0.1589813	0.0055933	-327.67
	54	136	0.400641	0.0353269	-0.0014512	1	0.0353567	-2.352328	0.0002837	4.087989	11	0.1589856	0.0056212	-327.67
	55	150	0.316723	0.035524	-0.0016126	1	0.0355606	-2.599211	0.0002845	4.088008	11	0.1589908	0.0056538	-327.67
	56	168	0.2520161	0.0357414	-0.001778	1	0.0357856	-2.847949	0.0002806	4.088024	11	0.1589933	0.0056897	-327.67
	57	185	0.2003205	0.0359812	-0.0019651	1	0.0360348	-3.126109	0.000282	4.088049	11	0.1589957	0.0057294	-327.67
	58	212	0.1588983	0.0362506	-0.0021562	1	0.0363146	-3.404027	0.0002871	4.088075	11	0.1589978	0.0057739	-327.67
	59	243	0.1260081	0.0365673	-0.0023584	1	0.0366433	-3.690101	0.0002852	4.08817	11	0.1590004	0.0058263	-327.67
	60	281	0.1001603	0.0369108	-0.0025726	1	0.0370004	-3.98689	0.0002822	4.088335	11	0.1589984	0.005883	-327.67
	61	318	0.0794492	0.0372776	-0.0028125	1	0.0373835	-4.314696	0.0002846	4.08848	11	0.1589985	0.0059439	-327.67
	62	357	0.0631739	0.0375646	-0.0030966	1	0.037692	-4.712505	0.0002774	4.088387	11	0.1589999	0.005993	-327.67
	63	406	0.0501337	0.0379256	-0.0034241	1	0.0380799	-5.159009	0.0002832	4.088388	11	0.1590008	0.0060547	-327.67
	64	467	0.0398258	0.0383078	-0.0037616	1	0.0384921	-5.608184	0.0002845	4.088415	11	0.1589989	0.0061202	-327.67
	65	544	0.0316296	0.0387302	-0.004187	1	0.0389559	-6.170081	0.0002865	4.088473	11	0.1589997	0.006194	-327.67
	66	672	0.0251206	0.0392301	-0.0046738	1	0.0395075	-6.794152	0.0002827	4.088546	11	0.1590012	0.0062817	-327.67
	67	793	0.0199553	0.0397721	-0.0052305	1	0.0401146	-7.492041	0.0002827	4.08862	11	0.1589988	0.0063782	-327.67
	68	995	0.0158522	0.0403997	-0.0058914	1	0.040827	-8.296787	0.000278	4.088717	11	0.1590007	0.0064915	-327.67
	69	1249	0.0125907	0.0411551	-0.0066452	1	0.0416882	-9.172174	0.0002822	4.088815	11	0.1589994	0.0066284	-327.67
	70	1489	0.0100011	0.0420441	-0.007474	1	0.0427032	-10.07987	0.0002819	4.088899	11	0.1590007	0.0067898	-327.67
