EXPLAIN
TAG	GALVEIS
TITLE	LABEL	Galvanostatic EIS	Test Identifier
DATE	LABEL	2.2.2024	Date
TIME	LABEL	22:45:50	Time
NOTES	NOTES	1	Notes...
	
PSTAT	PSTAT	REF600-12055	Potentiostat
FREQINIT	QUANT	1.00000E+005	Initial Freq. (Hz)
FREQFINAL	QUANT	1.00000E-002	Final Freq. (Hz)
PTSPERDEC	QUANT	1.00000E+001	Points/decade
IACREQ	QUANT	1.59000E-001	AC Current (A rms)
IDCREQ	QUANT	0.00000E+000	DC Current (A)
AREA	QUANT	1.00000E+000	Sample Area (cm^2)
SPEED	SELECTOR	1	Optimize for:
DRIFTCOR	SELECTOR	0	Drift Correction
THD	SELECTOR	0	THD
ZGUESS	QUANT	1.00000E-001	Estimated Z (ohms)
EOC	QUANT	3.719764	Open Circuit (V)
SEQUENCER	TOGGLE	TRUE	Run as Sequence
PSTATMODEL	IQUANT	4	Pstat Model
PSTATSECTION	LABEL	REF600-12055	Pstat Section
PSTATSERIALNO	LABEL	12055	Pstat Serial Number
CTRLMODE	IQUANT	0	Control Mode
ELECTROMETER	IQUANT	0	RE=0 or CS=1
IESTAB	IQUANT	0	I/E Stability
CASPEED	IQUANT	4	Control Amp Speed
CONVENTION	IQUANT	1	Current Convention
ICHRANGE	IQUANT	2	Ich Range
ICHRANGEMODE	TOGGLE	F	Ich Auto Range
ICHOFFSETENABLE	TOGGLE	T	Ich Offset Enable
ICHOFFSET	QUANT	0	Ich Offset (V)
ICHFILTER	IQUANT	3	Ich Filter
VCHRANGE	IQUANT	2	Vch Range
VCHRANGEMODE	TOGGLE	F	Vch Auto Range
VCHOFFSETENABLE	TOGGLE	T	Vch Offset Enable
VCHOFFSET	QUANT	0	Vch Offset (V)
VCHFILTER	IQUANT	3	Vch Filter
ACHRANGE	IQUANT	2	Ach Range
ACHOFFSETENABLE	TOGGLE	F	Ach Offset Enable
ACHOFFSET	QUANT	0	Ach Offset (V)
ACHFILTER	IQUANT	1	Ach Filter
IERANGELOWERLIMIT	IQUANT	1	I/E Range Lower Limit
IERANGEMODE	TOGGLE	F	I/E AutoRange
IERANGE	IQUANT	7	I/E Range
POSFEEDENABLE	TOGGLE	F	Positive Feedback IR Comp
POSFEEDRESISTANCE	QUANT	0	Positive Feedback Resistance (ohm)
ACHSELECT	IQUANT	4	Ach Select
SENSECABLEID	IQUANT	14	Sense Cable ID
PWRCABLEID	IQUANT	14	Power Cable ID
DCCALDATE	LABEL		DC Calibration Date
ACCALDATE	LABEL		AC Calibration Date
THERMOSELECT	IQUANT	1	Thermo Select
FRAMEWORKVERSION	LABEL	7.10.3	Framework Version
INSTRUMENTVERSION	LABEL	4.91	Instrument Version
COMMVERSION	LABEL	2.24	Communications Version
CPUPLDVERSION	LABEL	0.00	CPU PLD Version
CTRLPLDVERSION	LABEL	0.00	CTRL PLD Version
PSTATPLDVERSION	LABEL	0.00	PSTAT PLD Version
ZCURVE	TABLE
	Pt	Time	Freq	Zreal	Zimag	Zsig	Zmod	Zphz	Idc	Vdc	IERange	Imod	Vmod	Temp
	#	s	Hz	ohm	ohm	V	ohm	°	A	V	#	A	V	°C
	0	5	100078.1	0.1065989	0.2375046	1	0.2603301	65.82808	0.0003591	3.719033	11	0.1596724	0.0412899	-327.67
	1	6	79453.13	0.0881089	0.1979785	1	0.2166995	66.0089	0.0003439	3.719029	11	0.1642563	0.0354312	-327.67
	2	8	63140.62	0.0738129	0.1643429	1	0.1801581	65.81325	0.0003469	3.719028	11	0.1619748	0.0290916	-327.67
	3	10	50203.12	0.0628837	0.1358721	1	0.1497184	65.1646	0.0003269	3.719026	11	0.1609402	0.0240472	-327.67
	4	11	39890.62	0.0545858	0.111924	1	0.1245255	64.0013	0.0003234	3.719021	11	0.1602703	0.0199317	-327.67
	5	13	31640.63	0.0482683	0.0918959	1	0.1038012	62.28932	0.0003271	3.719	11	0.1598429	0.016578	-327.67
	6	15	25171.88	0.0435105	0.0756468	1	0.0872675	60.09336	0.0003277	3.718999	11	0.1595438	0.0139155	-327.67
	7	17	20015.62	0.0397553	0.0622687	1	0.0738775	57.44391	0.0003267	3.718955	11	0.159362	0.0117693	-327.67
	8	18	15890.62	0.03665	0.0512235	1	0.0629847	54.41656	0.0003137	3.718957	11	0.1592202	0.0100263	-327.67
	9	20	12609.38	0.0340521	0.0420604	1	0.0541167	51.00638	0.0003243	3.718953	11	0.159143	0.0086111	-327.67
	10	22	10078.13	0.0319749	0.0345974	1	0.0471103	47.25589	0.0003182	3.718951	11	0.1590896	0.0074941	-327.67
	11	23	8015.625	0.0302796	0.0281402	1	0.0413367	42.90279	0.0003194	3.718941	11	0.159053	0.0065744	-327.67
	12	25	6328.125	0.0289629	0.0225102	1	0.0366818	37.8546	0.0003074	3.718936	11	0.1590334	0.0058334	-327.67
	13	26	5015.625	0.0280562	0.017901	1	0.0332805	32.53949	0.0003124	3.718933	11	0.1590154	0.005292	-327.67
	14	28	3984.375	0.0274778	0.0140735	1	0.0308722	27.12055	0.0003077	3.718916	11	0.1590119	0.004909	-327.67
	15	30	3170.956	0.0271463	0.0109464	1	0.0292703	21.96112	0.0003208	3.718916	11	0.1590048	0.0046541	-327.67
	16	31	2527.573	0.0270105	0.008402	1	0.0282871	17.27898	0.0003218	3.718913	11	0.1590044	0.0044978	-327.67
	17	33	1976.103	0.0270495	0.006081	1	0.0277246	12.67014	0.000309	3.718911	11	0.1589984	0.0044081	-327.67
	18	34	1577.524	0.0271606	0.0044032	1	0.0275152	9.208467	0.0003223	3.718898	11	0.1590048	0.004375	-327.67
	19	36	1265.625	0.0273476	0.0030862	1	0.0275212	6.438715	0.0003198	3.718894	11	0.1589956	0.0043757	-327.67
	20	38	998.264	0.0276203	0.0019111	1	0.0276863	3.958184	0.0003164	3.718893	11	0.158998	0.0044021	-327.67
	21	39	796.875	0.0279106	0.0010257	1	0.0279295	2.104611	0.0003224	3.718883	11	0.1590031	0.0044409	-327.67
	22	41	627.7902	0.028249	0.000316	1	0.0282507	0.6408134	0.0003201	3.718887	11	0.1589974	0.0044918	-327.67
	23	42	505.5147	0.0284365	9.489301E-006	1	0.0284365	0.0191197	0.0003067	3.718797	11	0.1576054	0.0044817	-327.67
	24	44	397.9953	0.0288747	-0.0005187	1	0.0288794	-1.029042	0.0003017	3.71879	11	0.1605973	0.0046379	-327.67
	25	45	315.5048	0.0292961	-0.0008843	1	0.0293094	-1.729041	0.0002946	3.718785	11	0.1593459	0.0046703	-327.67
	26	47	252.4038	0.0296866	-0.0011389	1	0.0297084	-2.197015	0.0003121	3.718786	11	0.1589644	0.0047226	-327.67
	27	48	198.6229	0.0300887	-0.0013174	1	0.0301175	-2.506944	0.0003125	3.718779	11	0.1588797	0.0047851	-327.67
	28	50	158.3615	0.0304546	-0.0014137	1	0.0304874	-2.657819	0.0003098	3.718781	11	0.1588851	0.004844	-327.67
	29	51	125.558	0.0308041	-0.0014581	1	0.0308386	-2.710062	0.0003106	3.71877	11	0.1589171	0.0049008	-327.67
	30	53	100.4464	0.0311139	-0.0014501	1	0.0311477	-2.668369	0.0003106	3.718768	11	0.1589389	0.0049506	-327.67
	31	54	79.00281	0.0314262	-0.0014035	1	0.0314575	-2.557105	0.0003124	3.718764	11	0.1589574	0.0050004	-327.67
	32	56	63.3446	0.0316795	-0.0013334	1	0.0317075	-2.410156	0.0003138	3.718761	11	0.1589776	0.0050408	-327.67
	33	58	50.22321	0.0319048	-0.0012294	1	0.0319285	-2.206761	0.0003011	3.718757	11	0.158978	0.0050759	-327.67
	34	59	38.42213	0.0321372	-0.0011131	1	0.0321565	-1.98363	0.0003097	3.718752	11	0.1589922	0.0051126	-327.67
	35	61	31.25	0.0322845	-0.00101	1	0.0323003	-1.791844	0.0002961	3.718748	11	0.1589863	0.0051353	-327.67
	36	62	24.93351	0.0324198	-0.0009049	1	0.0324325	-1.598867	0.0003007	3.71874	11	0.1590024	0.0051568	-327.67
	37	64	19.86229	0.0325242	-0.0008187	1	0.0325345	-1.442022	0.0003395	3.718741	11	0.1589798	0.0051723	-327.67
	38	65	15.625	0.03262	-0.0007227	1	0.032628	-1.269145	0.0002981	3.718743	11	0.159	0.0051879	-327.67
	39	67	12.40079	0.0326944	-0.0006469	1	0.0327008	-1.133462	0.0002936	3.718725	11	0.1589979	0.0051994	-327.67
	40	68	9.93114	0.032743	-0.0005912	1	0.0327483	-1.034415	0.0003167	3.718719	11	0.1590101	0.0052073	-327.67
	41	70	7.944915	0.032802	-0.0005435	1	0.0328065	-0.9492259	0.0002836	3.718724	11	0.1589984	0.0052162	-327.67
	42	72	6.317385	0.0328448	-0.0005295	1	0.0328491	-0.9235498	0.0002338	3.718717	11	0.1590037	0.0052231	-327.67
	43	74	5.008013	0.0328933	-0.0005167	1	0.0328973	-0.8999235	0.0003587	3.718702	11	0.1589729	0.0052298	-327.67
	44	76	3.945707	0.0329374	-0.0005183	1	0.0329415	-0.901548	0.0003444	3.718686	11	0.1590024	0.0052378	-327.67
	45	79	3.158693	0.032984	-0.0005328	1	0.0329883	-0.9254106	0.0004178	3.718661	11	0.1589692	0.0052441	-327.67
	46	82	2.504006	0.0329064	-0.0004645	1	0.0329096	-0.8087956	0.0003233	3.718606	11	0.1554752	0.0051166	-327.67
	47	85	1.998082	0.032991	-0.0005519	1	0.0329956	-0.958474	0.0003993	3.718601	11	0.1613302	0.0053232	-327.67
	48	89	1.584686	0.0330832	-0.0006366	1	0.0330893	-1.102368	0.0001774	3.718579	11	0.159928	0.0052919	-327.67
	49	93	1.266892	0.0331708	-0.000712	1	0.0331785	-1.229722	0.0004	3.718632	11	0.1592701	0.0052843	-327.67
	50	100	0.999041	0.033266	-0.0008011	1	0.0332757	-1.379592	0.000348	3.718629	11	0.1590739	0.0052933	-327.67
	51	104	0.7923428	0.0333635	-0.000902	1	0.0333757	-1.548615	0.0002775	3.718622	11	0.1593066	0.005317	-327.67
	52	111	0.6334459	0.0334658	-0.0010272	1	0.0334816	-1.758053	0.0002844	3.718601	11	0.158984	0.005323	-327.67
	53	119	0.5040323	0.033573	-0.001172	1	0.0335935	-1.999352	0.0002843	3.718571	11	0.1589822	0.0053408	-327.67
	54	130	0.400641	0.0337095	-0.0013446	1	0.0337363	-2.284164	0.0002826	3.718542	11	0.1589862	0.0053636	-327.67
	55	144	0.316723	0.0338676	-0.0015356	1	0.0339024	-2.596053	0.0002799	3.718507	11	0.1589904	0.0053902	-327.67
	56	162	0.2520161	0.0340584	-0.0017457	1	0.0341031	-2.934103	0.0002844	3.71848	11	0.1589933	0.0054222	-327.67
	57	179	0.2003205	0.0342731	-0.0019949	1	0.0343311	-3.331274	0.0002811	3.718433	11	0.1589959	0.0054585	-327.67
	58	205	0.1588983	0.0345288	-0.0022681	1	0.0346032	-3.758246	0.0002811	3.718384	11	0.1589975	0.0055018	-327.67
	59	231	0.1260081	0.0348306	-0.0025713	1	0.0349253	-4.222116	0.0002815	3.718421	11	0.1589971	0.005553	-327.67
	60	269	0.1001603	0.0351964	-0.0029003	1	0.0353157	-4.710783	0.0002815	3.71852	11	0.159001	0.0056152	-327.67
	61	315	0.0794492	0.0356	-0.0032746	1	0.0357503	-5.255511	0.0002753	3.718676	11	0.1589999	0.0056843	-327.67
	62	354	0.0631739	0.0359095	-0.0036833	1	0.0360979	-5.856387	0.0002806	3.718444	11	0.1589988	0.0057395	-327.67
	63	404	0.0501337	0.0363122	-0.0041582	1	0.0365495	-6.532559	0.0002813	3.718322	11	0.1589991	0.0058113	-327.67
	64	465	0.0398258	0.0367417	-0.0046896	1	0.0370398	-7.2738	0.000282	3.718173	11	0.1589995	0.0058893	-327.67
	65	567	0.0316296	0.037233	-0.0053213	1	0.0376114	-8.133574	0.0002812	3.718023	11	0.1590016	0.0059803	-327.67
	66	695	0.0251206	0.0377599	-0.0060631	1	0.0382436	-9.122087	0.0002837	3.717871	11	0.1589994	0.0060807	-327.67
	67	856	0.0199553	0.0383913	-0.0069531	1	0.0390159	-10.26571	0.0002817	3.717724	11	0.1590004	0.0062035	-327.67
	68	1058	0.0158522	0.0391127	-0.0080342	1	0.0399293	-11.60778	0.0002822	3.717603	11	0.1590001	0.0063488	-327.67
	69	1249	0.0125907	0.0399381	-0.0092787	1	0.0410018	-13.07929	0.0002807	3.717479	11	0.1589997	0.0065193	-327.67
	70	1568	0.0100011	0.040986	-0.0107413	1	0.0423702	-14.68543	0.0002817	3.717389	11	0.1590007	0.0067369	-327.67
