EXPLAIN
TAG	GALVEIS
TITLE	LABEL	Galvanostatic EIS	Test Identifier
DATE	LABEL	3.2.2024	Date
TIME	LABEL	1:21:49	Time
NOTES	NOTES	1	Notes...
	
PSTAT	PSTAT	REF600-12055	Potentiostat
FREQINIT	QUANT	1.00000E+005	Initial Freq. (Hz)
FREQFINAL	QUANT	1.00000E-002	Final Freq. (Hz)
PTSPERDEC	QUANT	1.00000E+001	Points/decade
IACREQ	QUANT	1.59000E-001	AC Current (A rms)
IDCREQ	QUANT	0.00000E+000	DC Current (A)
AREA	QUANT	1.00000E+000	Sample Area (cm^2)
SPEED	SELECTOR	1	Optimize for:
DRIFTCOR	SELECTOR	0	Drift Correction
THD	SELECTOR	0	THD
ZGUESS	QUANT	1.00000E-001	Estimated Z (ohms)
EOC	QUANT	3.909184	Open Circuit (V)
SEQUENCER	TOGGLE	TRUE	Run as Sequence
PSTATMODEL	IQUANT	4	Pstat Model
PSTATSECTION	LABEL	REF600-12055	Pstat Section
PSTATSERIALNO	LABEL	12055	Pstat Serial Number
CTRLMODE	IQUANT	0	Control Mode
ELECTROMETER	IQUANT	0	RE=0 or CS=1
IESTAB	IQUANT	0	I/E Stability
CASPEED	IQUANT	4	Control Amp Speed
CONVENTION	IQUANT	1	Current Convention
ICHRANGE	IQUANT	2	Ich Range
ICHRANGEMODE	TOGGLE	F	Ich Auto Range
ICHOFFSETENABLE	TOGGLE	T	Ich Offset Enable
ICHOFFSET	QUANT	0	Ich Offset (V)
ICHFILTER	IQUANT	3	Ich Filter
VCHRANGE	IQUANT	2	Vch Range
VCHRANGEMODE	TOGGLE	F	Vch Auto Range
VCHOFFSETENABLE	TOGGLE	T	Vch Offset Enable
VCHOFFSET	QUANT	0	Vch Offset (V)
VCHFILTER	IQUANT	3	Vch Filter
ACHRANGE	IQUANT	2	Ach Range
ACHOFFSETENABLE	TOGGLE	F	Ach Offset Enable
ACHOFFSET	QUANT	0	Ach Offset (V)
ACHFILTER	IQUANT	1	Ach Filter
IERANGELOWERLIMIT	IQUANT	1	I/E Range Lower Limit
IERANGEMODE	TOGGLE	F	I/E AutoRange
IERANGE	IQUANT	7	I/E Range
POSFEEDENABLE	TOGGLE	F	Positive Feedback IR Comp
POSFEEDRESISTANCE	QUANT	0	Positive Feedback Resistance (ohm)
ACHSELECT	IQUANT	4	Ach Select
SENSECABLEID	IQUANT	14	Sense Cable ID
PWRCABLEID	IQUANT	14	Power Cable ID
DCCALDATE	LABEL		DC Calibration Date
ACCALDATE	LABEL		AC Calibration Date
THERMOSELECT	IQUANT	1	Thermo Select
FRAMEWORKVERSION	LABEL	7.10.3	Framework Version
INSTRUMENTVERSION	LABEL	4.91	Instrument Version
COMMVERSION	LABEL	2.24	Communications Version
CPUPLDVERSION	LABEL	0.00	CPU PLD Version
CTRLPLDVERSION	LABEL	0.00	CTRL PLD Version
PSTATPLDVERSION	LABEL	0.00	PSTAT PLD Version
ZCURVE	TABLE
	Pt	Time	Freq	Zreal	Zimag	Zsig	Zmod	Zphz	Idc	Vdc	IERange	Imod	Vmod	Temp
	#	s	Hz	ohm	ohm	V	ohm	°	A	V	#	A	V	°C
	0	5	100078.1	0.1066923	0.2370672	1	0.2599694	65.76983	0.0003577	3.908452	11	0.1596581	0.041229	-327.67
	1	7	79453.13	0.0881807	0.1976745	1	0.216451	65.95881	0.0003571	3.90846	11	0.1642838	0.0353965	-327.67
	2	9	63140.62	0.0738648	0.1640988	1	0.1799567	65.76635	0.0003442	3.908461	11	0.1619603	0.0290565	-327.67
	3	11	50203.12	0.0629138	0.1357099	1	0.1495838	65.128	0.0003261	3.90845	11	0.1609388	0.0240253	-327.67
	4	12	39890.62	0.0545925	0.1117995	1	0.1244165	63.9734	0.0003264	3.908457	11	0.1602722	0.0199145	-327.67
	5	14	31640.63	0.0482813	0.0918008	1	0.103723	62.25853	0.000326	3.908447	11	0.1598442	0.0165657	-327.67
	6	16	25171.88	0.0435032	0.0755631	1	0.0871913	60.0701	0.0003272	3.908439	11	0.159547	0.0139037	-327.67
	7	18	20015.62	0.039741	0.0622101	1	0.0738203	57.42878	0.0003266	3.908406	11	0.1593559	0.0117597	-327.67
	8	19	15890.62	0.0366321	0.0511744	1	0.0629343	54.40387	0.0003144	3.908392	11	0.1592289	0.0100188	-327.67
	9	21	12609.38	0.0340403	0.0420007	1	0.0540629	50.97623	0.0003151	3.908391	11	0.1591399	0.0086024	-327.67
	10	22	10078.13	0.0319619	0.0345595	1	0.0470736	47.23625	0.0003198	3.908382	11	0.159083	0.007488	-327.67
	11	24	8015.625	0.0302645	0.0281073	1	0.0413032	42.88354	0.0003211	3.908382	11	0.1590594	0.0065693	-327.67
	12	26	6328.125	0.0289415	0.0224917	1	0.0366536	37.85241	0.0003201	3.908387	11	0.1590273	0.0058287	-327.67
	13	27	5015.625	0.028049	0.0178741	1	0.0332601	32.50717	0.0003196	3.908386	11	0.1590191	0.0052889	-327.67
	14	29	3984.375	0.0274751	0.0140528	1	0.0308603	27.08863	0.0003231	3.908388	11	0.159006	0.0049069	-327.67
	15	30	3170.956	0.0271465	0.0109072	1	0.0292557	21.88982	0.0003227	3.908376	11	0.1590055	0.0046518	-327.67
	16	32	2527.573	0.0270299	0.008369	1	0.0282959	17.20359	0.0003186	3.908365	11	0.1590042	0.0044991	-327.67
	17	34	1976.103	0.027039	0.006134	1	0.027726	12.78156	0.0003201	3.908374	11	0.1590067	0.0044086	-327.67
	18	35	1577.524	0.0271787	0.0044702	1	0.0275438	9.340012	0.0003211	3.908376	11	0.1590035	0.0043796	-327.67
	19	37	1265.625	0.0273657	0.0031033	1	0.0275411	6.469689	0.0003201	3.908371	11	0.1589907	0.0043788	-327.67
	20	39	998.264	0.0276371	0.0019894	1	0.0277086	4.117236	0.0003192	3.90836	11	0.1590136	0.004406	-327.67
	21	40	796.875	0.027953	0.0010823	1	0.0279739	2.21736	0.0003095	3.908357	11	0.1589979	0.0044478	-327.67
	22	42	627.7902	0.0282759	0.000336	1	0.0282779	0.6807778	0.0003056	3.90835	11	0.1589916	0.0044959	-327.67
	23	43	505.5147	0.0284479	7.421946E-005	1	0.028448	0.1494819	0.0003123	3.908267	11	0.157598	0.0044834	-327.67
	24	45	397.9953	0.0288745	-0.0004384	1	0.0288779	-0.869767	0.0002995	3.908264	11	0.1606057	0.0046379	-327.67
	25	46	315.5048	0.0292778	-0.0007923	1	0.0292885	-1.550091	0.0003009	3.908267	11	0.1593368	0.0046667	-327.67
	26	48	252.4038	0.0296492	-0.0010345	1	0.0296673	-1.998255	0.0003108	3.908265	11	0.1589701	0.0047162	-327.67
	27	49	198.6229	0.0300261	-0.001203	1	0.0300502	-2.294323	0.0003118	3.908261	11	0.1588808	0.0047744	-327.67
	28	51	158.3615	0.0303638	-0.0012945	1	0.0303914	-2.441277	0.0003076	3.908259	11	0.1588873	0.0048288	-327.67
	29	52	125.558	0.0306881	-0.0013366	1	0.0307172	-2.493906	0.0002933	3.908256	11	0.158908	0.0048812	-327.67
	30	54	100.4464	0.0309835	-0.0013339	1	0.0310122	-2.465124	0.0002948	3.908258	11	0.1589484	0.0049293	-327.67
	31	55	79.00281	0.0312663	-0.0012943	1	0.0312931	-2.370404	0.0003019	3.908255	11	0.1589561	0.0049742	-327.67
	32	57	63.3446	0.0315022	-0.0012283	1	0.0315261	-2.23292	0.0003107	3.908252	11	0.1589695	0.0050117	-327.67
	33	59	50.22321	0.0317176	-0.001142	1	0.0317381	-2.062037	0.000305	3.90825	11	0.1589867	0.0050459	-327.67
	34	61	38.42213	0.0319302	-0.0010284	1	0.0319468	-1.844729	0.0003084	3.908245	11	0.1589866	0.0050791	-327.67
	35	62	31.25	0.0320631	-0.0009319	1	0.0320766	-1.66472	0.0002914	3.908244	11	0.1589865	0.0050998	-327.67
	36	64	24.93351	0.0321877	-0.000838	1	0.0321986	-1.491369	0.0003087	3.908233	11	0.159001	0.0051196	-327.67
	37	65	19.86229	0.0323004	-0.0007597	1	0.0323093	-1.347301	0.0003227	3.908238	11	0.1589938	0.005137	-327.67
	38	67	15.625	0.0323685	-0.0006773	1	0.0323755	-1.198647	0.0002999	3.908244	11	0.1589869	0.0051473	-327.67
	39	68	12.40079	0.0324448	-0.000624	1	0.0324509	-1.101879	0.0003278	3.908231	11	0.1589968	0.0051596	-327.67
	40	70	9.93114	0.0324893	-0.0005655	1	0.0324942	-0.99712	0.0003368	3.908242	11	0.1589942	0.0051664	-327.67
	41	72	7.944915	0.0325418	-0.0005268	1	0.032546	-0.9274986	0.0003412	3.908223	11	0.1590083	0.0051751	-327.67
	42	73	6.317385	0.0325942	-0.0005091	1	0.0325982	-0.8947993	0.0002306	3.908215	11	0.1590146	0.0051836	-327.67
	43	75	5.008013	0.0326413	-0.0005019	1	0.0326451	-0.8810015	0.000359	3.908213	11	0.1589722	0.0051897	-327.67
	44	78	3.945707	0.0326861	-0.0005006	1	0.0326899	-0.8774748	0.0003096	3.908203	11	0.1590225	0.0051984	-327.67
	45	80	3.158693	0.0327312	-0.000521	1	0.0327354	-0.9119452	0.0003634	3.908189	11	0.1590092	0.0052052	-327.67
	46	83	2.504006	0.0326477	-0.0004589	1	0.0326509	-0.8053902	0.0003699	3.908147	11	0.1553786	0.0050733	-327.67
	47	87	1.998082	0.0327461	-0.0005469	1	0.0327507	-0.956895	0.0000989	3.908118	11	0.1614785	0.0052885	-327.67
	48	90	1.584686	0.0328324	-0.0006216	1	0.0328383	-1.084597	-7.523224E-006	3.908122	11	0.1599844	0.0052536	-327.67
	49	96	1.266892	0.0329189	-0.0006974	1	0.0329263	-1.213595	0.0005964	3.908135	11	0.1592965	0.005245	-327.67
	50	101	0.999041	0.0330151	-0.000783	1	0.0330244	-1.358543	0.0005859	3.908153	11	0.1590712	0.0052532	-327.67
	51	107	0.7923428	0.0331339	-0.0008715	1	0.0331454	-1.506581	0.000284	3.908171	11	0.1591192	0.0052741	-327.67
	52	114	0.6334459	0.0332383	-0.0009784	1	0.0332527	-1.686021	0.0002798	3.908157	11	0.1589827	0.0052866	-327.67
	53	122	0.5040323	0.0333616	-0.0011067	1	0.03338	-1.899935	0.0002764	3.908142	11	0.1589798	0.0053067	-327.67
	54	132	0.400641	0.0335041	-0.00125	1	0.0335275	-2.136617	0.00028	3.908123	11	0.1589886	0.0053305	-327.67
	55	143	0.316723	0.0336721	-0.0014035	1	0.0337014	-2.386813	0.0002823	3.908098	11	0.158991	0.0053582	-327.67
	56	161	0.2520161	0.0338697	-0.0015836	1	0.0339067	-2.677022	0.0002836	3.90808	11	0.1589932	0.0053909	-327.67
	57	182	0.2003205	0.0340793	-0.0017514	1	0.0341243	-2.94188	0.0002825	3.908064	11	0.1589959	0.0054256	-327.67
	58	203	0.1588983	0.0343273	-0.0019503	1	0.0343827	-3.251698	0.0002828	3.908038	11	0.1589974	0.0054668	-327.67
	59	235	0.1260081	0.0346225	-0.0021544	1	0.0346894	-3.560685	0.0002802	3.908085	11	0.1589976	0.0055155	-327.67
	60	265	0.1001603	0.0349617	-0.0023529	1	0.0350408	-3.850184	0.0002763	3.908184	11	0.158999	0.0055714	-327.67
	61	302	0.0794492	0.0353006	-0.0025932	1	0.0353957	-4.201443	0.0002791	3.908229	11	0.1590011	0.005628	-327.67
	62	354	0.0631739	0.0355611	-0.0028484	1	0.035675	-4.579484	0.0002811	3.908045	11	0.1590006	0.0056723	-327.67
	63	418	0.0501337	0.0358946	-0.0031416	1	0.0360318	-5.002011	0.0002826	3.907935	11	0.158999	0.005729	-327.67
	64	500	0.0398258	0.036265	-0.0034925	1	0.0364328	-5.50089	0.0002828	3.90786	11	0.1589992	0.0057928	-327.67
	65	602	0.0316296	0.036663	-0.0039074	1	0.0368706	-6.083381	0.000281	3.907768	11	0.1589998	0.0058624	-327.67
	66	730	0.0251206	0.0370807	-0.0043799	1	0.0373384	-6.73644	0.000283	3.907675	11	0.159	0.0059368	-327.67
	67	891	0.0199553	0.0375809	-0.0049606	1	0.0379069	-7.519408	0.0002829	3.907588	11	0.1589998	0.0060272	-327.67
	68	1093	0.0158522	0.0381558	-0.0056747	1	0.0385755	-8.459278	0.000283	3.907507	11	0.1590007	0.0061335	-327.67
	69	1283	0.0125907	0.0388029	-0.0064794	1	0.0393401	-9.479953	0.000281	3.907427	11	0.1589996	0.0062551	-327.67
	70	1603	0.0100011	0.0396316	-0.0074032	1	0.0403171	-10.58094	0.0002817	3.90735	11	0.1590007	0.0064104	-327.67
