EXPLAIN
TAG	GALVEIS
TITLE	LABEL	Galvanostatic EIS	Test Identifier
DATE	LABEL	2.2.2024	Date
TIME	LABEL	16:01:20	Time
NOTES	NOTES	1	Notes...
	
PSTAT	PSTAT	REF600-12055	Potentiostat
FREQINIT	QUANT	1.00000E+005	Initial Freq. (Hz)
FREQFINAL	QUANT	1.00000E-002	Final Freq. (Hz)
PTSPERDEC	QUANT	1.00000E+001	Points/decade
IACREQ	QUANT	1.59000E-001	AC Current (A rms)
IDCREQ	QUANT	0.00000E+000	DC Current (A)
AREA	QUANT	1.00000E+000	Sample Area (cm^2)
SPEED	SELECTOR	1	Optimize for:
DRIFTCOR	SELECTOR	0	Drift Correction
THD	SELECTOR	0	THD
ZGUESS	QUANT	1.00000E-001	Estimated Z (ohms)
EOC	QUANT	3.180573	Open Circuit (V)
SEQUENCER	TOGGLE	TRUE	Run as Sequence
PSTATMODEL	IQUANT	4	Pstat Model
PSTATSECTION	LABEL	REF600-12055	Pstat Section
PSTATSERIALNO	LABEL	12055	Pstat Serial Number
CTRLMODE	IQUANT	0	Control Mode
ELECTROMETER	IQUANT	0	RE=0 or CS=1
IESTAB	IQUANT	0	I/E Stability
CASPEED	IQUANT	4	Control Amp Speed
CONVENTION	IQUANT	1	Current Convention
ICHRANGE	IQUANT	2	Ich Range
ICHRANGEMODE	TOGGLE	F	Ich Auto Range
ICHOFFSETENABLE	TOGGLE	T	Ich Offset Enable
ICHOFFSET	QUANT	0	Ich Offset (V)
ICHFILTER	IQUANT	3	Ich Filter
VCHRANGE	IQUANT	2	Vch Range
VCHRANGEMODE	TOGGLE	F	Vch Auto Range
VCHOFFSETENABLE	TOGGLE	T	Vch Offset Enable
VCHOFFSET	QUANT	0	Vch Offset (V)
VCHFILTER	IQUANT	3	Vch Filter
ACHRANGE	IQUANT	2	Ach Range
ACHOFFSETENABLE	TOGGLE	F	Ach Offset Enable
ACHOFFSET	QUANT	0	Ach Offset (V)
ACHFILTER	IQUANT	1	Ach Filter
IERANGELOWERLIMIT	IQUANT	1	I/E Range Lower Limit
IERANGEMODE	TOGGLE	F	I/E AutoRange
IERANGE	IQUANT	7	I/E Range
POSFEEDENABLE	TOGGLE	F	Positive Feedback IR Comp
POSFEEDRESISTANCE	QUANT	0	Positive Feedback Resistance (ohm)
ACHSELECT	IQUANT	4	Ach Select
SENSECABLEID	IQUANT	14	Sense Cable ID
PWRCABLEID	IQUANT	14	Power Cable ID
DCCALDATE	LABEL		DC Calibration Date
ACCALDATE	LABEL		AC Calibration Date
THERMOSELECT	IQUANT	1	Thermo Select
FRAMEWORKVERSION	LABEL	7.10.3	Framework Version
INSTRUMENTVERSION	LABEL	4.91	Instrument Version
COMMVERSION	LABEL	2.24	Communications Version
CPUPLDVERSION	LABEL	0.00	CPU PLD Version
CTRLPLDVERSION	LABEL	0.00	CTRL PLD Version
PSTATPLDVERSION	LABEL	0.00	PSTAT PLD Version
ZCURVE	TABLE
	Pt	Time	Freq	Zreal	Zimag	Zsig	Zmod	Zphz	Idc	Vdc	IERange	Imod	Vmod	Temp
	#	s	Hz	ohm	ohm	V	ohm	°	A	V	#	A	V	°C
	0	5	100078.1	0.1044273	0.2383904	1	0.2602595	66.34411	0.0003642	3.179904	11	0.1596522	0.0412735	-327.67
	1	7	79453.13	0.0867499	0.1983449	1	0.2164861	66.37693	0.0003506	3.179896	11	0.1642689	0.035399	-327.67
	2	8	63140.62	0.0730545	0.1644081	1	0.1799083	66.04211	0.0003427	3.179893	11	0.1619453	0.029046	-327.67
	3	10	50203.12	0.0625497	0.1357835	1	0.1494979	65.26649	0.0003369	3.179908	11	0.1609311	0.0240104	-327.67
	4	12	39890.62	0.0545604	0.1117447	1	0.1243531	63.97562	0.0003313	3.179906	11	0.1602721	0.0199043	-327.67
	5	13	31640.63	0.0484729	0.0916821	1	0.1037074	62.13429	0.0003235	3.179902	11	0.1598417	0.0165629	-327.67
	6	15	25171.88	0.0438569	0.0753938	1	0.0872219	59.81325	0.0003216	3.179898	11	0.1595421	0.0139081	-327.67
	7	17	20015.62	0.0402082	0.062024	1	0.0739167	57.04591	0.000325	3.179866	11	0.1593594	0.0117753	-327.67
	8	18	15890.62	0.0371758	0.0509744	1	0.0630906	53.8966	0.0003258	3.179871	11	0.1592246	0.0100434	-327.67
	9	20	12609.38	0.0346619	0.0418162	1	0.0543143	50.34432	0.000326	3.179868	11	0.1591402	0.0086424	-327.67
	10	22	10078.13	0.032636	0.034346	1	0.0473788	46.46238	0.0003259	3.179871	11	0.1590909	0.0075369	-327.67
	11	23	8015.625	0.0309695	0.0279086	1	0.0416893	42.02402	0.0003127	3.179863	11	0.1590533	0.0066305	-327.67
	12	25	6328.125	0.0296928	0.0223015	1	0.0371352	36.90921	0.0003107	3.179866	11	0.1590293	0.0059054	-327.67
	13	26	5015.625	0.028819	0.0176734	1	0.0338065	31.5189	0.000309	3.179857	11	0.1590179	0.0053757	-327.67
	14	28	3984.375	0.0282597	0.0138356	1	0.0314648	26.08578	0.0003082	3.179854	11	0.1590067	0.0050031	-327.67
	15	29	3170.956	0.0279656	0.0106724	1	0.0299328	20.88821	0.0003217	3.179858	11	0.1590059	0.0047595	-327.67
	16	31	2527.573	0.0278517	0.0081286	1	0.0290136	16.27013	0.0003221	3.17986	11	0.159004	0.0046133	-327.67
	17	33	1976.103	0.0279169	0.005826	1	0.0285184	11.78786	0.0003196	3.179864	11	0.1590016	0.0045345	-327.67
	18	34	1577.524	0.0280432	0.0041405	1	0.0283472	8.39887	0.0003183	3.179861	11	0.159004	0.0045073	-327.67
	19	36	1265.625	0.028284	0.0027658	1	0.0284189	5.585061	0.0003192	3.179868	11	0.1590066	0.0045188	-327.67
	20	38	998.264	0.0285609	0.0015308	1	0.0286019	3.06804	0.0003175	3.179869	11	0.1589956	0.0045476	-327.67
	21	39	796.875	0.0288882	0.0005802	1	0.0288941	1.150643	0.0003222	3.179862	11	0.1589936	0.004594	-327.67
	22	41	627.7902	0.0293086	-0.0002444	1	0.0293096	-0.4777672	0.0003217	3.179866	11	0.1590029	0.0046603	-327.67
	23	42	505.5147	0.0295409	-0.0006091	1	0.0295472	-1.181198	0.0003001	3.179786	11	0.1575991	0.0046566	-327.67
	24	44	397.9953	0.0300607	-0.0012308	1	0.0300859	-2.344533	0.0003091	3.179783	11	0.1605977	0.0048317	-327.67
	25	45	315.5048	0.0305674	-0.0017081	1	0.0306151	-3.198261	0.0003006	3.179788	11	0.1593446	0.0048784	-327.67
	26	47	252.4038	0.0310555	-0.0020843	1	0.0311254	-3.839614	0.0003123	3.179786	11	0.1589638	0.0049478	-327.67
	27	48	198.6229	0.0315811	-0.0023918	1	0.0316716	-4.330957	0.0003114	3.179787	11	0.1588821	0.005032	-327.67
	28	50	158.3615	0.0320814	-0.0026386	1	0.0321897	-4.701806	0.0003069	3.179782	11	0.1588881	0.0051146	-327.67
	29	51	125.558	0.0325918	-0.0028441	1	0.0327157	-4.987246	0.0002932	3.179786	11	0.1589123	0.0051989	-327.67
	30	53	100.4464	0.0330858	-0.0030106	1	0.0332225	-5.199161	0.0003042	3.179785	11	0.1589418	0.0052804	-327.67
	31	54	79.00281	0.03362	-0.0031578	1	0.033768	-5.365887	0.0003114	3.179794	11	0.1589559	0.0053676	-327.67
	32	56	63.3446	0.0341034	-0.0032777	1	0.0342606	-5.48986	0.0003004	3.179774	11	0.1589762	0.0054466	-327.67
	33	58	50.22321	0.0346198	-0.003388	1	0.0347852	-5.589309	0.0003104	3.179773	11	0.1589768	0.00553	-327.67
	34	60	38.42213	0.0352037	-0.0035162	1	0.0353788	-5.703925	0.0003081	3.17979	11	0.1589925	0.005625	-327.67
	35	61	31.25	0.0356529	-0.0036193	1	0.0358362	-5.796549	0.0003081	3.179798	11	0.1589975	0.0056979	-327.67
	36	63	24.93351	0.0361429	-0.0037303	1	0.0363349	-5.892678	0.0003087	3.179756	11	0.1589942	0.005777	-327.67
	37	64	19.86229	0.0366079	-0.0038992	1	0.036815	-6.07983	0.0002928	3.179852	11	0.1589906	0.0058532	-327.67
	38	65	15.625	0.0371884	-0.0041115	1	0.037415	-6.308983	0.0003024	3.179727	11	0.1589943	0.0059488	-327.67
	39	67	12.40079	0.0377316	-0.0043331	1	0.0379796	-6.551178	0.0003047	3.179708	11	0.1590009	0.0060388	-327.67
	40	68	9.93114	0.0382372	-0.0046386	1	0.0385175	-6.916896	0.0003097	3.17977	11	0.1590051	0.0061245	-327.67
	41	70	7.944915	0.0388163	-0.0049743	1	0.0391337	-7.302681	0.0003121	3.179815	11	0.1589751	0.0062213	-327.67
	42	72	6.317385	0.0395545	-0.0053484	1	0.0399145	-7.700632	0.0004031	3.179802	11	0.1590411	0.006348	-327.67
	43	74	5.008013	0.0403687	-0.005788	1	0.0407815	-8.159339	0.0002549	3.179849	11	0.1589466	0.0064821	-327.67
	44	76	3.945707	0.0412775	-0.006214	1	0.0417426	-8.561121	0.0002812	3.179862	11	0.1590196	0.0066379	-327.67
	45	79	3.158693	0.0422768	-0.0065894	1	0.0427872	-8.858984	0.0002065	3.179906	11	0.1589714	0.0068019	-327.67
	46	81	2.504006	0.0432392	-0.0067417	1	0.0437616	-8.862071	0.0003219	3.1799	11	0.1554679	0.0068035	-327.67
	47	85	1.998082	0.044377	-0.0070786	1	0.044938	-9.062936	0.0000971	3.179824	11	0.161445	0.007255	-327.67
	48	88	1.584686	0.0456462	-0.0073127	1	0.0462282	-9.101673	0.0002013	3.179837	11	0.1597982	0.0073872	-327.67
	49	92	1.266892	0.0468563	-0.0074453	1	0.0474441	-9.028671	0.0004849	3.179707	11	0.1593339	0.0075595	-327.67
	50	99	0.999041	0.0481098	-0.0074815	1	0.048688	-8.83918	0.0005127	3.179754	11	0.1591291	0.0077477	-327.67
	51	105	0.7923428	0.0493482	-0.0074377	1	0.0499055	-8.571054	0.0002777	3.179984	11	0.1591973	0.0079448	-327.67
	52	111	0.6334459	0.050407	-0.0074122	1	0.050949	-8.36517	0.00028	3.179939	11	0.158983	0.0081	-327.67
	53	119	0.5040323	0.0514432	-0.0073711	1	0.0519686	-8.154237	0.0002805	3.179931	11	0.1589817	0.0082621	-327.67
	54	131	0.400641	0.052433	-0.0073387	1	0.0529441	-7.967532	0.0002836	3.179955	11	0.1589867	0.0084174	-327.67
	55	142	0.316723	0.0533985	-0.007379	1	0.0539059	-7.867784	0.000283	3.179977	11	0.1589898	0.0085705	-327.67
	56	156	0.2520161	0.0542805	-0.007469	1	0.0547919	-7.83476	0.0002797	3.179996	11	0.1589942	0.0087116	-327.67
	57	178	0.2003205	0.0551517	-0.0076506	1	0.0556798	-7.897581	0.0002823	3.180037	11	0.1589959	0.0088529	-327.67
	58	204	0.1588983	0.0560257	-0.0079362	1	0.056585	-8.062469	0.0002807	3.180107	11	0.1589967	0.0089968	-327.67
	59	229	0.1260081	0.0569117	-0.0083252	1	0.0575174	-8.32235	0.0002756	3.18047	11	0.1589997	0.0091452	-327.67
	60	268	0.1001603	0.0578185	-0.0088182	1	0.0584871	-8.671662	0.0002816	3.18121	11	0.1589983	0.0092993	-327.67
	61	314	0.0794492	0.0587242	-0.0094572	1	0.0594808	-9.148602	0.0002836	3.182104	11	0.1589992	0.0094574	-327.67
	62	366	0.0631739	0.0595269	-0.0103055	1	0.0604124	-9.8219	0.0002842	3.182014	11	0.1589993	0.0096055	-327.67
	63	431	0.0501337	0.0604522	-0.0113326	1	0.0615052	-10.61763	0.0002809	3.182149	11	0.1590011	0.0097794	-327.67
	64	512	0.0398258	0.061432	-0.01259	1	0.0627089	-11.58196	0.0002841	3.182395	11	0.1589976	0.0099706	-327.67
	65	589	0.0316296	0.0624592	-0.0141422	1	0.0640402	-12.758	0.0002753	3.182703	11	0.1590023	0.0101825	-327.67
	66	717	0.0251206	0.063522	-0.0160399	1	0.0655158	-14.17148	0.0002825	3.183139	11	0.1590002	0.010417	-327.67
	67	838	0.0199553	0.0646933	-0.01838	1	0.0672536	-15.86038	0.0002808	3.183662	11	0.1589981	0.0106932	-327.67
	68	990	0.0158522	0.0660286	-0.0212424	1	0.0693614	-17.83375	0.0002819	3.18434	11	0.1590013	0.0110286	-327.67
	69	1181	0.0125907	0.0675803	-0.0246951	1	0.071951	-20.07323	0.000283	3.18519	11	0.1590004	0.0114402	-327.67
	70	1420	0.0100011	0.0693181	-0.0287946	1	0.0750608	-22.55792	0.0002827	3.186334	11	0.1589987	0.0119346	-327.67
