EXPLAIN
TAG	GALVEIS
TITLE	LABEL	Galvanostatic EIS	Test Identifier
DATE	LABEL	3.2.2024	Date
TIME	LABEL	2:48:38	Time
NOTES	NOTES	1	Notes...
	
PSTAT	PSTAT	REF600-12055	Potentiostat
FREQINIT	QUANT	1.00000E+005	Initial Freq. (Hz)
FREQFINAL	QUANT	1.00000E-002	Final Freq. (Hz)
PTSPERDEC	QUANT	1.00000E+001	Points/decade
IACREQ	QUANT	1.59000E-001	AC Current (A rms)
IDCREQ	QUANT	0.00000E+000	DC Current (A)
AREA	QUANT	1.00000E+000	Sample Area (cm^2)
SPEED	SELECTOR	1	Optimize for:
DRIFTCOR	SELECTOR	0	Drift Correction
THD	SELECTOR	0	THD
ZGUESS	QUANT	1.00000E-001	Estimated Z (ohms)
EOC	QUANT	4.007067	Open Circuit (V)
SEQUENCER	TOGGLE	TRUE	Run as Sequence
PSTATMODEL	IQUANT	4	Pstat Model
PSTATSECTION	LABEL	REF600-12055	Pstat Section
PSTATSERIALNO	LABEL	12055	Pstat Serial Number
CTRLMODE	IQUANT	0	Control Mode
ELECTROMETER	IQUANT	0	RE=0 or CS=1
IESTAB	IQUANT	0	I/E Stability
CASPEED	IQUANT	4	Control Amp Speed
CONVENTION	IQUANT	1	Current Convention
ICHRANGE	IQUANT	2	Ich Range
ICHRANGEMODE	TOGGLE	F	Ich Auto Range
ICHOFFSETENABLE	TOGGLE	T	Ich Offset Enable
ICHOFFSET	QUANT	0	Ich Offset (V)
ICHFILTER	IQUANT	3	Ich Filter
VCHRANGE	IQUANT	2	Vch Range
VCHRANGEMODE	TOGGLE	F	Vch Auto Range
VCHOFFSETENABLE	TOGGLE	T	Vch Offset Enable
VCHOFFSET	QUANT	0	Vch Offset (V)
VCHFILTER	IQUANT	3	Vch Filter
ACHRANGE	IQUANT	2	Ach Range
ACHOFFSETENABLE	TOGGLE	F	Ach Offset Enable
ACHOFFSET	QUANT	0	Ach Offset (V)
ACHFILTER	IQUANT	1	Ach Filter
IERANGELOWERLIMIT	IQUANT	1	I/E Range Lower Limit
IERANGEMODE	TOGGLE	F	I/E AutoRange
IERANGE	IQUANT	7	I/E Range
POSFEEDENABLE	TOGGLE	F	Positive Feedback IR Comp
POSFEEDRESISTANCE	QUANT	0	Positive Feedback Resistance (ohm)
ACHSELECT	IQUANT	4	Ach Select
SENSECABLEID	IQUANT	14	Sense Cable ID
PWRCABLEID	IQUANT	14	Power Cable ID
DCCALDATE	LABEL		DC Calibration Date
ACCALDATE	LABEL		AC Calibration Date
THERMOSELECT	IQUANT	1	Thermo Select
FRAMEWORKVERSION	LABEL	7.10.3	Framework Version
INSTRUMENTVERSION	LABEL	4.91	Instrument Version
COMMVERSION	LABEL	2.24	Communications Version
CPUPLDVERSION	LABEL	0.00	CPU PLD Version
CTRLPLDVERSION	LABEL	0.00	CTRL PLD Version
PSTATPLDVERSION	LABEL	0.00	PSTAT PLD Version
ZCURVE	TABLE
	Pt	Time	Freq	Zreal	Zimag	Zsig	Zmod	Zphz	Idc	Vdc	IERange	Imod	Vmod	Temp
	#	s	Hz	ohm	ohm	V	ohm	°	A	V	#	A	V	°C
	0	5	100078.1	0.1066155	0.2369142	1	0.2597984	65.77144	0.0003553	4.006476	11	0.1596709	0.0412052	-327.67
	1	7	79453.13	0.0881228	0.197547	1	0.2163109	65.95906	0.0003525	4.006474	11	0.16427	0.0353706	-327.67
	2	9	63140.62	0.0738241	0.1640043	1	0.1798538	65.76579	0.0003447	4.006477	11	0.1619719	0.0290419	-327.67
	3	10	50203.12	0.0628975	0.1356233	1	0.1494984	65.11973	0.0003334	4.006462	11	0.1609353	0.0240111	-327.67
	4	12	39890.62	0.0545844	0.1117238	1	0.1243449	63.96144	0.0003331	4.006457	11	0.1602858	0.0199047	-327.67
	5	14	31640.63	0.048271	0.0917365	1	0.1036613	62.24702	0.0003293	4.006462	11	0.159844	0.0165558	-327.67
	6	16	25171.88	0.0434967	0.0755108	1	0.0871427	60.05664	0.0003229	4.006452	11	0.1595449	0.0138958	-327.67
	7	17	20015.62	0.0397446	0.0621621	1	0.0737819	57.40635	0.0003269	4.006409	11	0.1593576	0.0117537	-327.67
	8	19	15890.62	0.0366345	0.0511357	1	0.0629043	54.38155	0.000326	4.006405	11	0.1592298	0.0100141	-327.67
	9	21	12609.38	0.0340531	0.0419721	1	0.0540488	50.94668	0.0003253	4.006398	11	0.1591399	0.0086002	-327.67
	10	22	10078.13	0.0319662	0.0345285	1	0.0470538	47.20668	0.0003223	4.006395	11	0.1590831	0.0074848	-327.67
	11	24	8015.625	0.0302736	0.0280828	1	0.0412933	42.85003	0.0003248	4.006386	11	0.1590551	0.0065675	-327.67
	12	26	6328.125	0.0289649	0.0224625	1	0.0366542	37.79382	0.0003203	4.006381	11	0.1590351	0.0058291	-327.67
	13	27	5015.625	0.0280731	0.0178376	1	0.0332608	32.43175	0.0003193	4.006378	11	0.1590118	0.0052887	-327.67
	14	29	3984.375	0.0274905	0.0140177	1	0.0308581	27.01758	0.0003179	4.006364	11	0.159015	0.0049068	-327.67
	15	30	3170.956	0.0271685	0.0108855	1	0.0292681	21.8344	0.0003069	4.006355	11	0.1590011	0.0046536	-327.67
	16	32	2527.573	0.0270485	0.0082924	1	0.0282911	17.04415	0.0003192	4.006348	11	0.159004	0.0044984	-327.67
	17	34	1976.103	0.0270744	0.0060378	1	0.0277395	12.57169	0.0003192	4.006348	11	0.1589994	0.0044106	-327.67
	18	36	1577.524	0.0272026	0.004344	1	0.0275473	9.072978	0.0003195	4.00634	11	0.1590045	0.0043801	-327.67
	19	37	1265.625	0.027389	0.0030505	1	0.0275584	6.355174	0.0003224	4.006335	11	0.1589987	0.0043817	-327.67
	20	39	998.264	0.0276696	0.0019407	1	0.0277376	4.012102	0.0003185	4.006332	11	0.1590043	0.0044104	-327.67
	21	40	796.875	0.027983	0.0009813	1	0.0280002	2.008351	0.0003252	4.006331	11	0.1589899	0.0044517	-327.67
	22	42	627.7902	0.0283315	0.0003178	1	0.0283333	0.6427406	0.0003181	4.00632	11	0.1590159	0.0045054	-327.67
	23	44	505.5147	0.0285168	-5.981553E-006	1	0.0285168	-0.0120181	0.0003121	4.00623	11	0.157592	0.004494	-327.67
	24	45	397.9953	0.028954	-0.0005243	1	0.0289588	-1.037415	0.0003109	4.006226	11	0.1606002	0.0046508	-327.67
	25	47	315.5048	0.0293662	-0.0008903	1	0.0293797	-1.736457	0.0003136	4.006222	11	0.1593381	0.0046813	-327.67
	26	48	252.4038	0.0297553	-0.0011383	1	0.0297771	-2.190887	0.0003121	4.006219	11	0.1589719	0.0047337	-327.67
	27	50	198.6229	0.0301458	-0.0013182	1	0.0301746	-2.50374	0.000302	4.006208	11	0.1588751	0.004794	-327.67
	28	51	158.3615	0.030505	-0.0014269	1	0.0305384	-2.67805	0.0003043	4.006206	11	0.1588924	0.0048523	-327.67
	29	53	125.558	0.0308523	-0.0014769	1	0.0308876	-2.740736	0.0003008	4.006199	11	0.1589118	0.0049084	-327.67
	30	54	100.4464	0.0311678	-0.0014878	1	0.0312032	-2.732997	0.0002976	4.006207	11	0.1589423	0.0049595	-327.67
	31	56	79.00281	0.0314873	-0.0014577	1	0.0315211	-2.650565	0.0003005	4.006191	11	0.1589565	0.0050105	-327.67
	32	57	63.3446	0.0317439	-0.0013967	1	0.0317746	-2.519408	0.0003124	4.006201	11	0.1589717	0.0050513	-327.67
	33	59	50.22321	0.0319966	-0.0013095	1	0.0320234	-2.343647	0.000316	4.006187	11	0.1589871	0.0050913	-327.67
	34	61	38.42213	0.0322433	-0.00119	1	0.0322652	-2.113642	0.0003128	4.006187	11	0.158988	0.0051298	-327.67
	35	62	31.25	0.0324034	-0.00109	1	0.0324217	-1.92667	0.0002958	4.006182	11	0.1589905	0.0051547	-327.67
	36	64	24.93351	0.0325571	-0.0009877	1	0.032572	-1.737733	0.000313	4.006182	11	0.1589957	0.0051788	-327.67
	37	65	19.86229	0.0326826	-0.0008782	1	0.0326944	-1.539139	0.0002981	4.006177	11	0.1589969	0.0051983	-327.67
	38	67	15.625	0.0327807	-0.000785	1	0.0327901	-1.371824	0.0003188	4.006166	11	0.1589851	0.0052131	-327.67
	39	68	12.40079	0.0328594	-0.0007073	1	0.032867	-1.233049	0.0003016	4.006182	11	0.159006	0.0052261	-327.67
	40	70	9.93114	0.0329301	-0.0006477	1	0.0329365	-1.12683	0.0002813	4.006158	11	0.1589974	0.0052368	-327.67
	41	72	7.944915	0.0329907	-0.0006034	1	0.0329962	-1.04789	0.0002686	4.006166	11	0.1590022	0.0052465	-327.67
	42	74	6.317385	0.0330431	-0.0005739	1	0.033048	-0.995105	0.0002126	4.006159	11	0.1590201	0.0052553	-327.67
	43	76	5.008013	0.0330914	-0.0005533	1	0.033096	-0.957933	0.000345	4.006136	11	0.1589635	0.0052611	-327.67
	44	78	3.945707	0.0331473	-0.0005506	1	0.0331518	-0.951676	0.00028	4.006134	11	0.1590109	0.0052715	-327.67
	45	81	3.158693	0.0331944	-0.0005636	1	0.0331991	-0.97267	0.0002905	4.006121	11	0.1590261	0.0052795	-327.67
	46	83	2.504006	0.0331171	-0.0004907	1	0.0331208	-0.848919	0.0003579	4.006082	11	0.1553837	0.0051464	-327.67
	47	87	1.998082	0.0332055	-0.0005787	1	0.0332105	-0.998441	4.994741E-005	4.006048	11	0.1615246	0.0053643	-327.67
	48	91	1.584686	0.0333065	-0.0006537	1	0.0333129	-1.124308	0.0001649	4.006054	11	0.1597478	0.0053217	-327.67
	49	97	1.266892	0.0333939	-0.0007253	1	0.0334018	-1.244258	0.0004662	4.006011	11	0.1593248	0.0053217	-327.67
	50	102	0.999041	0.0334838	-0.0008172	1	0.0334937	-1.398033	0.0004862	4.006011	11	0.1590947	0.0053287	-327.67
	51	107	0.7923428	0.0336198	-0.0009093	1	0.0336321	-1.549316	0.0002804	4.006071	11	0.1592458	0.0053558	-327.67
	52	114	0.6334459	0.0337118	-0.0010255	1	0.0337274	-1.74244	0.0002826	4.006034	11	0.158983	0.0053621	-327.67
	53	122	0.5040323	0.0338327	-0.0011576	1	0.0338525	-1.959597	0.0002843	4.006009	11	0.1589825	0.005382	-327.67
	54	133	0.400641	0.0339832	-0.0013063	1	0.0340083	-2.201368	0.0002832	4.00597	11	0.1589863	0.0054069	-327.67
	55	147	0.316723	0.0341578	-0.0014778	1	0.0341897	-2.477321	0.0002836	4.005934	11	0.1589905	0.0054358	-327.67
	56	161	0.2520161	0.0343492	-0.0016567	1	0.0343892	-2.761324	0.0002813	4.005901	11	0.1589933	0.0054676	-327.67
	57	179	0.2003205	0.0345775	-0.0018455	1	0.0346267	-3.055128	0.000282	4.005862	11	0.1589963	0.0055055	-327.67
	58	200	0.1588983	0.0348238	-0.0020451	1	0.0348838	-3.360896	0.0002851	4.005797	11	0.1589972	0.0055464	-327.67
	59	232	0.1260081	0.0351203	-0.0022589	1	0.0351929	-3.680084	0.0002773	4.005784	11	0.1590003	0.0055957	-327.67
	60	270	0.1001603	0.0354595	-0.0024795	1	0.0355461	-3.999828	0.0002826	4.005867	11	0.158996	0.0056517	-327.67
	61	306	0.0794492	0.0358027	-0.002734	1	0.0359069	-4.366828	0.0002813	4.005913	11	0.1590016	0.0057093	-327.67
	62	358	0.0631739	0.0360596	-0.0030196	1	0.0361858	-4.786776	0.0002828	4.005672	11	0.1590007	0.0057536	-327.67
	63	423	0.0501337	0.0363893	-0.0033466	1	0.0365428	-5.254446	0.0002834	4.005502	11	0.1589983	0.0058103	-327.67
	64	505	0.0398258	0.0367601	-0.0037234	1	0.0369482	-5.783762	0.0002825	4.005354	11	0.1590003	0.0058748	-327.67
	65	607	0.0316296	0.0371628	-0.0041935	1	0.0373986	-6.438129	0.0002871	4.005225	11	0.1589991	0.0059463	-327.67
	66	703	0.0251206	0.0375996	-0.0047283	1	0.0378957	-7.167569	0.0002831	4.005093	11	0.1590003	0.0060254	-327.67
	67	824	0.0199553	0.0381116	-0.0053631	1	0.0384871	-8.010101	0.0002833	4.004959	11	0.1590004	0.0061195	-327.67
	68	976	0.0158522	0.038686	-0.0061303	1	0.0391687	-9.004437	0.0002836	4.004809	11	0.1589992	0.0062278	-327.67
	69	1167	0.0125907	0.0393625	-0.0070236	1	0.0399842	-10.1171	0.0002821	4.004648	11	0.1590006	0.0063575	-327.67
	70	1407	0.0100011	0.0401847	-0.0080592	1	0.0409848	-11.34039	0.0002833	4.004453	11	0.1589992	0.0065166	-327.67
