EXPLAIN
TAG	GALVEIS
TITLE	LABEL	Galvanostatic EIS	Test Identifier
DATE	LABEL	2.2.2024	Date
TIME	LABEL	21:14:38	Time
NOTES	NOTES	1	Notes...
	
PSTAT	PSTAT	REF600-12055	Potentiostat
FREQINIT	QUANT	1.00000E+005	Initial Freq. (Hz)
FREQFINAL	QUANT	1.00000E-002	Final Freq. (Hz)
PTSPERDEC	QUANT	1.00000E+001	Points/decade
IACREQ	QUANT	1.59000E-001	AC Current (A rms)
IDCREQ	QUANT	0.00000E+000	DC Current (A)
AREA	QUANT	1.00000E+000	Sample Area (cm^2)
SPEED	SELECTOR	1	Optimize for:
DRIFTCOR	SELECTOR	0	Drift Correction
THD	SELECTOR	0	THD
ZGUESS	QUANT	1.00000E-001	Estimated Z (ohms)
EOC	QUANT	3.635746	Open Circuit (V)
SEQUENCER	TOGGLE	TRUE	Run as Sequence
PSTATMODEL	IQUANT	4	Pstat Model
PSTATSECTION	LABEL	REF600-12055	Pstat Section
PSTATSERIALNO	LABEL	12055	Pstat Serial Number
CTRLMODE	IQUANT	0	Control Mode
ELECTROMETER	IQUANT	0	RE=0 or CS=1
IESTAB	IQUANT	0	I/E Stability
CASPEED	IQUANT	4	Control Amp Speed
CONVENTION	IQUANT	1	Current Convention
ICHRANGE	IQUANT	2	Ich Range
ICHRANGEMODE	TOGGLE	F	Ich Auto Range
ICHOFFSETENABLE	TOGGLE	T	Ich Offset Enable
ICHOFFSET	QUANT	0	Ich Offset (V)
ICHFILTER	IQUANT	3	Ich Filter
VCHRANGE	IQUANT	2	Vch Range
VCHRANGEMODE	TOGGLE	F	Vch Auto Range
VCHOFFSETENABLE	TOGGLE	T	Vch Offset Enable
VCHOFFSET	QUANT	0	Vch Offset (V)
VCHFILTER	IQUANT	3	Vch Filter
ACHRANGE	IQUANT	2	Ach Range
ACHOFFSETENABLE	TOGGLE	F	Ach Offset Enable
ACHOFFSET	QUANT	0	Ach Offset (V)
ACHFILTER	IQUANT	1	Ach Filter
IERANGELOWERLIMIT	IQUANT	1	I/E Range Lower Limit
IERANGEMODE	TOGGLE	F	I/E AutoRange
IERANGE	IQUANT	7	I/E Range
POSFEEDENABLE	TOGGLE	F	Positive Feedback IR Comp
POSFEEDRESISTANCE	QUANT	0	Positive Feedback Resistance (ohm)
ACHSELECT	IQUANT	4	Ach Select
SENSECABLEID	IQUANT	14	Sense Cable ID
PWRCABLEID	IQUANT	14	Power Cable ID
DCCALDATE	LABEL		DC Calibration Date
ACCALDATE	LABEL		AC Calibration Date
THERMOSELECT	IQUANT	1	Thermo Select
FRAMEWORKVERSION	LABEL	7.10.3	Framework Version
INSTRUMENTVERSION	LABEL	4.91	Instrument Version
COMMVERSION	LABEL	2.24	Communications Version
CPUPLDVERSION	LABEL	0.00	CPU PLD Version
CTRLPLDVERSION	LABEL	0.00	CTRL PLD Version
PSTATPLDVERSION	LABEL	0.00	PSTAT PLD Version
ZCURVE	TABLE
	Pt	Time	Freq	Zreal	Zimag	Zsig	Zmod	Zphz	Idc	Vdc	IERange	Imod	Vmod	Temp
	#	s	Hz	ohm	ohm	V	ohm	°	A	V	#	A	V	°C
	0	5	100078.1	0.1064083	0.2376826	1	0.2604145	65.88239	0.0003568	3.63505	11	0.1596764	0.0413043	-327.67
	1	7	79453.13	0.087983	0.1980967	1	0.2167563	66.05199	0.000353	3.635061	11	0.1642604	0.0354414	-327.67
	2	9	63140.62	0.0737311	0.1643955	1	0.1801726	65.84383	0.0003428	3.635045	11	0.1619787	0.0290946	-327.67
	3	11	50203.12	0.0628395	0.13591	1	0.1497342	65.18601	0.0003355	3.635054	11	0.160931	0.0240483	-327.67
	4	12	39890.62	0.0545673	0.1119487	1	0.1245396	64.01397	0.0003301	3.635038	11	0.16028	0.0199352	-327.67
	5	14	31640.63	0.0482815	0.0919065	1	0.1038167	62.28559	0.0003241	3.635032	11	0.1598447	0.0165807	-327.67
	6	16	25171.88	0.0435192	0.0756387	1	0.0872647	60.08574	0.0003204	3.63503	11	0.1595468	0.0139154	-327.67
	7	17	20015.62	0.039779	0.062272	1	0.0738929	57.42978	0.0003265	3.634992	11	0.1593588	0.0117715	-327.67
	8	19	15890.62	0.036679	0.051216	1	0.0629955	54.39116	0.0003208	3.635042	11	0.1592256	0.0100283	-327.67
	9	21	12609.38	0.0340894	0.042043	1	0.0541267	50.96412	0.00032	3.634992	11	0.159142	0.0086127	-327.67
	10	22	10078.13	0.0320159	0.0345897	1	0.0471324	47.2129	0.0003217	3.635031	11	0.1590864	0.0074975	-327.67
	11	24	8015.625	0.0303209	0.0281293	1	0.0413596	42.8527	0.0003232	3.634981	11	0.1590583	0.0065782	-327.67
	12	26	6328.125	0.0290022	0.0225094	1	0.0367124	37.81594	0.0003161	3.635022	11	0.159034	0.0058383	-327.67
	13	27	5015.625	0.0281118	0.0178816	1	0.033317	32.45999	0.0003225	3.634983	11	0.1590095	0.0052976	-327.67
	14	29	3984.375	0.0275277	0.0140765	1	0.030918	27.0833	0.000319	3.635014	11	0.1590111	0.0049162	-327.67
	15	30	3170.956	0.027199	0.0109398	1	0.0293166	21.91068	0.0003221	3.634967	11	0.1590038	0.0046614	-327.67
	16	32	2527.573	0.0270681	0.0083773	1	0.0283348	17.1967	0.0003184	3.635009	11	0.1590092	0.0045055	-327.67
	17	34	1976.103	0.0270905	0.0060508	1	0.027758	12.59073	0.0003228	3.634967	11	0.158996	0.0044134	-327.67
	18	36	1577.524	0.0272035	0.0044102	1	0.0275586	9.208666	0.0003178	3.634998	11	0.1590039	0.0043819	-327.67
	19	37	1265.625	0.0274148	0.0030599	1	0.027585	6.368807	0.0003193	3.634994	11	0.159	0.004386	-327.67
	20	39	998.264	0.0276818	0.0019441	1	0.02775	4.017294	0.0003164	3.635002	11	0.1590074	0.0044125	-327.67
	21	40	796.875	0.0279878	0.0010586	1	0.0280078	2.166141	0.000321	3.634957	11	0.1589994	0.0044532	-327.67
	22	42	627.7902	0.0283266	0.0002094	1	0.0283273	0.4235891	0.0003218	3.634998	11	0.1589881	0.0045037	-327.67
	23	43	505.5147	0.0285113	-5.287939E-005	1	0.0285114	-0.1062653	0.0003116	3.634901	11	0.1576039	0.0044935	-327.67
	24	45	397.9953	0.028964	-0.0005946	1	0.0289701	-1.176041	0.0003128	3.634905	11	0.1606036	0.0046527	-327.67
	25	47	315.5048	0.0293953	-0.0009772	1	0.0294115	-1.903937	0.0003097	3.634902	11	0.1593364	0.0046863	-327.67
	26	48	252.4038	0.0298032	-0.0012402	1	0.029829	-2.382857	0.0003099	3.634898	11	0.1589674	0.0047418	-327.67
	27	50	198.6229	0.0302165	-0.001432	1	0.0302504	-2.713327	0.0003106	3.634892	11	0.1588788	0.0048061	-327.67
	28	51	158.3615	0.0306009	-0.0015434	1	0.0306398	-2.887365	0.0003022	3.63489	11	0.1588889	0.0048683	-327.67
	29	53	125.558	0.0309723	-0.0015957	1	0.0310134	-2.949329	0.0003124	3.634889	11	0.1589155	0.0049285	-327.67
	30	54	100.4464	0.0313146	-0.001597	1	0.0313553	-2.919515	0.0003053	3.634881	11	0.1589399	0.0049836	-327.67
	31	56	79.00281	0.0316495	-0.0015639	1	0.0316881	-2.828938	0.0002999	3.634875	11	0.1589551	0.005037	-327.67
	32	57	63.3446	0.0319356	-0.0014913	1	0.0319704	-2.673532	0.0002959	3.634872	11	0.1589746	0.0050825	-327.67
	33	59	50.22321	0.0322022	-0.0013983	1	0.0322325	-2.486445	0.0003045	3.634868	11	0.1589829	0.0051244	-327.67
	34	61	38.42213	0.0324651	-0.0012643	1	0.0324897	-2.230173	0.0003026	3.634865	11	0.1589902	0.0051655	-327.67
	35	62	31.25	0.0326353	-0.0011441	1	0.0326553	-2.00788	0.000321	3.634868	11	0.1589897	0.0051919	-327.67
	36	64	24.93351	0.032798	-0.001032	1	0.0328142	-1.802264	0.0003119	3.634866	11	0.1590003	0.0052175	-327.67
	37	65	19.86229	0.0329243	-0.0009246	1	0.0329372	-1.608591	0.00028	3.634862	11	0.1589738	0.0052362	-327.67
	38	67	15.625	0.0330211	-0.0007971	1	0.0330307	-1.382751	0.0003161	3.63485	11	0.1590016	0.0052519	-327.67
	39	68	12.40079	0.0331073	-0.0007118	1	0.033115	-1.231593	0.0003213	3.634855	11	0.1589985	0.0052652	-327.67
	40	70	9.93114	0.0331808	-0.0006411	1	0.033187	-1.106914	0.000299	3.634861	11	0.1590144	0.0052772	-327.67
	41	71	7.944915	0.0332372	-0.0005934	1	0.0332425	-1.022839	0.0003188	3.634844	11	0.1589875	0.0052851	-327.67
	42	73	6.317385	0.0332826	-0.0005558	1	0.0332872	-0.956709	0.0002219	3.634845	11	0.1590319	0.0052937	-327.67
	43	75	5.008013	0.0333284	-0.0005248	1	0.0333325	-0.9022037	0.0003136	3.634856	11	0.1589891	0.0052995	-327.67
	44	78	3.945707	0.0333733	-0.0005222	1	0.0333773	-0.8965195	0.0003443	3.63484	11	0.1589666	0.0053059	-327.67
	45	81	3.158693	0.0334242	-0.0005097	1	0.033428	-0.8736006	0.0004069	3.634817	11	0.158981	0.0053144	-327.67
	46	83	2.504006	0.0333414	-0.0004378	1	0.0333443	-0.7522902	0.0003235	3.634775	11	0.1554717	0.0051841	-327.67
	47	87	1.998082	0.0334263	-0.0005175	1	0.0334303	-0.8869849	0.0004535	3.634775	11	0.1613617	0.0053944	-327.67
	48	91	1.584686	0.0335049	-0.0005849	1	0.03351	-1.000111	0.0002395	3.634757	11	0.15985	0.0053566	-327.67
	49	97	1.266892	0.0335907	-0.0006473	1	0.033597	-1.103997	0.0003425	3.634796	11	0.1592966	0.0053519	-327.67
	50	104	0.999041	0.0336686	-0.0007242	1	0.0336764	-1.232139	0.000301	3.634784	11	0.1590891	0.0053575	-327.67
	51	110	0.7923428	0.0337724	-0.0008121	1	0.0337822	-1.377564	0.0002831	3.634774	11	0.1593133	0.005382	-327.67
	52	118	0.6334459	0.0338627	-0.0009097	1	0.0338749	-1.538916	0.0002841	3.634757	11	0.1589835	0.0053856	-327.67
	53	127	0.5040323	0.0339673	-0.0010284	1	0.0339829	-1.734183	0.0002841	3.634741	11	0.1589824	0.0054027	-327.67
	54	137	0.400641	0.0340845	-0.0011705	1	0.0341045	-1.966915	0.0002843	3.634717	11	0.1589858	0.0054221	-327.67
	55	151	0.316723	0.0342331	-0.001331	1	0.034259	-2.226495	0.0002835	3.634696	11	0.1589905	0.0054469	-327.67
	56	168	0.2520161	0.0343876	-0.0015111	1	0.0344208	-2.516209	0.0002825	3.634659	11	0.1589932	0.0054727	-327.67
	57	189	0.2003205	0.0345771	-0.0017153	1	0.0346196	-2.840033	0.0002806	3.63463	11	0.1589958	0.0055044	-327.67
	58	216	0.1588983	0.0347913	-0.0019343	1	0.034845	-3.182198	0.0002844	3.634589	11	0.1589981	0.0055403	-327.67
	59	247	0.1260081	0.0350605	-0.0021823	1	0.0351283	-3.561681	0.0002838	3.634617	11	0.1589989	0.0055854	-327.67
	60	277	0.1001603	0.0353689	-0.0024493	1	0.0354536	-3.961424	0.00028	3.634722	11	0.1589993	0.0056371	-327.67
	61	324	0.0794492	0.0357208	-0.0027467	1	0.0358262	-4.397019	0.0002793	3.634835	11	0.1589993	0.0056963	-327.67
	62	363	0.0631739	0.0359712	-0.003081	1	0.0361029	-4.895566	0.0002814	3.63463	11	0.1590001	0.0057404	-327.67
	63	428	0.0501337	0.0363185	-0.0034727	1	0.0364842	-5.461961	0.000282	3.634503	11	0.1589988	0.0058009	-327.67
	64	509	0.0398258	0.0367084	-0.0039044	1	0.0369154	-6.071306	0.000278	3.63438	11	0.1590015	0.0058696	-327.67
	65	611	0.0316296	0.0371268	-0.0044146	1	0.0373884	-6.781023	0.0002829	3.634303	11	0.1589972	0.0059446	-327.67
	66	708	0.0251206	0.037595	-0.005017	1	0.0379283	-7.601171	0.000282	3.634199	11	0.1590011	0.0060306	-327.67
	67	869	0.0199553	0.0381281	-0.0057364	1	0.0385572	-8.555965	0.0002827	3.634103	11	0.1590003	0.0061306	-327.67
	68	1020	0.0158522	0.0387914	-0.0065676	1	0.0393434	-9.60935	0.0002822	3.634008	11	0.1589999	0.0062556	-327.67
	69	1211	0.0125907	0.0395439	-0.0075517	1	0.0402585	-10.81157	0.0002827	3.633919	11	0.1590003	0.0064011	-327.67
	70	1451	0.0100011	0.0404659	-0.008647	1	0.0413794	-12.06195	0.0002796	3.633828	11	0.1590006	0.0065794	-327.67
