EXPLAIN
TAG	GALVEIS
TITLE	LABEL	Galvanostatic EIS	Test Identifier
DATE	LABEL	2.2.2024	Date
TIME	LABEL	17:10:46	Time
NOTES	NOTES	1	Notes...
	
PSTAT	PSTAT	REF600-12055	Potentiostat
FREQINIT	QUANT	1.00000E+005	Initial Freq. (Hz)
FREQFINAL	QUANT	1.00000E-002	Final Freq. (Hz)
PTSPERDEC	QUANT	1.00000E+001	Points/decade
IACREQ	QUANT	1.59000E-001	AC Current (A rms)
IDCREQ	QUANT	0.00000E+000	DC Current (A)
AREA	QUANT	1.00000E+000	Sample Area (cm^2)
SPEED	SELECTOR	1	Optimize for:
DRIFTCOR	SELECTOR	0	Drift Correction
THD	SELECTOR	0	THD
ZGUESS	QUANT	1.00000E-001	Estimated Z (ohms)
EOC	QUANT	3.399755	Open Circuit (V)
SEQUENCER	TOGGLE	TRUE	Run as Sequence
PSTATMODEL	IQUANT	4	Pstat Model
PSTATSECTION	LABEL	REF600-12055	Pstat Section
PSTATSERIALNO	LABEL	12055	Pstat Serial Number
CTRLMODE	IQUANT	0	Control Mode
ELECTROMETER	IQUANT	0	RE=0 or CS=1
IESTAB	IQUANT	0	I/E Stability
CASPEED	IQUANT	4	Control Amp Speed
CONVENTION	IQUANT	1	Current Convention
ICHRANGE	IQUANT	2	Ich Range
ICHRANGEMODE	TOGGLE	F	Ich Auto Range
ICHOFFSETENABLE	TOGGLE	T	Ich Offset Enable
ICHOFFSET	QUANT	0	Ich Offset (V)
ICHFILTER	IQUANT	3	Ich Filter
VCHRANGE	IQUANT	2	Vch Range
VCHRANGEMODE	TOGGLE	F	Vch Auto Range
VCHOFFSETENABLE	TOGGLE	T	Vch Offset Enable
VCHOFFSET	QUANT	0	Vch Offset (V)
VCHFILTER	IQUANT	3	Vch Filter
ACHRANGE	IQUANT	2	Ach Range
ACHOFFSETENABLE	TOGGLE	F	Ach Offset Enable
ACHOFFSET	QUANT	0	Ach Offset (V)
ACHFILTER	IQUANT	1	Ach Filter
IERANGELOWERLIMIT	IQUANT	1	I/E Range Lower Limit
IERANGEMODE	TOGGLE	F	I/E AutoRange
IERANGE	IQUANT	7	I/E Range
POSFEEDENABLE	TOGGLE	F	Positive Feedback IR Comp
POSFEEDRESISTANCE	QUANT	0	Positive Feedback Resistance (ohm)
ACHSELECT	IQUANT	4	Ach Select
SENSECABLEID	IQUANT	14	Sense Cable ID
PWRCABLEID	IQUANT	14	Power Cable ID
DCCALDATE	LABEL		DC Calibration Date
ACCALDATE	LABEL		AC Calibration Date
THERMOSELECT	IQUANT	1	Thermo Select
FRAMEWORKVERSION	LABEL	7.10.3	Framework Version
INSTRUMENTVERSION	LABEL	4.91	Instrument Version
COMMVERSION	LABEL	2.24	Communications Version
CPUPLDVERSION	LABEL	0.00	CPU PLD Version
CTRLPLDVERSION	LABEL	0.00	CTRL PLD Version
PSTATPLDVERSION	LABEL	0.00	PSTAT PLD Version
ZCURVE	TABLE
	Pt	Time	Freq	Zreal	Zimag	Zsig	Zmod	Zphz	Idc	Vdc	IERange	Imod	Vmod	Temp
	#	s	Hz	ohm	ohm	V	ohm	°	A	V	#	A	V	°C
	0	5	100078.1	0.1051396	0.2385626	1	0.2607037	66.21589	0.000373	3.399055	11	0.1596713	0.0413489	-327.67
	1	6	79453.13	0.087197	0.1985798	1	0.2168807	66.29358	0.0003566	3.399041	11	0.1642476	0.0354589	-327.67
	2	8	63140.62	0.0732949	0.1646461	1	0.1802235	66.00298	0.0003447	3.399027	11	0.1619481	0.0290974	-327.67
	3	10	50203.12	0.0626615	0.1360168	1	0.1497566	65.26496	0.0003398	3.399027	11	0.160935	0.0240525	-327.67
	4	11	39890.62	0.0545786	0.1119636	1	0.1245579	64.01228	0.0003337	3.399016	11	0.1602744	0.0199374	-327.67
	5	13	31640.63	0.0484117	0.0918898	1	0.1038625	62.21769	0.0003293	3.399003	11	0.1598393	0.0165875	-327.67
	6	15	25171.88	0.0437504	0.0755888	1	0.0873371	59.93793	0.0003278	3.399007	11	0.1595475	0.013927	-327.67
	7	17	20015.62	0.0400692	0.0622028	1	0.0739914	57.21154	0.0003191	3.398944	11	0.1593574	0.0117871	-327.67
	8	18	15890.62	0.0370111	0.0511412	1	0.0631288	54.10664	0.000327	3.398949	11	0.1592297	0.0100498	-327.67
	9	20	12609.38	0.0344651	0.0419655	1	0.0543042	50.60467	0.000328	3.398932	11	0.1591405	0.0086408	-327.67
	10	22	10078.13	0.0324078	0.0345067	1	0.047339	46.7966	0.000323	3.398932	11	0.159084	0.0075302	-327.67
	11	23	8015.625	0.0307313	0.0280503	1	0.0416081	42.38867	0.0003188	3.398933	11	0.1590558	0.0066176	-327.67
	12	25	6328.125	0.0294389	0.0224142	1	0.0370006	37.28492	0.000323	3.398921	11	0.1590363	0.0058842	-327.67
	13	27	5015.625	0.0285502	0.0178032	1	0.0336462	31.94664	0.0003239	3.398906	11	0.1590138	0.0053501	-327.67
	14	28	3984.375	0.027983	0.0139612	1	0.0312724	26.5154	0.0003238	3.398899	11	0.1590081	0.0049725	-327.67
	15	30	3170.956	0.0276605	0.0108473	1	0.0297114	21.41301	0.0003212	3.398885	11	0.1590089	0.0047243	-327.67
	16	31	2527.573	0.027545	0.0082496	1	0.0287538	16.67281	0.0003236	3.398887	11	0.1589993	0.0045718	-327.67
	17	33	1976.103	0.0275604	0.0059597	1	0.0281974	12.20175	0.0003237	3.398875	11	0.1589989	0.0044833	-327.67
	18	35	1577.524	0.0277024	0.0042654	1	0.0280288	8.753143	0.0003231	3.39886	11	0.1590091	0.0044568	-327.67
	19	37	1265.625	0.0279049	0.0028958	1	0.0280547	5.924705	0.0003246	3.398861	11	0.1589945	0.0044605	-327.67
	20	38	998.264	0.0281826	0.0017091	1	0.0282343	3.470329	0.0003199	3.398845	11	0.1589982	0.0044892	-327.67
	21	40	796.875	0.0284993	0.0007821	1	0.02851	1.571899	0.0003221	3.398851	11	0.1590003	0.0045331	-327.67
	22	41	627.7902	0.0288603	2.355306E-005	1	0.0288603	0.0467594	0.0003136	3.398839	11	0.1589995	0.0045888	-327.67
	23	43	505.5147	0.0290645	-0.0003201	1	0.0290662	-0.6310244	0.0003016	3.398742	11	0.1575996	0.0045808	-327.67
	24	44	397.9953	0.0295408	-0.0009197	1	0.0295551	-1.78321	0.0003015	3.398737	11	0.1606055	0.0047467	-327.67
	25	46	315.5048	0.0300041	-0.0013642	1	0.0300351	-2.603212	0.0003135	3.398729	11	0.1593396	0.0047858	-327.67
	26	47	252.4038	0.0304494	-0.0016951	1	0.0304966	-3.186242	0.0003113	3.398721	11	0.1589654	0.0048479	-327.67
	27	49	198.6229	0.0309129	-0.0019744	1	0.0309759	-3.654472	0.0003139	3.398713	11	0.1588819	0.0049215	-327.67
	28	50	158.3615	0.0313478	-0.0021803	1	0.0314235	-3.978647	0.000315	3.398709	11	0.1588879	0.0049928	-327.67
	29	52	125.558	0.0317999	-0.0023432	1	0.0318861	-4.214184	0.000319	3.398703	11	0.1589079	0.005067	-327.67
	30	53	100.4464	0.0322253	-0.0024636	1	0.0323193	-4.371748	0.0003069	3.398693	11	0.1589493	0.0051371	-327.67
	31	55	79.00281	0.0326802	-0.0025687	1	0.032781	-4.494195	0.0003114	3.398683	11	0.1589511	0.0052106	-327.67
	32	57	63.3446	0.033095	-0.002646	1	0.0332006	-4.571131	0.0003068	3.398675	11	0.1589791	0.0052782	-327.67
	33	59	50.22321	0.0335313	-0.0027121	1	0.0336408	-4.624149	0.0003167	3.398673	11	0.1589786	0.0053482	-327.67
	34	60	38.42213	0.0340279	-0.0027656	1	0.0341401	-4.646421	0.0003111	3.398656	11	0.1589864	0.0054278	-327.67
	35	62	31.25	0.0344124	-0.0028034	1	0.0345264	-4.657261	0.0003264	3.398652	11	0.1589938	0.0054895	-327.67
	36	63	24.93351	0.0348358	-0.0028531	1	0.0349524	-4.682168	0.0003129	3.398653	11	0.1589965	0.0055573	-327.67
	37	65	19.86229	0.035249	-0.0029	1	0.0353681	-4.703204	0.0002897	3.39864	11	0.1589854	0.005623	-327.67
	38	66	15.625	0.0357521	-0.0029507	1	0.0358736	-4.718099	0.0003242	3.398623	11	0.1589977	0.0057038	-327.67
	39	68	12.40079	0.0361901	-0.002985	1	0.036313	-4.715176	0.0003286	3.398608	11	0.1590036	0.0057739	-327.67
	40	69	9.93114	0.0366604	-0.002999	1	0.0367829	-4.676731	0.0003478	3.398628	11	0.158984	0.0058479	-327.67
	41	71	7.944915	0.0371395	-0.003007	1	0.0372611	-4.628925	0.0002901	3.398618	11	0.1590116	0.0059249	-327.67
	42	73	6.317385	0.0376292	-0.0029667	1	0.037746	-4.507941	0.0003155	3.398627	11	0.1589672	0.0060004	-327.67
	43	75	5.008013	0.0381151	-0.0029022	1	0.0382254	-4.354242	0.0003095	3.398624	11	0.1590509	0.0060798	-327.67
	44	77	3.945707	0.0386053	-0.0027975	1	0.0387065	-4.144592	0.000331	3.398595	11	0.1589777	0.0061535	-327.67
	45	80	3.158693	0.0390243	-0.0026794	1	0.0391162	-3.927818	0.0003271	3.398584	11	0.1590345	0.0062208	-327.67
	46	83	2.504006	0.039262	-0.0024366	1	0.0393375	-3.55122	0.0002721	3.398554	11	0.1553762	0.0061121	-327.67
	47	86	1.998082	0.0396458	-0.0023668	1	0.0397164	-3.416359	0.000586	3.39858	11	0.1615286	0.0064153	-327.67
	48	90	1.584686	0.0400016	-0.0022645	1	0.0400656	-3.240113	0.0006083	3.398549	11	0.1599	0.0064065	-327.67
	49	94	1.266892	0.0403044	-0.0021746	1	0.040363	-3.088321	4.839827E-005	3.398515	11	0.1593006	0.0064299	-327.67
	50	100	0.999041	0.0405928	-0.0021182	1	0.040648	-2.987105	5.196349E-005	3.398457	11	0.1590932	0.0064668	-327.67
	51	104	0.7923428	0.040881	-0.0020668	1	0.0409332	-2.894272	0.0002776	3.398485	11	0.1591153	0.0065131	-327.67
	52	111	0.6334459	0.0411085	-0.0020592	1	0.04116	-2.867723	0.0002838	3.39845	11	0.1589849	0.0065438	-327.67
	53	119	0.5040323	0.0413475	-0.0020822	1	0.0413999	-2.882871	0.0002876	3.398408	11	0.1589815	0.0065818	-327.67
	54	130	0.400641	0.0415788	-0.0021427	1	0.041634	-2.950085	0.0002818	3.398358	11	0.158986	0.0066192	-327.67
	55	144	0.316723	0.0418482	-0.0022379	1	0.041908	-3.061119	0.000284	3.398305	11	0.1589896	0.0066629	-327.67
	56	158	0.2520161	0.0420949	-0.0023653	1	0.0421613	-3.216052	0.0002849	3.398231	11	0.1589952	0.0067034	-327.67
	57	180	0.2003205	0.0423725	-0.0025218	1	0.0424474	-3.405963	0.0002786	3.39816	11	0.1589965	0.006749	-327.67
	58	201	0.1588983	0.0426712	-0.0027343	1	0.0427587	-3.666446	0.0002814	3.398068	11	0.1589959	0.0067985	-327.67
	59	233	0.1260081	0.0429988	-0.0029754	1	0.0431016	-3.958355	0.0002857	3.398047	11	0.158999	0.0068531	-327.67
	60	271	0.1001603	0.0433962	-0.0032687	1	0.0435191	-4.307531	0.0002842	3.398171	11	0.1589992	0.0069195	-327.67
	61	307	0.0794492	0.0437993	-0.0036216	1	0.0439487	-4.726846	0.0002849	3.398276	11	0.158999	0.0069878	-327.67
	62	346	0.0631739	0.0440999	-0.0040573	1	0.0442861	-5.256535	0.000284	3.397929	11	0.1589996	0.0070415	-327.67
	63	411	0.0501337	0.0445106	-0.0045976	1	0.0447474	-5.89728	0.0002839	3.397659	11	0.1590013	0.0071149	-327.67
	64	493	0.0398258	0.0449688	-0.0052295	1	0.0452719	-6.633174	0.0002849	3.397446	11	0.1590002	0.0071982	-327.67
	65	570	0.0316296	0.045505	-0.006005	1	0.0458995	-7.517459	0.0002855	3.397263	11	0.1589983	0.0072979	-327.67
	66	666	0.0251206	0.0461117	-0.0069206	1	0.0466282	-8.535371	0.0002834	3.397054	11	0.1590013	0.0074139	-327.67
	67	787	0.0199553	0.0468386	-0.0080357	1	0.0475229	-9.73499	0.0002829	3.396835	11	0.1590004	0.0075562	-327.67
	68	939	0.0158522	0.0477239	-0.0093449	1	0.0486303	-11.07903	0.000282	3.396549	11	0.1589988	0.0077322	-327.67
	69	1193	0.0125907	0.0488166	-0.010882	1	0.0500148	-12.56664	0.0002816	3.396287	11	0.1590009	0.0079524	-327.67
	70	1433	0.0100011	0.0501101	-0.0125888	1	0.0516672	-14.10214	0.000282	3.396029	11	0.1589994	0.0082151	-327.67
