EXPLAIN
TAG	GALVEIS
TITLE	LABEL	Galvanostatic EIS	Test Identifier
DATE	LABEL	2.2.2024	Date
TIME	LABEL	19:43:38	Time
NOTES	NOTES	1	Notes...
	
PSTAT	PSTAT	REF600-12055	Potentiostat
FREQINIT	QUANT	1.00000E+005	Initial Freq. (Hz)
FREQFINAL	QUANT	1.00000E-002	Final Freq. (Hz)
PTSPERDEC	QUANT	1.00000E+001	Points/decade
IACREQ	QUANT	1.59000E-001	AC Current (A rms)
IDCREQ	QUANT	0.00000E+000	DC Current (A)
AREA	QUANT	1.00000E+000	Sample Area (cm^2)
SPEED	SELECTOR	1	Optimize for:
DRIFTCOR	SELECTOR	0	Drift Correction
THD	SELECTOR	0	THD
ZGUESS	QUANT	1.00000E-001	Estimated Z (ohms)
EOC	QUANT	3.573404	Open Circuit (V)
SEQUENCER	TOGGLE	TRUE	Run as Sequence
PSTATMODEL	IQUANT	4	Pstat Model
PSTATSECTION	LABEL	REF600-12055	Pstat Section
PSTATSERIALNO	LABEL	12055	Pstat Serial Number
CTRLMODE	IQUANT	0	Control Mode
ELECTROMETER	IQUANT	0	RE=0 or CS=1
IESTAB	IQUANT	0	I/E Stability
CASPEED	IQUANT	4	Control Amp Speed
CONVENTION	IQUANT	1	Current Convention
ICHRANGE	IQUANT	2	Ich Range
ICHRANGEMODE	TOGGLE	F	Ich Auto Range
ICHOFFSETENABLE	TOGGLE	T	Ich Offset Enable
ICHOFFSET	QUANT	0	Ich Offset (V)
ICHFILTER	IQUANT	3	Ich Filter
VCHRANGE	IQUANT	2	Vch Range
VCHRANGEMODE	TOGGLE	F	Vch Auto Range
VCHOFFSETENABLE	TOGGLE	T	Vch Offset Enable
VCHOFFSET	QUANT	0	Vch Offset (V)
VCHFILTER	IQUANT	3	Vch Filter
ACHRANGE	IQUANT	2	Ach Range
ACHOFFSETENABLE	TOGGLE	F	Ach Offset Enable
ACHOFFSET	QUANT	0	Ach Offset (V)
ACHFILTER	IQUANT	1	Ach Filter
IERANGELOWERLIMIT	IQUANT	1	I/E Range Lower Limit
IERANGEMODE	TOGGLE	F	I/E AutoRange
IERANGE	IQUANT	7	I/E Range
POSFEEDENABLE	TOGGLE	F	Positive Feedback IR Comp
POSFEEDRESISTANCE	QUANT	0	Positive Feedback Resistance (ohm)
ACHSELECT	IQUANT	4	Ach Select
SENSECABLEID	IQUANT	14	Sense Cable ID
PWRCABLEID	IQUANT	14	Power Cable ID
DCCALDATE	LABEL		DC Calibration Date
ACCALDATE	LABEL		AC Calibration Date
THERMOSELECT	IQUANT	1	Thermo Select
FRAMEWORKVERSION	LABEL	7.10.3	Framework Version
INSTRUMENTVERSION	LABEL	4.91	Instrument Version
COMMVERSION	LABEL	2.24	Communications Version
CPUPLDVERSION	LABEL	0.00	CPU PLD Version
CTRLPLDVERSION	LABEL	0.00	CTRL PLD Version
PSTATPLDVERSION	LABEL	0.00	PSTAT PLD Version
ZCURVE	TABLE
	Pt	Time	Freq	Zreal	Zimag	Zsig	Zmod	Zphz	Idc	Vdc	IERange	Imod	Vmod	Temp
	#	s	Hz	ohm	ohm	V	ohm	°	A	V	#	A	V	°C
	0	5	100078.1	0.1063588	0.2379151	1	0.2606066	65.91319	0.0003686	3.57272	11	0.1596591	0.0413303	-327.67
	1	7	79453.13	0.0879581	0.1982624	1	0.2168977	66.07578	0.0003547	3.57272	11	0.1642625	0.0354649	-327.67
	2	9	63140.62	0.0737211	0.164519	1	0.1802812	65.86282	0.0003392	3.572719	11	0.1619737	0.0291113	-327.67
	3	10	50203.12	0.0628491	0.1360011	1	0.1498209	65.19731	0.000334	3.572717	11	0.1609357	0.024063	-327.67
	4	12	39890.62	0.054584	0.11201	1	0.124602	64.01938	0.0003289	3.572696	11	0.1602773	0.0199448	-327.67
	5	14	31640.63	0.0483071	0.0919599	1	0.1038759	62.28677	0.000323	3.572704	11	0.1598351	0.0165892	-327.67
	6	16	25171.88	0.0435477	0.0756892	1	0.0873227	60.08607	0.0003273	3.572695	11	0.1595507	0.013925	-327.67
	7	17	20015.62	0.0398115	0.0623031	1	0.0739367	57.42155	0.0003288	3.572653	11	0.1593562	0.0117783	-327.67
	8	19	15890.62	0.0367227	0.0512455	1	0.0630449	54.37453	0.0003253	3.57264	11	0.1592276	0.0100363	-327.67
	9	21	12609.38	0.0341285	0.0420699	1	0.0541722	50.94989	0.0003251	3.572647	11	0.1591444	0.00862	-327.67
	10	22	10078.13	0.0320475	0.0346124	1	0.0471706	47.20356	0.0003231	3.572639	11	0.1590828	0.0075034	-327.67
	11	24	8015.625	0.0303617	0.0281549	1	0.0414069	42.84031	0.000325	3.572625	11	0.1590574	0.0065857	-327.67
	12	25	6328.125	0.0290352	0.0225263	1	0.0367488	37.80534	0.000324	3.572634	11	0.1590323	0.0058441	-327.67
	13	27	5015.625	0.0281319	0.0178925	1	0.0333398	32.45728	0.0003247	3.572628	11	0.1590174	0.0053015	-327.67
	14	28	3984.375	0.0275562	0.0140738	1	0.0309422	27.05474	0.0003219	3.572622	11	0.1590043	0.0049199	-327.67
	15	30	3170.956	0.0272206	0.0109314	1	0.0293336	21.87976	0.0003237	3.572606	11	0.1590039	0.0046641	-327.67
	16	32	2527.573	0.0270863	0.0083377	1	0.0283405	17.10935	0.0003198	3.572601	11	0.1590058	0.0045063	-327.67
	17	33	1976.103	0.0271036	0.006109	1	0.0277835	12.7019	0.0003246	3.572602	11	0.1590029	0.0044177	-327.67
	18	35	1577.524	0.0272311	0.0043815	1	0.0275813	9.140676	0.0003209	3.57259	11	0.1589962	0.0043853	-327.67
	19	37	1265.625	0.0274167	0.0030488	1	0.0275857	6.345249	0.0003217	3.572598	11	0.1590011	0.0043861	-327.67
	20	38	998.264	0.0276746	0.0018347	1	0.0277354	3.79284	0.000324	3.57259	11	0.1590014	0.00441	-327.67
	21	40	796.875	0.0279693	0.0009676	1	0.027986	1.981365	0.0003197	3.572576	11	0.1590004	0.0044498	-327.67
	22	41	627.7902	0.0283399	0.0002185	1	0.0283408	0.4417125	0.00032	3.572579	11	0.159	0.0045062	-327.67
	23	43	505.5147	0.0285185	-0.0000951	1	0.0285187	-0.1910391	0.0003134	3.572488	11	0.1575964	0.0044944	-327.67
	24	45	397.9953	0.0289706	-0.0006532	1	0.028978	-1.291709	0.000312	3.572484	11	0.1606026	0.0046539	-327.67
	25	46	315.5048	0.0294075	-0.0010549	1	0.0294264	-2.054325	0.0003135	3.572481	11	0.1593436	0.0046889	-327.67
	26	48	252.4038	0.0298157	-0.001336	1	0.0298457	-2.565579	0.0003135	3.572478	11	0.1589691	0.0047445	-327.67
	27	49	198.6229	0.0302444	-0.0015524	1	0.0302842	-2.938308	0.0003109	3.572475	11	0.1588788	0.0048115	-327.67
	28	51	158.3615	0.030646	-0.0016905	1	0.0306926	-3.157432	0.0003097	3.572476	11	0.1588839	0.0048766	-327.67
	29	52	125.558	0.0310374	-0.0017732	1	0.031088	-3.269759	0.000316	3.572469	11	0.1589147	0.0049403	-327.67
	30	54	100.4464	0.0314085	-0.0018093	1	0.0314605	-3.296905	0.0003137	3.572466	11	0.1589371	0.0050002	-327.67
	31	55	79.00281	0.0317832	-0.0017994	1	0.0318341	-3.240255	0.0003145	3.572465	11	0.1589611	0.0050604	-327.67
	32	57	63.3446	0.0321149	-0.0017615	1	0.0321632	-3.139476	0.0003126	3.57246	11	0.1589735	0.0051131	-327.67
	33	59	50.22321	0.0324429	-0.0016796	1	0.0324863	-2.963639	0.0003103	3.572458	11	0.1589827	0.0051648	-327.67
	34	60	38.42213	0.0327745	-0.0015626	1	0.0328118	-2.729608	0.0003097	3.572447	11	0.1589895	0.0052167	-327.67
	35	62	31.25	0.0329927	-0.0014546	1	0.0330248	-2.524429	0.0002983	3.57244	11	0.1589949	0.0052508	-327.67
	36	63	24.93351	0.0332114	-0.0013216	1	0.0332377	-2.278815	0.0003119	3.572434	11	0.158992	0.0052845	-327.67
	37	65	19.86229	0.0334009	-0.0011747	1	0.0334216	-2.014216	0.0003464	3.572441	11	0.15898	0.0053134	-327.67
	38	66	15.625	0.0335583	-0.0010609	1	0.0335751	-1.810692	0.0003117	3.572434	11	0.1590109	0.0053388	-327.67
	39	68	12.40079	0.0336881	-0.0009456	1	0.0337014	-1.607867	0.00031	3.572438	11	0.1589983	0.0053585	-327.67
	40	69	9.93114	0.033778	-0.0008397	1	0.0337885	-1.424114	0.0002714	3.57242	11	0.1589805	0.0053717	-327.67
	41	71	7.944915	0.033858	-0.0007589	1	0.0338665	-1.284099	0.0003287	3.572409	11	0.1590177	0.0053854	-327.67
	42	73	6.317385	0.0339324	-0.0006939	1	0.0339395	-1.171461	0.00027	3.572394	11	0.1589756	0.0053956	-327.67
	43	75	5.008013	0.0339953	-0.0006417	1	0.0340014	-1.081361	0.000356	3.57238	11	0.1590081	0.0054065	-327.67
	44	77	3.945707	0.0340489	-0.0005928	1	0.0340541	-0.99738	0.0003097	3.572377	11	0.1590195	0.0054153	-327.67
	45	80	3.158693	0.0340987	-0.0005895	1	0.0341038	-0.990443	0.000361	3.572361	11	0.1590055	0.0054227	-327.67
	46	83	2.504006	0.034023	-0.0004987	1	0.0340266	-0.8396863	0.0003656	3.572312	11	0.1553844	0.0052872	-327.67
	47	86	1.998082	0.0341038	-0.0005551	1	0.0341083	-0.9325359	0.000134	3.572278	11	0.1614398	0.0055064	-327.67
	48	90	1.584686	0.0341921	-0.0006062	1	0.0341974	-1.015781	-1.347926E-005	3.572273	11	0.1600254	0.0054725	-327.67
	49	96	1.266892	0.034274	-0.000662	1	0.0342804	-1.106516	0.0005877	3.572296	11	0.1592712	0.0054599	-327.67
	50	103	0.999041	0.0343707	-0.0007271	1	0.0343784	-1.211864	0.0005676	3.572301	11	0.1590625	0.0054683	-327.67
	51	107	0.7923428	0.034464	-0.00079	1	0.0344731	-1.313133	0.000277	3.572307	11	0.1591495	0.0054864	-327.67
	52	115	0.6334459	0.0345533	-0.0008793	1	0.0345645	-1.457689	0.0002832	3.57229	11	0.158985	0.0054952	-327.67
	53	123	0.5040323	0.0346587	-0.0009874	1	0.0346727	-1.631831	0.0002844	3.572266	11	0.1589821	0.0055123	-327.67
	54	132	0.400641	0.0347672	-0.0011086	1	0.0347849	-1.826314	0.0002842	3.572234	11	0.1589862	0.0055303	-327.67
	55	147	0.316723	0.0349065	-0.001246	1	0.0349287	-2.044343	0.000283	3.572212	11	0.1589893	0.0055533	-327.67
	56	161	0.2520161	0.0350593	-0.001408	1	0.0350875	-2.299837	0.0002778	3.572173	11	0.1589947	0.0055787	-327.67
	57	178	0.2003205	0.0352316	-0.001585	1	0.0352672	-2.575953	0.0002793	3.572131	11	0.1589952	0.0056073	-327.67
	58	205	0.1588983	0.0354404	-0.0017846	1	0.0354853	-2.882669	0.0002847	3.572082	11	0.1589971	0.0056421	-327.67
	59	230	0.1260081	0.035677	-0.0020047	1	0.0357333	-3.216082	0.000283	3.572116	11	0.1589984	0.0056815	-327.67
	60	260	0.1001603	0.0359587	-0.0022404	1	0.0360284	-3.565242	0.0002862	3.572216	11	0.1589985	0.0057285	-327.67
	61	296	0.0794492	0.0362636	-0.0025114	1	0.0363505	-3.961586	0.0002825	3.572257	11	0.1589994	0.0057797	-327.67
	62	348	0.0631739	0.0364814	-0.0028353	1	0.0365915	-4.444013	0.0002796	3.572023	11	0.1590008	0.0058181	-327.67
	63	413	0.0501337	0.0367768	-0.0031986	1	0.0369156	-4.970658	0.0002813	3.571849	11	0.1590005	0.0058696	-327.67
	64	494	0.0398258	0.0371095	-0.0036314	1	0.0372867	-5.589037	0.0002821	3.571688	11	0.1589991	0.0059286	-327.67
	65	596	0.0316296	0.0375055	-0.004141	1	0.0377334	-6.300606	0.0002824	3.57153	11	0.1590001	0.0059996	-327.67
	66	724	0.0251206	0.0379384	-0.0047576	1	0.0382355	-7.14772	0.000282	3.57137	11	0.1590007	0.0060795	-327.67
	67	845	0.0199553	0.0384139	-0.0055033	1	0.0388061	-8.152935	0.0002817	3.57119	11	0.158999	0.0061701	-327.67
	68	1047	0.0158522	0.0390036	-0.0063726	1	0.0395208	-9.279208	0.0002775	3.570962	11	0.1590009	0.0062838	-327.67
	69	1301	0.0125907	0.0397483	-0.0073986	1	0.040431	-10.54416	0.0002842	3.570778	11	0.1589988	0.0064285	-327.67
	70	1541	0.0100011	0.0406291	-0.0085593	1	0.0415209	-11.89654	0.0002819	3.570606	11	0.1590006	0.0066018	-327.67
