EXPLAIN
TAG	GALVEIS
TITLE	LABEL	Galvanostatic EIS	Test Identifier
DATE	LABEL	2.2.2024	Date
TIME	LABEL	23:54:34	Time
NOTES	NOTES	1	Notes...
	
PSTAT	PSTAT	REF600-12055	Potentiostat
FREQINIT	QUANT	1.00000E+005	Initial Freq. (Hz)
FREQFINAL	QUANT	1.00000E-002	Final Freq. (Hz)
PTSPERDEC	QUANT	1.00000E+001	Points/decade
IACREQ	QUANT	1.59000E-001	AC Current (A rms)
IDCREQ	QUANT	0.00000E+000	DC Current (A)
AREA	QUANT	1.00000E+000	Sample Area (cm^2)
SPEED	SELECTOR	1	Optimize for:
DRIFTCOR	SELECTOR	0	Drift Correction
THD	SELECTOR	0	THD
ZGUESS	QUANT	1.00000E-001	Estimated Z (ohms)
EOC	QUANT	3.815094	Open Circuit (V)
SEQUENCER	TOGGLE	TRUE	Run as Sequence
PSTATMODEL	IQUANT	4	Pstat Model
PSTATSECTION	LABEL	REF600-12055	Pstat Section
PSTATSERIALNO	LABEL	12055	Pstat Serial Number
CTRLMODE	IQUANT	0	Control Mode
ELECTROMETER	IQUANT	0	RE=0 or CS=1
IESTAB	IQUANT	0	I/E Stability
CASPEED	IQUANT	4	Control Amp Speed
CONVENTION	IQUANT	1	Current Convention
ICHRANGE	IQUANT	2	Ich Range
ICHRANGEMODE	TOGGLE	F	Ich Auto Range
ICHOFFSETENABLE	TOGGLE	T	Ich Offset Enable
ICHOFFSET	QUANT	0	Ich Offset (V)
ICHFILTER	IQUANT	3	Ich Filter
VCHRANGE	IQUANT	2	Vch Range
VCHRANGEMODE	TOGGLE	F	Vch Auto Range
VCHOFFSETENABLE	TOGGLE	T	Vch Offset Enable
VCHOFFSET	QUANT	0	Vch Offset (V)
VCHFILTER	IQUANT	3	Vch Filter
ACHRANGE	IQUANT	2	Ach Range
ACHOFFSETENABLE	TOGGLE	F	Ach Offset Enable
ACHOFFSET	QUANT	0	Ach Offset (V)
ACHFILTER	IQUANT	1	Ach Filter
IERANGELOWERLIMIT	IQUANT	1	I/E Range Lower Limit
IERANGEMODE	TOGGLE	F	I/E AutoRange
IERANGE	IQUANT	7	I/E Range
POSFEEDENABLE	TOGGLE	F	Positive Feedback IR Comp
POSFEEDRESISTANCE	QUANT	0	Positive Feedback Resistance (ohm)
ACHSELECT	IQUANT	4	Ach Select
SENSECABLEID	IQUANT	14	Sense Cable ID
PWRCABLEID	IQUANT	14	Power Cable ID
DCCALDATE	LABEL		DC Calibration Date
ACCALDATE	LABEL		AC Calibration Date
THERMOSELECT	IQUANT	1	Thermo Select
FRAMEWORKVERSION	LABEL	7.10.3	Framework Version
INSTRUMENTVERSION	LABEL	4.91	Instrument Version
COMMVERSION	LABEL	2.24	Communications Version
CPUPLDVERSION	LABEL	0.00	CPU PLD Version
CTRLPLDVERSION	LABEL	0.00	CTRL PLD Version
PSTATPLDVERSION	LABEL	0.00	PSTAT PLD Version
ZCURVE	TABLE
	Pt	Time	Freq	Zreal	Zimag	Zsig	Zmod	Zphz	Idc	Vdc	IERange	Imod	Vmod	Temp
	#	s	Hz	ohm	ohm	V	ohm	°	A	V	#	A	V	°C
	0	5	100078.1	0.106696	0.2373544	1	0.2602329	65.79504	0.0003705	3.814432	11	0.1596619	0.0412718	-327.67
	1	7	79453.13	0.0881807	0.1978841	1	0.2166424	65.98138	0.0003565	3.814428	11	0.1642682	0.0354244	-327.67
	2	9	63140.62	0.0738592	0.1642597	1	0.1801011	65.78899	0.000341	3.814423	11	0.1619478	0.0290776	-327.67
	3	10	50203.12	0.0629038	0.1358275	1	0.1496864	65.15043	0.0003328	3.814404	11	0.160926	0.0240399	-327.67
	4	12	39890.62	0.0545934	0.1118958	1	0.1245035	63.99248	0.0003289	3.814389	11	0.1602779	0.0199291	-327.67
	5	14	31640.63	0.0482737	0.0918867	1	0.1037955	62.28431	0.0003273	3.814392	11	0.1598351	0.0165763	-327.67
	6	16	25171.88	0.0434945	0.0756279	1	0.0872431	60.09626	0.0003158	3.814378	11	0.1595467	0.0139119	-327.67
	7	17	20015.62	0.0397345	0.0622669	1	0.0738648	57.45679	0.0003129	3.81433	11	0.159354	0.0117666	-327.67
	8	19	15890.62	0.0366254	0.0512235	1	0.0629704	54.43481	0.0003213	3.814322	11	0.159226	0.0100244	-327.67
	9	21	12609.38	0.0340271	0.0420562	1	0.0540978	51.02418	0.0003198	3.814303	11	0.1591427	0.0086081	-327.67
	10	22	10078.13	0.03194	0.0345969	1	0.0470862	47.28663	0.0003237	3.814309	11	0.1590845	0.00749	-327.67
	11	24	8015.625	0.0302386	0.028153	1	0.0413155	42.95443	0.0003179	3.814292	11	0.1590538	0.006571	-327.67
	12	25	6328.125	0.028934	0.0225273	1	0.0366696	37.90345	0.0003219	3.814287	11	0.1590359	0.0058316	-327.67
	13	27	5015.625	0.0280257	0.0179001	1	0.0332544	32.56649	0.0003127	3.814285	11	0.1590132	0.0052878	-327.67
	14	28	3984.375	0.0274476	0.0140868	1	0.0308514	27.16807	0.0003222	3.814276	11	0.1590061	0.0049055	-327.67
	15	30	3170.956	0.0271166	0.0109608	1	0.0292481	22.00898	0.000322	3.814267	11	0.1590073	0.0046506	-327.67
	16	32	2527.573	0.02699	0.0083657	1	0.0282568	17.22121	0.0003198	3.814256	11	0.1590029	0.0044929	-327.67
	17	33	1976.103	0.026985	0.0061696	1	0.0276813	12.87826	0.0003218	3.814251	11	0.1589993	0.0044013	-327.67
	18	35	1577.524	0.0271083	0.0044595	1	0.0274726	9.341974	0.0003126	3.814244	11	0.1589993	0.0043681	-327.67
	19	37	1265.625	0.0272917	0.0031772	1	0.0274761	6.640338	0.0003129	3.814238	11	0.1590052	0.0043688	-327.67
	20	38	998.264	0.0275568	0.0020012	1	0.0276294	4.153624	0.0003233	3.814228	11	0.1590005	0.0043931	-327.67
	21	40	796.875	0.0278511	0.0010796	1	0.027872	2.219884	0.0003227	3.814213	11	0.1590011	0.0044317	-327.67
	22	41	627.7902	0.0281822	0.0003842	1	0.0281848	0.7810012	0.0003181	3.814202	11	0.1589991	0.0044814	-327.67
	23	43	505.5147	0.0283572	0.0000961	1	0.0283574	0.1941976	0.0003122	3.814117	11	0.1575976	0.0044691	-327.67
	24	44	397.9953	0.0287832	-0.0004217	1	0.0287863	-0.8394381	0.0003123	3.814175	11	0.1605988	0.004623	-327.67
	25	46	315.5048	0.0291841	-0.0007772	1	0.0291944	-1.525409	0.0003131	3.814171	11	0.1593441	0.004652	-327.67
	26	47	252.4038	0.0295518	-0.0010277	1	0.0295696	-1.991667	0.00031	3.814161	11	0.1589627	0.0047005	-327.67
	27	49	198.6229	0.0299345	-0.0012029	1	0.0299586	-2.301111	0.0003093	3.81415	11	0.1588798	0.0047598	-327.67
	28	50	158.3615	0.0302763	-0.0012926	1	0.0303039	-2.44476	0.0003144	3.814144	11	0.1588918	0.004815	-327.67
	29	52	125.558	0.0306032	-0.0013337	1	0.0306323	-2.495462	0.0003186	3.814133	11	0.1589089	0.0048677	-327.67
	30	53	100.4464	0.030889	-0.0013312	1	0.0309177	-2.467665	0.000299	3.814125	11	0.1589447	0.0049142	-327.67
	31	55	79.00281	0.0311768	-0.0012939	1	0.0312037	-2.376529	0.0003133	3.814119	11	0.1589548	0.00496	-327.67
	32	56	63.3446	0.0314135	-0.0012252	1	0.0314374	-2.233582	0.0002992	3.814114	11	0.1589759	0.0049978	-327.67
	33	58	50.22321	0.031628	-0.001133	1	0.0316483	-2.05157	0.0003006	3.814111	11	0.1589824	0.0050315	-327.67
	34	60	38.42213	0.0318327	-0.001025	1	0.0318492	-1.844221	0.0003146	3.814105	11	0.1589904	0.0050637	-327.67
	35	61	31.25	0.0319689	-0.0009314	1	0.0319825	-1.668847	0.0003249	3.814097	11	0.158989	0.0050849	-327.67
	36	63	24.93351	0.0320874	-0.0008415	1	0.0320985	-1.502192	0.0003114	3.814095	11	0.1590014	0.0051037	-327.67
	37	64	19.86229	0.0321918	-0.0007524	1	0.0322006	-1.338965	0.0002916	3.814078	11	0.1589803	0.0051193	-327.67
	38	66	15.625	0.032271	-0.0006882	1	0.0322784	-1.221743	0.0003268	3.81406	11	0.1589965	0.0051321	-327.67
	39	67	12.40079	0.0323411	-0.0006097	1	0.0323469	-1.079958	0.000331	3.814068	11	0.1589973	0.0051431	-327.67
	40	69	9.93114	0.0323979	-0.0005664	1	0.0324029	-1.001646	0.0003379	3.814074	11	0.158995	0.0051519	-327.67
	41	70	7.944915	0.0324482	-0.0005385	1	0.0324527	-0.95071	0.000308	3.814055	11	0.1589946	0.0051598	-327.67
	42	72	6.317385	0.0324939	-0.0005184	1	0.032498	-0.9140159	0.000241	3.814057	11	0.1590133	0.0051676	-327.67
	43	74	5.008013	0.0325417	-0.0005214	1	0.0325459	-0.9179422	0.0003561	3.814043	11	0.158991	0.0051745	-327.67
	44	77	3.945707	0.0325889	-0.0005303	1	0.0325932	-0.932196	0.000328	3.814019	11	0.1590119	0.0051827	-327.67
	45	79	3.158693	0.0326383	-0.000545	1	0.0326429	-0.956729	0.0004013	3.813986	11	0.1589855	0.0051897	-327.67
	46	82	2.504006	0.0325642	-0.000492	1	0.0325679	-0.8655974	0.0003657	3.813924	11	0.1554179	0.0050616	-327.67
	47	86	1.998082	0.032661	-0.0005853	1	0.0326663	-1.026659	0.0001849	3.81389	11	0.1613887	0.005272	-327.67
	48	90	1.584686	0.0327469	-0.0006719	1	0.0327538	-1.175484	8.943258E-006	3.813871	11	0.1600624	0.0052427	-327.67
	49	94	1.266892	0.0328393	-0.0007653	1	0.0328482	-1.334927	0.0005684	3.8139	11	0.1592519	0.0052311	-327.67
	50	101	0.999041	0.0329477	-0.0008763	1	0.0329594	-1.523602	0.00054	3.8139	11	0.159059	0.0052425	-327.67
	51	105	0.7923428	0.0330717	-0.0009618	1	0.0330857	-1.665818	0.0002829	3.813902	11	0.15917	0.0052663	-327.67
	52	112	0.6334459	0.0331734	-0.0010978	1	0.0331916	-1.895448	0.0002824	3.813858	11	0.1589833	0.0052769	-327.67
	53	121	0.5040323	0.0333049	-0.0012522	1	0.0333284	-2.153198	0.0002828	3.813806	11	0.158983	0.0052987	-327.67
	54	133	0.400641	0.0334655	-0.001427	1	0.0334959	-2.441741	0.0002827	3.813758	11	0.1589859	0.0053254	-327.67
	55	147	0.316723	0.0336419	-0.0016281	1	0.0336813	-2.770725	0.0002831	3.81368	11	0.1589904	0.005355	-327.67
	56	164	0.2520161	0.0338577	-0.0018421	1	0.0339078	-3.114174	0.0002808	3.813625	11	0.1589923	0.0053911	-327.67
	57	182	0.2003205	0.0341016	-0.0020851	1	0.0341653	-3.498937	0.0002809	3.813538	11	0.1589977	0.0054322	-327.67
	58	208	0.1588983	0.034379	-0.00236	1	0.0344599	-3.927008	0.0002815	3.813432	11	0.1589966	0.005479	-327.67
	59	239	0.1260081	0.0347249	-0.0026532	1	0.0348262	-4.369198	0.0002751	3.813428	11	0.1589989	0.0055373	-327.67
	60	270	0.1001603	0.035111	-0.002968	1	0.0352362	-4.831894	0.0002805	3.813477	11	0.1589985	0.0056025	-327.67
	61	316	0.0794492	0.0355318	-0.0033222	1	0.0356867	-5.341567	0.0002832	3.813464	11	0.1589998	0.0056742	-327.67
	62	368	0.0631739	0.0358843	-0.0037331	1	0.036078	-5.939245	0.0002833	3.813174	11	0.1589997	0.0057364	-327.67
	63	417	0.0501337	0.0363314	-0.0041964	1	0.036573	-6.588645	0.0002762	3.812924	11	0.1590007	0.0058151	-327.67
	64	498	0.0398258	0.0368213	-0.004758	1	0.0371274	-7.362908	0.0002795	3.812663	11	0.1589983	0.0059032	-327.67
	65	600	0.0316296	0.037374	-0.0054228	1	0.0377654	-8.255708	0.0002838	3.812365	11	0.1589999	0.0060047	-327.67
	66	728	0.0251206	0.0379851	-0.0062321	1	0.0384929	-9.31728	0.0002827	3.812036	11	0.1590003	0.0061204	-327.67
	67	889	0.0199553	0.0387121	-0.0071874	1	0.0393736	-10.51798	0.0002869	3.811725	11	0.1589993	0.0062604	-327.67
	68	1041	0.0158522	0.0394934	-0.0083521	1	0.0403669	-11.94105	0.0002811	3.811435	11	0.1590004	0.0064184	-327.67
	69	1232	0.0125907	0.040475	-0.0097318	1	0.0416286	-13.5196	0.0002833	3.811127	11	0.1590003	0.006619	-327.67
	70	1472	0.0100011	0.041636	-0.0113994	1	0.0431683	-15.31166	0.000286	3.810715	11	0.1589993	0.0068637	-327.67
