EXPLAIN
TAG	GALVEIS
TITLE	LABEL	Galvanostatic EIS	Test Identifier
DATE	LABEL	2.2.2024	Date
TIME	LABEL	18:31:51	Time
NOTES	NOTES	1	Notes...
	
PSTAT	PSTAT	REF600-12055	Potentiostat
FREQINIT	QUANT	1.00000E+005	Initial Freq. (Hz)
FREQFINAL	QUANT	1.00000E-002	Final Freq. (Hz)
PTSPERDEC	QUANT	1.00000E+001	Points/decade
IACREQ	QUANT	1.59000E-001	AC Current (A rms)
IDCREQ	QUANT	0.00000E+000	DC Current (A)
AREA	QUANT	1.00000E+000	Sample Area (cm^2)
SPEED	SELECTOR	1	Optimize for:
DRIFTCOR	SELECTOR	0	Drift Correction
THD	SELECTOR	0	THD
ZGUESS	QUANT	1.00000E-001	Estimated Z (ohms)
EOC	QUANT	3.502425	Open Circuit (V)
SEQUENCER	TOGGLE	TRUE	Run as Sequence
PSTATMODEL	IQUANT	4	Pstat Model
PSTATSECTION	LABEL	REF600-12055	Pstat Section
PSTATSERIALNO	LABEL	12055	Pstat Serial Number
CTRLMODE	IQUANT	0	Control Mode
ELECTROMETER	IQUANT	0	RE=0 or CS=1
IESTAB	IQUANT	0	I/E Stability
CASPEED	IQUANT	4	Control Amp Speed
CONVENTION	IQUANT	1	Current Convention
ICHRANGE	IQUANT	2	Ich Range
ICHRANGEMODE	TOGGLE	F	Ich Auto Range
ICHOFFSETENABLE	TOGGLE	T	Ich Offset Enable
ICHOFFSET	QUANT	0	Ich Offset (V)
ICHFILTER	IQUANT	3	Ich Filter
VCHRANGE	IQUANT	2	Vch Range
VCHRANGEMODE	TOGGLE	F	Vch Auto Range
VCHOFFSETENABLE	TOGGLE	T	Vch Offset Enable
VCHOFFSET	QUANT	0	Vch Offset (V)
VCHFILTER	IQUANT	3	Vch Filter
ACHRANGE	IQUANT	2	Ach Range
ACHOFFSETENABLE	TOGGLE	F	Ach Offset Enable
ACHOFFSET	QUANT	0	Ach Offset (V)
ACHFILTER	IQUANT	1	Ach Filter
IERANGELOWERLIMIT	IQUANT	1	I/E Range Lower Limit
IERANGEMODE	TOGGLE	F	I/E AutoRange
IERANGE	IQUANT	7	I/E Range
POSFEEDENABLE	TOGGLE	F	Positive Feedback IR Comp
POSFEEDRESISTANCE	QUANT	0	Positive Feedback Resistance (ohm)
ACHSELECT	IQUANT	4	Ach Select
SENSECABLEID	IQUANT	14	Sense Cable ID
PWRCABLEID	IQUANT	14	Power Cable ID
DCCALDATE	LABEL		DC Calibration Date
ACCALDATE	LABEL		AC Calibration Date
THERMOSELECT	IQUANT	1	Thermo Select
FRAMEWORKVERSION	LABEL	7.10.3	Framework Version
INSTRUMENTVERSION	LABEL	4.91	Instrument Version
COMMVERSION	LABEL	2.24	Communications Version
CPUPLDVERSION	LABEL	0.00	CPU PLD Version
CTRLPLDVERSION	LABEL	0.00	CTRL PLD Version
PSTATPLDVERSION	LABEL	0.00	PSTAT PLD Version
ZCURVE	TABLE
	Pt	Time	Freq	Zreal	Zimag	Zsig	Zmod	Zphz	Idc	Vdc	IERange	Imod	Vmod	Temp
	#	s	Hz	ohm	ohm	V	ohm	°	A	V	#	A	V	°C
	0	5	100078.1	0.1061809	0.2382663	1	0.2608548	65.98035	0.0003655	3.501661	11	0.1596619	0.0413704	-327.67
	1	6	79453.13	0.0878441	0.1984932	1	0.2170625	66.128	0.0003574	3.501655	11	0.1642664	0.0354927	-327.67
	2	8	63140.62	0.0736724	0.1646754	1	0.180404	65.89722	0.0003398	3.50164	11	0.1619499	0.0291268	-327.67
	3	10	50203.12	0.062839	0.136097	1	0.1499037	65.21617	0.0003339	3.501631	11	0.1609286	0.0240752	-327.67
	4	12	39890.62	0.0546062	0.1120851	1	0.1246792	64.02531	0.0003256	3.501631	11	0.1602724	0.0199566	-327.67
	5	13	31640.63	0.0483516	0.0920117	1	0.1039424	62.27835	0.0003253	3.501617	11	0.1598424	0.0166005	-327.67
	6	15	25171.88	0.0436174	0.0757173	1	0.0873818	60.05566	0.0003276	3.501613	11	0.1595432	0.0139337	-327.67
	7	17	20015.62	0.0398783	0.062331	1	0.0739962	57.38955	0.0003238	3.501567	11	0.1593583	0.0117879	-327.67
	8	19	15890.62	0.036797	0.0512743	1	0.0631116	54.33484	0.000323	3.501568	11	0.1592234	0.0100467	-327.67
	9	20	12609.38	0.0342093	0.0420859	1	0.0542356	50.89426	0.000322	3.501561	11	0.1591454	0.0086302	-327.67
	10	22	10078.13	0.0321443	0.0346212	1	0.0472428	47.1246	0.0003202	3.501546	11	0.1590817	0.0075148	-327.67
	11	23	8015.625	0.0304359	0.0281572	1	0.0414629	42.77296	0.000312	3.501548	11	0.1590534	0.0065945	-327.67
	12	25	6328.125	0.0291277	0.022532	1	0.0368255	37.72408	0.000312	3.501536	11	0.1590323	0.0058562	-327.67
	13	27	5015.625	0.0282243	0.0179107	1	0.0334276	32.39856	0.0003246	3.501527	11	0.1590157	0.0053154	-327.67
	14	28	3984.375	0.027646	0.0140975	1	0.0310329	27.01844	0.0003215	3.501523	11	0.1590116	0.0049345	-327.67
	15	30	3170.956	0.0273132	0.0109313	1	0.0294194	21.81235	0.000316	3.501517	11	0.1590074	0.0046779	-327.67
	16	31	2527.573	0.027172	0.0083738	1	0.028433	17.12804	0.0003241	3.501505	11	0.159001	0.0045209	-327.67
	17	33	1976.103	0.0271889	0.0060844	1	0.0278614	12.61393	0.0003053	3.501501	11	0.1590034	0.00443	-327.67
	18	35	1577.524	0.0273043	0.0044579	1	0.0276658	9.272623	0.0003054	3.501498	11	0.1590022	0.0043989	-327.67
	19	36	1265.625	0.0274976	0.0030148	1	0.0276624	6.256805	0.0003093	3.50149	11	0.1589961	0.0043982	-327.67
	20	38	998.264	0.0277544	0.0018475	1	0.0278158	3.808247	0.000318	3.501472	11	0.158997	0.0044226	-327.67
	21	39	796.875	0.0280715	0.0010054	1	0.0280895	2.051159	0.0003204	3.50148	11	0.1590131	0.0044666	-327.67
	22	41	627.7902	0.0283919	0.0002311	1	0.0283928	0.4663075	0.0003182	3.501479	11	0.1589969	0.0045144	-327.67
	23	43	505.5147	0.028593	-0.0001313	1	0.0285933	-0.2630647	0.0003109	3.501381	11	0.1575896	0.004506	-327.67
	24	44	397.9953	0.0290433	-0.0007006	1	0.0290518	-1.381796	0.000304	3.501383	11	0.1606036	0.0046658	-327.67
	25	46	315.5048	0.0294835	-0.0011204	1	0.0295048	-2.176197	0.0003037	3.501375	11	0.1593412	0.0047013	-327.67
	26	47	252.4038	0.0298964	-0.0014237	1	0.0299303	-2.726416	0.00031	3.501369	11	0.1589679	0.004758	-327.67
	27	49	198.6229	0.0303359	-0.0016649	1	0.0303815	-3.141355	0.0003155	3.501363	11	0.1588773	0.0048269	-327.67
	28	50	158.3615	0.0307437	-0.0018224	1	0.0307977	-3.392364	0.0003102	3.501354	11	0.1588897	0.0048934	-327.67
	29	52	125.558	0.0311481	-0.0019424	1	0.0312086	-3.568417	0.0003127	3.50135	11	0.1589142	0.0049595	-327.67
	30	53	100.4464	0.0315405	-0.0020052	1	0.0316042	-3.637733	0.0003087	3.501338	11	0.1589367	0.0050231	-327.67
	31	55	79.00281	0.0319491	-0.0020402	1	0.0320141	-3.653827	0.0003121	3.501329	11	0.1589601	0.005089	-327.67
	32	56	63.3446	0.0323114	-0.0020422	1	0.0323759	-3.616503	0.0003096	3.50133	11	0.1589746	0.0051469	-327.67
	33	58	50.22321	0.0326812	-0.002002	1	0.0327425	-3.505413	0.0003171	3.501324	11	0.1589861	0.0052056	-327.67
	34	60	38.42213	0.0330897	-0.0019231	1	0.0331455	-3.326131	0.0003161	3.501323	11	0.1589836	0.0052696	-327.67
	35	61	31.25	0.0333847	-0.001848	1	0.0334358	-3.16829	0.0003303	3.501313	11	0.1589929	0.0053161	-327.67
	36	63	24.93351	0.0336777	-0.0017406	1	0.0337227	-2.958692	0.0003078	3.501308	11	0.1589987	0.0053619	-327.67
	37	64	19.86229	0.0339552	-0.0016237	1	0.033994	-2.737736	0.0003214	3.501308	11	0.1589898	0.0054047	-327.67
	38	65	15.625	0.034186	-0.0014716	1	0.0342177	-2.464938	0.0003211	3.501293	11	0.1589971	0.0054405	-327.67
	39	67	12.40079	0.0343971	-0.001339	1	0.0344232	-2.22928	0.0003121	3.501303	11	0.1590001	0.0054733	-327.67
	40	68	9.93114	0.0345695	-0.0012183	1	0.034591	-2.018426	0.0003054	3.501297	11	0.1590011	0.0055	-327.67
	41	70	7.944915	0.0347115	-0.0010921	1	0.0347286	-1.802082	0.0003397	3.501278	11	0.1589985	0.0055218	-327.67
	42	72	6.317385	0.0348355	-0.0010026	1	0.0348499	-1.648507	0.0003292	3.501261	11	0.158959	0.0055397	-327.67
	43	74	5.008013	0.0349464	-0.0009114	1	0.0349583	-1.49396	0.0002936	3.501246	11	0.1590438	0.0055599	-327.67
	44	77	3.945707	0.0350303	-0.0008396	1	0.0350404	-1.372952	0.0002947	3.501256	11	0.1589973	0.0055713	-327.67
	45	79	3.158693	0.0351093	-0.0008085	1	0.0351186	-1.319135	0.0002297	3.501262	11	0.1589794	0.0055831	-327.67
	46	81	2.504006	0.0350523	-0.000679	1	0.0350589	-1.109771	0.0002641	3.501243	11	0.1554171	0.0054487	-327.67
	47	85	1.998082	0.0351633	-0.0007217	1	0.0351707	-1.175799	0.0004478	3.501246	11	0.1613837	0.005676	-327.67
	48	89	1.584686	0.0352632	-0.0007561	1	0.0352713	-1.228317	0.0006274	3.501235	11	0.1600719	0.0056459	-327.67
	49	93	1.266892	0.0353566	-0.0007889	1	0.0353654	-1.278161	6.447977E-005	3.501171	11	0.1592597	0.0056323	-327.67
	50	98	0.999041	0.03545	-0.0008408	1	0.03546	-1.358664	9.416381E-005	3.501133	11	0.1590489	0.0056399	-327.67
	51	103	0.7923428	0.0355738	-0.0008919	1	0.035585	-1.436148	0.0002847	3.501174	11	0.1591725	0.0056642	-327.67
	52	110	0.6334459	0.0356724	-0.0009755	1	0.0356857	-1.56643	0.0002831	3.501133	11	0.1589838	0.0056734	-327.67
	53	120	0.5040323	0.0357901	-0.0010724	1	0.0358062	-1.716199	0.000285	3.501108	11	0.1589823	0.0056925	-327.67
	54	129	0.400641	0.0359087	-0.0011918	1	0.0359285	-1.900977	0.0002845	3.501063	11	0.1589862	0.0057121	-327.67
	55	143	0.316723	0.0360561	-0.0013286	1	0.0360806	-2.110233	0.000283	3.501015	11	0.1589887	0.0057364	-327.67
	56	161	0.2520161	0.0362154	-0.0014881	1	0.036246	-2.352948	0.0002802	3.500963	11	0.1589948	0.0057629	-327.67
	57	182	0.2003205	0.0364058	-0.0016657	1	0.0364439	-2.6196	0.0002842	3.500892	11	0.1589956	0.0057944	-327.67
	58	209	0.1588983	0.0366198	-0.0018783	1	0.0366679	-2.936288	0.0002812	3.500825	11	0.1589965	0.0058301	-327.67
	59	234	0.1260081	0.0368597	-0.0021136	1	0.0369203	-3.281871	0.0002805	3.500827	11	0.1589984	0.0058703	-327.67
	60	272	0.1001603	0.0371742	-0.0023788	1	0.0372502	-3.661413	0.000283	3.500922	11	0.1590004	0.0059228	-327.67
	61	308	0.0794492	0.037471	-0.0026886	1	0.0375674	-4.103997	0.0002814	3.500966	11	0.158999	0.0059732	-327.67
	62	360	0.0631739	0.0377136	-0.0030585	1	0.0378374	-4.636435	0.0002801	3.500705	11	0.159001	0.0060162	-327.67
	63	409	0.0501337	0.0380354	-0.0034871	1	0.0381949	-5.238245	0.0002837	3.500556	11	0.1589978	0.0060729	-327.67
	64	471	0.0398258	0.0384027	-0.0039977	1	0.0386102	-5.94313	0.0002831	3.500387	11	0.1590002	0.006139	-327.67
	65	548	0.0316296	0.038824	-0.00462	1	0.0390979	-6.786156	0.0002813	3.500214	11	0.1590002	0.0062166	-327.67
	66	644	0.0251206	0.0392923	-0.0053686	1	0.0396574	-7.780305	0.0002796	3.500021	11	0.1590001	0.0063055	-327.67
	67	765	0.0199553	0.0398721	-0.0062511	1	0.0403592	-8.910172	0.0002833	3.4998	11	0.1590008	0.0064171	-327.67
	68	917	0.0158522	0.0405579	-0.0073257	1	0.0412142	-10.23856	0.0002822	3.499573	11	0.1589998	0.006553	-327.67
	69	1108	0.0125907	0.0414166	-0.0085638	1	0.0422927	-11.68249	0.0002767	3.499254	11	0.1589996	0.0067245	-327.67
	70	1427	0.0100011	0.0424627	-0.0099894	1	0.0436218	-13.23818	0.0002833	3.498966	11	0.159	0.0069359	-327.67
