EXPLAIN
TAG	GALVEIS
TITLE	LABEL	Galvanostatic EIS	Test Identifier
DATE	LABEL	3.2.2024	Date
TIME	LABEL	3:56:55	Time
NOTES	NOTES	1	Notes...
	
PSTAT	PSTAT	REF600-12055	Potentiostat
FREQINIT	QUANT	1.00000E+005	Initial Freq. (Hz)
FREQFINAL	QUANT	1.00000E-002	Final Freq. (Hz)
PTSPERDEC	QUANT	1.00000E+001	Points/decade
IACREQ	QUANT	1.59000E-001	AC Current (A rms)
IDCREQ	QUANT	0.00000E+000	DC Current (A)
AREA	QUANT	1.00000E+000	Sample Area (cm^2)
SPEED	SELECTOR	1	Optimize for:
DRIFTCOR	SELECTOR	0	Drift Correction
THD	SELECTOR	0	THD
ZGUESS	QUANT	1.00000E-001	Estimated Z (ohms)
EOC	QUANT	4.062503	Open Circuit (V)
SEQUENCER	TOGGLE	TRUE	Run as Sequence
PSTATMODEL	IQUANT	4	Pstat Model
PSTATSECTION	LABEL	REF600-12055	Pstat Section
PSTATSERIALNO	LABEL	12055	Pstat Serial Number
CTRLMODE	IQUANT	0	Control Mode
ELECTROMETER	IQUANT	0	RE=0 or CS=1
IESTAB	IQUANT	0	I/E Stability
CASPEED	IQUANT	4	Control Amp Speed
CONVENTION	IQUANT	1	Current Convention
ICHRANGE	IQUANT	2	Ich Range
ICHRANGEMODE	TOGGLE	F	Ich Auto Range
ICHOFFSETENABLE	TOGGLE	T	Ich Offset Enable
ICHOFFSET	QUANT	0	Ich Offset (V)
ICHFILTER	IQUANT	3	Ich Filter
VCHRANGE	IQUANT	2	Vch Range
VCHRANGEMODE	TOGGLE	F	Vch Auto Range
VCHOFFSETENABLE	TOGGLE	T	Vch Offset Enable
VCHOFFSET	QUANT	0	Vch Offset (V)
VCHFILTER	IQUANT	3	Vch Filter
ACHRANGE	IQUANT	2	Ach Range
ACHOFFSETENABLE	TOGGLE	F	Ach Offset Enable
ACHOFFSET	QUANT	0	Ach Offset (V)
ACHFILTER	IQUANT	1	Ach Filter
IERANGELOWERLIMIT	IQUANT	1	I/E Range Lower Limit
IERANGEMODE	TOGGLE	F	I/E AutoRange
IERANGE	IQUANT	7	I/E Range
POSFEEDENABLE	TOGGLE	F	Positive Feedback IR Comp
POSFEEDRESISTANCE	QUANT	0	Positive Feedback Resistance (ohm)
ACHSELECT	IQUANT	4	Ach Select
SENSECABLEID	IQUANT	14	Sense Cable ID
PWRCABLEID	IQUANT	14	Power Cable ID
DCCALDATE	LABEL		DC Calibration Date
ACCALDATE	LABEL		AC Calibration Date
THERMOSELECT	IQUANT	1	Thermo Select
FRAMEWORKVERSION	LABEL	7.10.3	Framework Version
INSTRUMENTVERSION	LABEL	4.91	Instrument Version
COMMVERSION	LABEL	2.24	Communications Version
CPUPLDVERSION	LABEL	0.00	CPU PLD Version
CTRLPLDVERSION	LABEL	0.00	CTRL PLD Version
PSTATPLDVERSION	LABEL	0.00	PSTAT PLD Version
ZCURVE	TABLE
	Pt	Time	Freq	Zreal	Zimag	Zsig	Zmod	Zphz	Idc	Vdc	IERange	Imod	Vmod	Temp
	#	s	Hz	ohm	ohm	V	ohm	°	A	V	#	A	V	°C
	0	6	100078.1	0.1066101	0.2369049	1	0.2597877	65.77167	0.0003678	4.061786	11	0.159663	0.0412015	-327.67
	1	7	79453.13	0.0881403	0.1975391	1	0.2163109	65.95397	0.0003531	4.061789	11	0.1642686	0.0353703	-327.67
	2	9	63140.62	0.0738363	0.1639892	1	0.1798451	65.76028	0.0003442	4.061779	11	0.161989	0.0290436	-327.67
	3	11	50203.12	0.0628977	0.1356114	1	0.1494877	65.11773	0.0003376	4.061771	11	0.160925	0.0240078	-327.67
	4	12	39890.62	0.0545993	0.1117191	1	0.1243472	63.95434	0.0003319	4.061765	11	0.1602784	0.0199042	-327.67
	5	14	31640.63	0.0482869	0.0917381	1	0.1036702	62.23965	0.0003263	4.061747	11	0.1598475	0.0165576	-327.67
	6	16	25171.88	0.0435207	0.0755136	1	0.087157	60.04386	0.0003223	4.06175	11	0.1595502	0.0138985	-327.67
	7	18	20015.62	0.0397605	0.0621633	1	0.0737915	57.39646	0.0003251	4.061691	11	0.1593554	0.0117551	-327.67
	8	19	15890.62	0.0366566	0.0511354	1	0.0629169	54.36497	0.000324	4.061684	11	0.1592281	0.010016	-327.67
	9	21	12609.38	0.0340693	0.0419726	1	0.0540593	50.93367	0.0003277	4.061676	11	0.1591431	0.008602	-327.67
	10	23	10078.13	0.0319884	0.0345319	1	0.0470713	47.18972	0.0003259	4.061682	11	0.1590885	0.0074879	-327.67
	11	24	8015.625	0.0302803	0.0280889	1	0.0413024	42.84993	0.0003261	4.061675	11	0.1590513	0.0065688	-327.67
	12	26	6328.125	0.0289755	0.0224584	1	0.0366601	37.77862	0.0003226	4.061658	11	0.1590333	0.00583	-327.67
	13	27	5015.625	0.0280777	0.0178261	1	0.0332585	32.4109	0.00031	4.061656	11	0.1590184	0.0052886	-327.67
	14	29	3984.375	0.027496	0.014026	1	0.0308668	27.02658	0.0003215	4.061648	11	0.1590077	0.004908	-327.67
	15	30	3170.956	0.0271767	0.0108828	1	0.0292747	21.82344	0.0003209	4.061644	11	0.1590046	0.0046548	-327.67
	16	32	2527.573	0.0270604	0.0083167	1	0.0283096	17.08418	0.0003097	4.061643	11	0.1590043	0.0045013	-327.67
	17	34	1976.103	0.0270907	0.0060309	1	0.0277539	12.55056	0.0003211	4.061635	11	0.1589967	0.0044128	-327.67
	18	35	1577.524	0.0272147	0.0043397	1	0.0275586	9.06017	0.0003204	4.061625	11	0.1590036	0.0043819	-327.67
	19	37	1265.625	0.0274286	0.0030253	1	0.0275949	6.294133	0.0003236	4.061618	11	0.1589988	0.0043875	-327.67
	20	39	998.264	0.0277021	0.0018654	1	0.0277648	3.852442	0.0003237	4.061627	11	0.1590058	0.0044148	-327.67
	21	40	796.875	0.0279884	0.0010044	1	0.0280064	2.055223	0.0003185	4.061607	11	0.1590006	0.004453	-327.67
	22	42	627.7902	0.0283591	0.0002629	1	0.0283603	0.5311983	0.0003184	4.061599	11	0.1590046	0.0045094	-327.67
	23	43	505.5147	0.0285146	-1.621474E-005	1	0.0285146	-0.0325811	0.0003145	4.061517	11	0.1575919	0.0044937	-327.67
	24	45	397.9953	0.0289565	-0.0005402	1	0.0289615	-1.068725	0.0003126	4.061506	11	0.1606055	0.0046514	-327.67
	25	46	315.5048	0.0293729	-0.0009148	1	0.0293871	-1.783824	0.0003142	4.061506	11	0.1593378	0.0046825	-327.67
	26	48	252.4038	0.0297565	-0.0011735	1	0.0297796	-2.258454	0.0003122	4.061504	11	0.158971	0.0047341	-327.67
	27	49	198.6229	0.0301606	-0.0013699	1	0.0301917	-2.600661	0.0003119	4.061494	11	0.1588759	0.0047967	-327.67
	28	51	158.3615	0.0305138	-0.0014882	1	0.0305501	-2.7922	0.0003102	4.061486	11	0.1588874	0.004854	-327.67
	29	52	125.558	0.0308712	-0.0015612	1	0.0309107	-2.895136	0.0003203	4.061484	11	0.1589149	0.0049122	-327.67
	30	54	100.4464	0.0311946	-0.001587	1	0.031235	-2.912349	0.0003093	4.061475	11	0.1589428	0.0049646	-327.67
	31	55	79.00281	0.0315319	-0.0015757	1	0.0315713	-2.860758	0.0003146	4.06147	11	0.1589564	0.0050185	-327.67
	32	57	63.3446	0.03182	-0.0015293	1	0.0318567	-2.751542	0.0003095	4.06146	11	0.1589727	0.0050643	-327.67
	33	59	50.22321	0.0320997	-0.0014601	1	0.0321329	-2.604451	0.0003116	4.061456	11	0.1589798	0.0051085	-327.67
	34	60	38.42213	0.0323917	-0.0013499	1	0.0324198	-2.386401	0.0003163	4.061451	11	0.1589922	0.0051545	-327.67
	35	62	31.25	0.0325901	-0.0012534	1	0.0326142	-2.202531	0.0003181	4.061451	11	0.1589973	0.0051856	-327.67
	36	64	24.93351	0.0327612	-0.0011383	1	0.0327809	-1.989993	0.0003139	4.061434	11	0.1589885	0.0052118	-327.67
	37	65	19.86229	0.0329119	-0.0010271	1	0.0329279	-1.787547	0.0002847	4.061423	11	0.1589811	0.0052349	-327.67
	38	67	15.625	0.033053	-0.0009255	1	0.0330659	-1.603862	0.0003062	4.061416	11	0.1590113	0.0052579	-327.67
	39	68	12.40079	0.0331515	-0.0008212	1	0.0331616	-1.41893	0.0003015	4.061411	11	0.1589912	0.0052724	-327.67
	40	70	9.93114	0.033239	-0.0007499	1	0.0332475	-1.292389	0.0003221	4.061403	11	0.1590096	0.0052867	-327.67
	41	71	7.944915	0.0333092	-0.0006928	1	0.0333164	-1.191565	0.0002806	4.061412	11	0.1589986	0.0052973	-327.67
	42	73	6.317385	0.0333713	-0.0006417	1	0.0333774	-1.101676	0.0002359	4.061414	11	0.1589985	0.005307	-327.67
	43	75	5.008013	0.0334321	-0.000609	1	0.0334377	-1.043525	0.0003591	4.061393	11	0.1589678	0.0053155	-327.67
	44	78	3.945707	0.0334876	-0.0006058	1	0.0334931	-1.036418	0.0002675	4.061394	11	0.1590068	0.0053256	-327.67
	45	80	3.158693	0.0335454	-0.0006021	1	0.0335509	-1.028226	0.0002208	4.061388	11	0.1590043	0.0053347	-327.67
	46	83	2.504006	0.0334681	-0.0005214	1	0.0334722	-0.8924835	0.000331	4.061354	11	0.155448	0.0052032	-327.67
	47	86	1.998082	0.033572	-0.0005931	1	0.0335772	-1.012095	0.0001316	4.061323	11	0.1614004	0.0054194	-327.67
	48	90	1.584686	0.0336644	-0.000669	1	0.033671	-1.138521	0.0003533	4.061317	11	0.1598103	0.005381	-327.67
	49	95	1.266892	0.0337537	-0.0007413	1	0.0337618	-1.258156	0.0002935	4.061249	11	0.159306	0.0053785	-327.67
	50	101	0.999041	0.0338497	-0.0008214	1	0.0338597	-1.39012	0.0003211	4.06123	11	0.1590844	0.0053865	-327.67
	51	105	0.7923428	0.0339756	-0.0009064	1	0.0339877	-1.528181	0.0002858	4.061299	11	0.1593104	0.0054146	-327.67
	52	112	0.6334459	0.0340784	-0.0010187	1	0.0340936	-1.712269	0.0002806	4.061258	11	0.1589825	0.0054203	-327.67
	53	121	0.5040323	0.0342059	-0.0011401	1	0.0342249	-1.909009	0.0002772	4.061227	11	0.1589816	0.0054411	-327.67
	54	133	0.400641	0.0343504	-0.001285	1	0.0343745	-2.142399	0.0002836	4.061195	11	0.1589871	0.0054651	-327.67
	55	144	0.316723	0.0345324	-0.0014394	1	0.0345623	-2.38693	0.0002876	4.06116	11	0.15899	0.0054951	-327.67
	56	158	0.2520161	0.0347272	-0.0016095	1	0.0347644	-2.653574	0.0002721	4.061115	11	0.1589943	0.0055273	-327.67
	57	176	0.2003205	0.0349592	-0.0017977	1	0.0350054	-2.943798	0.0002839	4.061057	11	0.1589961	0.0055657	-327.67
	58	197	0.1588983	0.0352012	-0.0019934	1	0.0352576	-3.241181	0.000285	4.060993	11	0.1589977	0.0056059	-327.67
	59	229	0.1260081	0.0355083	-0.0021969	1	0.0355762	-3.540343	0.0002839	4.060978	11	0.1589979	0.0056565	-327.67
	60	259	0.1001603	0.0358313	-0.0024242	1	0.0359132	-3.870481	0.0002831	4.061047	11	0.1590007	0.0057102	-327.67
	61	295	0.0794492	0.0362055	-0.0026726	1	0.036304	-4.221815	0.0002809	4.061085	11	0.1589983	0.0057723	-327.67
	62	335	0.0631739	0.0364675	-0.0029622	1	0.0365876	-4.643879	0.0002848	4.060859	11	0.1589996	0.0058174	-327.67
	63	384	0.0501337	0.0368132	-0.0032826	1	0.0369593	-5.095598	0.0002822	4.060703	11	0.158999	0.0058765	-327.67
	64	445	0.0398258	0.0371757	-0.0036665	1	0.0373561	-5.632693	0.0002828	4.060521	11	0.1590007	0.0059397	-327.67
	65	547	0.0316296	0.037617	-0.0041187	1	0.0378418	-6.248472	0.0002821	4.060303	11	0.1590008	0.0060169	-327.67
	66	675	0.0251206	0.0380844	-0.0046389	1	0.0383658	-6.944746	0.0002782	4.060071	11	0.1590002	0.0061002	-327.67
	67	836	0.0199553	0.0386178	-0.0052681	1	0.0389755	-7.768094	0.0002846	4.059864	11	0.1589997	0.0061971	-327.67
	68	988	0.0158522	0.0392354	-0.0060046	1	0.0396922	-8.701041	0.000278	4.059681	11	0.1589999	0.0063111	-327.67
	69	1179	0.0125907	0.0399026	-0.0068408	1	0.0404847	-9.72804	0.0002839	4.059499	11	0.1589986	0.006437	-327.67
	70	1419	0.0100011	0.0406798	-0.007799	1	0.0414206	-10.85289	0.0002829	4.059261	11	0.1589994	0.0065859	-327.67
