EXPLAIN
TAG	GALVEIS
TITLE	LABEL	Galvanostatic EIS	Test Identifier
DATE	LABEL	23.4.2024	Date
TIME	LABEL	4:05:15	Time
NOTES	NOTES	1	Notes...
	
PSTAT	PSTAT	REF600-12055	Potentiostat
FREQINIT	QUANT	1.00000E+005	Initial Freq. (Hz)
FREQFINAL	QUANT	1.00000E-002	Final Freq. (Hz)
PTSPERDEC	QUANT	1.00000E+001	Points/decade
IACREQ	QUANT	1.61000E-001	AC Current (A rms)
IDCREQ	QUANT	0.00000E+000	DC Current (A)
AREA	QUANT	1.00000E+000	Sample Area (cm^2)
SPEED	SELECTOR	1	Optimize for:
DRIFTCOR	SELECTOR	0	Drift Correction
THD	SELECTOR	0	THD
ZGUESS	QUANT	1.00000E-001	Estimated Z (ohms)
EOC	QUANT	3.856852	Open Circuit (V)
SEQUENCER	TOGGLE	TRUE	Run as Sequence
PSTATMODEL	IQUANT	4	Pstat Model
PSTATSECTION	LABEL	REF600-12055	Pstat Section
PSTATSERIALNO	LABEL	12055	Pstat Serial Number
CTRLMODE	IQUANT	0	Control Mode
ELECTROMETER	IQUANT	0	RE=0 or CS=1
IESTAB	IQUANT	0	I/E Stability
CASPEED	IQUANT	4	Control Amp Speed
CONVENTION	IQUANT	1	Current Convention
ICHRANGE	IQUANT	2	Ich Range
ICHRANGEMODE	TOGGLE	F	Ich Auto Range
ICHOFFSETENABLE	TOGGLE	T	Ich Offset Enable
ICHOFFSET	QUANT	0	Ich Offset (V)
ICHFILTER	IQUANT	3	Ich Filter
VCHRANGE	IQUANT	2	Vch Range
VCHRANGEMODE	TOGGLE	F	Vch Auto Range
VCHOFFSETENABLE	TOGGLE	T	Vch Offset Enable
VCHOFFSET	QUANT	0	Vch Offset (V)
VCHFILTER	IQUANT	3	Vch Filter
ACHRANGE	IQUANT	2	Ach Range
ACHOFFSETENABLE	TOGGLE	F	Ach Offset Enable
ACHOFFSET	QUANT	0	Ach Offset (V)
ACHFILTER	IQUANT	1	Ach Filter
IERANGELOWERLIMIT	IQUANT	1	I/E Range Lower Limit
IERANGEMODE	TOGGLE	F	I/E AutoRange
IERANGE	IQUANT	7	I/E Range
POSFEEDENABLE	TOGGLE	F	Positive Feedback IR Comp
POSFEEDRESISTANCE	QUANT	0	Positive Feedback Resistance (ohm)
ACHSELECT	IQUANT	4	Ach Select
SENSECABLEID	IQUANT	14	Sense Cable ID
PWRCABLEID	IQUANT	14	Power Cable ID
DCCALDATE	LABEL	2/12/2024	DC Calibration Date
ACCALDATE	LABEL	2/12/2024	AC Calibration Date
THERMOSELECT	IQUANT	1	Thermo Select
FRAMEWORKVERSION	LABEL	7.10.3	Framework Version
INSTRUMENTVERSION	LABEL	4.91	Instrument Version
COMMVERSION	LABEL	2.24	Communications Version
CPUPLDVERSION	LABEL	0.00	CPU PLD Version
CTRLPLDVERSION	LABEL	0.00	CTRL PLD Version
PSTATPLDVERSION	LABEL	0.00	PSTAT PLD Version
ZCURVE	TABLE
	Pt	Time	Freq	Zreal	Zimag	Zsig	Zmod	Zphz	Idc	Vdc	IERange	Imod	Vmod	Temp
	#	s	Hz	ohm	ohm	V	ohm	°	A	V	#	A	V	°C
	0	5	100078.1	0.1014355	0.2373496	1	0.2581162	66.85971	3.096147E-005	3.856752	11	0.1616196	0.041413	-327.6853
	1	6	79453.13	0.0849164	0.1971954	1	0.2147017	66.70229	1.478195E-005	3.856768	11	0.1663457	0.0355496	-327.6853
	2	8	63140.62	0.0719684	0.1633504	1	0.1785016	66.22282	2.19408E-006	3.856778	11	0.1639758	0.0291837	-327.6853
	3	10	50203.12	0.0619363	0.1349149	1	0.1484525	65.34127	-6.86053E-006	3.856777	11	0.1629462	0.0241443	-327.6853
	4	12	39890.62	0.0542336	0.1110745	1	0.1236076	63.97546	-8.500647E-006	3.856792	11	0.1622822	0.0200353	-327.6853
	5	13	31640.63	0.0483055	0.0911903	1	0.1031944	62.08885	-1.215714E-005	3.856799	11	0.1618419	0.0166886	-327.6853
	6	15	25171.88	0.0437795	0.0750736	1	0.0869062	59.75119	-1.238461E-005	3.856793	11	0.1615494	0.0140329	-327.6853
	7	17	20015.62	0.0401493	0.06184	1	0.0737303	57.00652	-1.554866E-005	3.8568	11	0.1613549	0.0118931	-327.6853
	8	18	15890.62	0.037145	0.0508929	1	0.0630067	53.87555	-1.639221E-005	3.856798	11	0.1612282	0.0101565	-327.6853
	9	20	12609.38	0.0346185	0.0418167	1	0.054287	50.37991	-1.697127E-005	3.856811	11	0.1611454	0.008747	-327.6853
	10	22	10078.13	0.0325703	0.0344453	1	0.0474057	46.60262	-2.911163E-005	3.856814	11	0.1610816	0.0076356	-327.6853
	11	23	8015.625	0.030894	0.0280648	1	0.0417381	42.2527	-2.977531E-005	3.856822	11	0.1610594	0.006722	-327.6853
	12	25	6328.125	0.0295861	0.0225145	1	0.0371784	37.27049	-2.232147E-005	3.85682	11	0.1610322	0.0059867	-327.6853
	13	27	5015.625	0.0286786	0.0179547	1	0.0338354	32.04937	-1.803198E-005	3.856829	11	0.161015	0.0054479	-327.6853
	14	28	3984.375	0.0280836	0.0142232	1	0.03148	26.86038	-2.05019E-005	3.856836	11	0.1610048	0.0050684	-327.6853
	15	30	3170.956	0.0277302	0.0111531	1	0.0298891	21.90992	-2.263405E-005	3.856841	11	0.1610124	0.0048125	-327.6853
	16	32	2527.573	0.0275608	0.0086095	1	0.0288742	17.34788	-3.335415E-005	3.856847	11	0.1610001	0.0046487	-327.6853
	17	34	1976.103	0.0275116	0.0064353	1	0.0282542	13.16543	-1.909584E-005	3.856862	11	0.1610012	0.0045489	-327.6853
	18	35	1577.524	0.027576	0.004782	1	0.0279876	9.83783	-2.198596E-005	3.85686	11	0.1609951	0.0045059	-327.6853
	19	37	1265.625	0.0277018	0.0035573	1	0.0279293	7.317428	-2.129783E-005	3.856859	11	0.1610079	0.0044968	-327.6853
	20	38	998.264	0.0278909	0.0023862	1	0.0279928	4.889997	-2.48088E-005	3.856879	11	0.1609967	0.0045067	-327.6853
	21	40	796.875	0.0280845	0.0015296	1	0.0281261	3.117453	-3.459619E-005	3.856884	11	0.1610021	0.0045284	-327.6853
	22	41	627.7902	0.0283119	0.0008061	1	0.0283234	1.630833	-2.697909E-005	3.856884	11	0.1609931	0.0045599	-327.6853
	23	43	505.5147	0.0285433	0.0003184	1	0.0285451	0.6390234	-3.22854E-005	3.856896	11	0.159585	0.0045301	-327.6853
	24	44	397.9953	0.0288183	-0.0001272	1	0.0288186	-0.2528506	-3.22001E-005	3.856902	11	0.1626242	0.0046674	-327.6853
	25	46	315.5048	0.0290789	-0.0004737	1	0.0290828	-0.9333037	-1.865556E-005	3.856909	11	0.1613422	0.0046791	-327.6853
	26	47	252.4038	0.0293378	-0.0007446	1	0.0293472	-1.453794	-3.032398E-005	3.856916	11	0.1609657	0.004715	-327.6853
	27	49	198.6229	0.0296203	-0.0009815	1	0.0296366	-1.897819	-3.061397E-005	3.856922	11	0.1608809	0.0047622	-327.6853
	28	50	158.3615	0.0298856	-0.0011588	1	0.0299081	-2.220451	-3.014796E-005	3.856925	11	0.1608876	0.0048081	-327.6853
	29	52	125.558	0.0301676	-0.0012981	1	0.0301955	-2.463979	-2.781209E-005	3.856928	11	0.1609079	0.0048563	-327.6853
	30	54	100.4464	0.0304515	-0.0013996	1	0.0304837	-2.631626	-2.176408E-005	3.856934	11	0.1609444	0.0049046	-327.6853
	31	55	79.00281	0.0307488	-0.0014725	1	0.0307841	-2.741734	-2.307448E-005	3.856946	11	0.1609561	0.0049539	-327.6853
	32	57	63.3446	0.0310272	-0.0015227	1	0.0310645	-2.809683	-2.399448E-005	3.856951	11	0.1609753	0.005	-327.6853
	33	58	50.22321	0.0313163	-0.0015277	1	0.0313535	-2.792891	-3.040046E-005	3.856951	11	0.1609821	0.005047	-327.6853
	34	60	38.42213	0.0316388	-0.0015113	1	0.0316749	-2.734797	-2.94763E-005	3.856958	11	0.160988	0.005099	-327.6853
	35	61	31.25	0.031883	-0.0014727	1	0.031917	-2.644593	-6.631366E-006	3.856962	11	0.1609846	0.005138	-327.6853
	36	63	24.93351	0.032122	-0.0014186	1	0.0321533	-2.528684	-2.028444E-005	3.856976	11	0.1610065	0.0051768	-327.6853
	37	64	19.86229	0.0323501	-0.0013472	1	0.0323782	-2.384752	-5.967135E-005	3.856977	11	0.1609755	0.005212	-327.6853
	38	66	15.625	0.0325699	-0.001257	1	0.0325942	-2.210241	-1.82466E-005	3.85697	11	0.1610113	0.005248	-327.6853
	39	67	12.40079	0.0327413	-0.0011741	1	0.0327623	-2.053827	-2.463401E-005	3.856964	11	0.1609983	0.0052747	-327.6853
	40	69	9.93114	0.0328779	-0.0010988	1	0.0328963	-1.914137	-4.199042E-005	3.856969	11	0.160993	0.0052961	-327.6853
	41	70	7.944915	0.0330137	-0.0010316	1	0.0330298	-1.789847	3.376044E-009	3.856987	11	0.160994	0.0053176	-327.6853
	42	72	6.317385	0.0331262	-0.0009857	1	0.0331409	-1.704369	6.378978E-005	3.856999	11	0.1610246	0.0053365	-327.6853
	43	75	5.008013	0.0332317	-0.00095	1	0.0332453	-1.63749	-5.387038E-005	3.856999	11	0.1609807	0.0053518	-327.6853
	44	77	3.945707	0.0333371	-0.0009381	1	0.0333503	-1.611851	-5.549029E-005	3.85702	11	0.1609822	0.0053688	-327.6853
	45	80	3.158693	0.0334389	-0.0009452	1	0.0334522	-1.619111	-9.355135E-005	3.857044	11	0.1610211	0.0053865	-327.6853
	46	82	2.504006	0.0335439	-0.0009503	1	0.0335574	-1.62282	1.277076E-005	3.857049	11	0.1573751	0.0052591	-327.6853
	47	86	1.998082	0.0336418	-0.0009945	1	0.0336565	-1.693303	-0.0002882	3.857027	11	0.1635418	0.0054877	-327.6853
	48	90	1.584686	0.033756	-0.0010486	1	0.0337723	-1.779239	-0.0002107	3.857058	11	0.1617958	0.0054531	-327.6853
	49	94	1.266892	0.0338866	-0.0011013	1	0.0339045	-1.861365	0.000183	3.857044	11	0.1613331	0.0054625	-327.6853
	50	101	0.999041	0.0340111	-0.0011911	1	0.034032	-2.00575	0.0002076	3.85709	11	0.16112	0.0054785	-327.6853
	51	106	0.7923428	0.03419	-0.0012956	1	0.0342145	-2.170198	-4.156219E-005	3.857194	11	0.1611801	0.0055117	-327.6853
	52	113	0.6334459	0.0343215	-0.0014156	1	0.0343507	-2.361881	-4.058465E-005	3.857198	11	0.1609833	0.0055279	-327.6853
	53	122	0.5040323	0.0344904	-0.001539	1	0.0345248	-2.554967	-4.831376E-005	3.857228	11	0.1609821	0.0055566	-327.6853
	54	132	0.400641	0.0346762	-0.0016931	1	0.0347175	-2.795307	-4.086699E-005	3.857259	11	0.1609861	0.0055882	-327.6853
	55	146	0.316723	0.0348887	-0.0018746	1	0.034939	-3.075632	-4.123131E-005	3.857315	11	0.1609899	0.0056243	-327.6853
	56	160	0.2520161	0.0351099	-0.0020683	1	0.0351707	-3.371354	-4.324502E-005	3.857367	11	0.160993	0.0056619	-327.6853
	57	177	0.2003205	0.0353586	-0.0022846	1	0.0354323	-3.696879	-4.57459E-005	3.857429	11	0.1609969	0.0057043	-327.6853
	58	199	0.1588983	0.0356267	-0.0025378	1	0.035717	-4.074501	-4.126201E-005	3.857504	11	0.1609956	0.0057501	-327.6853
	59	230	0.1260081	0.0359532	-0.0028163	1	0.0360634	-4.478942	-4.158348E-005	3.857714	11	0.1609981	0.005806	-327.6853
	60	260	0.1001603	0.0363308	-0.003123	1	0.0364648	-4.913036	-4.196682E-005	3.858033	11	0.1610007	0.0058708	-327.6853
	61	297	0.0794492	0.0367165	-0.0034695	1	0.0368801	-5.398159	-4.101589E-005	3.858325	11	0.160999	0.0059376	-327.6853
	62	349	0.0631739	0.037037	-0.0038875	1	0.0372405	-5.992023	-4.109099E-005	3.85829	11	0.1610008	0.0059957	-327.6853
	63	398	0.0501337	0.0374383	-0.0043583	1	0.0376911	-6.640122	-4.030813E-005	3.858359	11	0.1609992	0.0060682	-327.6853
	64	479	0.0398258	0.0378815	-0.0048991	1	0.0381969	-7.369061	-4.20779E-005	3.858491	11	0.1609984	0.0061496	-327.6853
	65	556	0.0316296	0.0383819	-0.0055327	1	0.0387787	-8.20265	-4.227374E-005	3.858644	11	0.1610011	0.0062434	-327.6853
	66	652	0.0251206	0.0389168	-0.0062913	1	0.0394221	-9.18295	-4.19467E-005	3.858843	11	0.1609994	0.0063469	-327.6853
	67	813	0.0199553	0.0395427	-0.0071741	1	0.0401882	-10.28315	-4.687889E-005	3.859082	11	0.1610008	0.0064703	-327.6853
	68	1015	0.0158522	0.0402623	-0.0082157	1	0.0410919	-11.53315	-4.072725E-005	3.859333	11	0.1610004	0.0066158	-327.6853
	69	1206	0.0125907	0.0411165	-0.0094771	1	0.0421946	-12.97965	-4.726245E-005	3.859591	11	0.1609997	0.0067933	-327.6853
	70	1525	0.0100011	0.0421433	-0.0108774	1	0.0435245	-14.47246	-4.062468E-005	3.859879	11	0.1609997	0.0070074	-327.6853
