EXPLAIN
TAG	GALVEIS
TITLE	LABEL	Galvanostatic EIS	Test Identifier
DATE	LABEL	23.4.2024	Date
TIME	LABEL	6:41:59	Time
NOTES	NOTES	1	Notes...
	
PSTAT	PSTAT	REF600-12055	Potentiostat
FREQINIT	QUANT	1.00000E+005	Initial Freq. (Hz)
FREQFINAL	QUANT	1.00000E-002	Final Freq. (Hz)
PTSPERDEC	QUANT	1.00000E+001	Points/decade
IACREQ	QUANT	1.59000E-001	AC Current (A rms)
IDCREQ	QUANT	0.00000E+000	DC Current (A)
AREA	QUANT	1.00000E+000	Sample Area (cm^2)
SPEED	SELECTOR	1	Optimize for:
DRIFTCOR	SELECTOR	0	Drift Correction
THD	SELECTOR	0	THD
ZGUESS	QUANT	1.00000E-001	Estimated Z (ohms)
EOC	QUANT	3.663216	Open Circuit (V)
SEQUENCER	TOGGLE	TRUE	Run as Sequence
PSTATMODEL	IQUANT	4	Pstat Model
PSTATSECTION	LABEL	REF600-12055	Pstat Section
PSTATSERIALNO	LABEL	12055	Pstat Serial Number
CTRLMODE	IQUANT	0	Control Mode
ELECTROMETER	IQUANT	0	RE=0 or CS=1
IESTAB	IQUANT	0	I/E Stability
CASPEED	IQUANT	4	Control Amp Speed
CONVENTION	IQUANT	1	Current Convention
ICHRANGE	IQUANT	2	Ich Range
ICHRANGEMODE	TOGGLE	F	Ich Auto Range
ICHOFFSETENABLE	TOGGLE	T	Ich Offset Enable
ICHOFFSET	QUANT	0	Ich Offset (V)
ICHFILTER	IQUANT	3	Ich Filter
VCHRANGE	IQUANT	2	Vch Range
VCHRANGEMODE	TOGGLE	F	Vch Auto Range
VCHOFFSETENABLE	TOGGLE	T	Vch Offset Enable
VCHOFFSET	QUANT	0	Vch Offset (V)
VCHFILTER	IQUANT	3	Vch Filter
ACHRANGE	IQUANT	2	Ach Range
ACHOFFSETENABLE	TOGGLE	F	Ach Offset Enable
ACHOFFSET	QUANT	0	Ach Offset (V)
ACHFILTER	IQUANT	1	Ach Filter
IERANGELOWERLIMIT	IQUANT	1	I/E Range Lower Limit
IERANGEMODE	TOGGLE	F	I/E AutoRange
IERANGE	IQUANT	7	I/E Range
POSFEEDENABLE	TOGGLE	F	Positive Feedback IR Comp
POSFEEDRESISTANCE	QUANT	0	Positive Feedback Resistance (ohm)
ACHSELECT	IQUANT	4	Ach Select
SENSECABLEID	IQUANT	14	Sense Cable ID
PWRCABLEID	IQUANT	14	Power Cable ID
DCCALDATE	LABEL	2/12/2024	DC Calibration Date
ACCALDATE	LABEL	2/12/2024	AC Calibration Date
THERMOSELECT	IQUANT	1	Thermo Select
FRAMEWORKVERSION	LABEL	7.10.3	Framework Version
INSTRUMENTVERSION	LABEL	4.91	Instrument Version
COMMVERSION	LABEL	2.24	Communications Version
CPUPLDVERSION	LABEL	0.00	CPU PLD Version
CTRLPLDVERSION	LABEL	0.00	CTRL PLD Version
PSTATPLDVERSION	LABEL	0.00	PSTAT PLD Version
ZCURVE	TABLE
	Pt	Time	Freq	Zreal	Zimag	Zsig	Zmod	Zphz	Idc	Vdc	IERange	Imod	Vmod	Temp
	#	s	Hz	ohm	ohm	V	ohm	°	A	V	#	A	V	°C
	0	5	100078.1	0.1013407	0.2375324	1	0.2582471	66.895	2.580415E-005	3.663131	11	0.1596613	0.0409319	-327.6853
	1	6	79453.13	0.0848645	0.1973127	1	0.214789	66.72738	1.386669E-005	3.663145	11	0.1642847	0.0351234	-327.6853
	2	8	63140.62	0.0719577	0.1634312	1	0.1785712	66.23642	2.358458E-006	3.663147	11	0.1619677	0.0288375	-327.6853
	3	10	50203.12	0.0619478	0.134968	1	0.1485056	65.34576	-3.275229E-006	3.663152	11	0.1609299	0.0238541	-327.6853
	4	12	39890.62	0.0542463	0.1111122	1	0.123647	63.97781	-6.047747E-006	3.663162	11	0.1602747	0.0197938	-327.6853
	5	13	31640.63	0.0483338	0.0912164	1	0.1032307	62.08173	-1.068111E-005	3.663153	11	0.1598388	0.0164878	-327.6853
	6	15	25171.88	0.0438131	0.0750933	1	0.0869402	59.73862	-1.780619E-005	3.663164	11	0.1595442	0.0138641	-327.6853
	7	17	20015.62	0.0401907	0.0618552	1	0.0737655	56.98602	-2.142304E-005	3.663172	11	0.159354	0.0117513	-327.6853
	8	19	15890.62	0.0371885	0.0509061	1	0.063043	53.8507	-2.071983E-005	3.663161	11	0.1592232	0.010036	-327.6853
	9	20	12609.38	0.0346708	0.041825	1	0.0543267	50.34303	-1.628138E-005	3.663167	11	0.1591437	0.0086447	-327.6853
	10	22	10078.13	0.0326217	0.0344462	1	0.0474417	46.55829	-1.756474E-005	3.663181	11	0.1590829	0.0075466	-327.6853
	11	23	8015.625	0.0309435	0.0280743	1	0.0417812	42.21671	-1.982902E-005	3.663176	11	0.1590577	0.0066453	-327.6853
	12	25	6328.125	0.0296316	0.0225226	1	0.0372196	37.23798	-1.996814E-005	3.663182	11	0.1590319	0.0059189	-327.6853
	13	27	5015.625	0.0287359	0.0179536	1	0.0338834	31.99625	-2.845575E-005	3.663194	11	0.1590143	0.0053878	-327.6853
	14	28	3984.375	0.0281278	0.0141969	1	0.0315075	26.7814	-3.203301E-005	3.663188	11	0.1590115	0.00501	-327.6853
	15	30	3170.956	0.0277854	0.0111085	1	0.0299237	21.79137	-3.075192E-005	3.663199	11	0.1590043	0.004758	-327.6853
	16	31	2527.573	0.0276053	0.0086394	1	0.0289256	17.37821	-3.261131E-005	3.663197	11	0.1590017	0.0045992	-327.6853
	17	33	1976.103	0.0275798	0.0063607	1	0.0283038	12.98702	-3.420492E-005	3.663199	11	0.159001	0.0045003	-327.6853
	18	34	1577.524	0.027643	0.0048249	1	0.028061	9.90087	-1.756547E-005	3.663213	11	0.1590058	0.0044618	-327.6853
	19	36	1265.625	0.0277642	0.0034609	1	0.0279791	7.105527	-1.967326E-005	3.663216	11	0.1589954	0.0044485	-327.6853
	20	38	998.264	0.0279455	0.0024123	1	0.0280495	4.933677	-1.70306E-005	3.66322	11	0.1590017	0.0044599	-327.6853
	21	39	796.875	0.02815	0.0015392	1	0.028192	3.129828	-1.634506E-005	3.663226	11	0.1589984	0.0044825	-327.6853
	22	41	627.7902	0.0283819	0.0008285	1	0.028394	1.672003	-2.093555E-005	3.663216	11	0.1589973	0.0045146	-327.6853
	23	42	505.5147	0.0286404	0.0002809	1	0.0286418	0.5620248	-1.92672E-005	3.663236	11	0.1576025	0.0044889	-327.6853
	24	44	397.9953	0.0289225	-0.000159	1	0.028923	-0.3150017	-1.820747E-005	3.663237	11	0.1606014	0.004626	-327.6853
	25	45	315.5048	0.0291939	-0.000506	1	0.0291983	-0.993049	-1.933059E-005	3.663243	11	0.1593423	0.0046394	-327.6853
	26	47	252.4038	0.0294525	-0.0007741	1	0.0294627	-1.5055	-3.161124E-005	3.663249	11	0.1589679	0.0046748	-327.6853
	27	48	198.6229	0.0297441	-0.0010014	1	0.029761	-1.928276	-3.143327E-005	3.663257	11	0.1588779	0.0047227	-327.6853
	28	50	158.3615	0.0300185	-0.0011669	1	0.0300412	-2.226107	-3.082465E-005	3.66326	11	0.1588901	0.0047695	-327.6853
	29	51	125.558	0.0303061	-0.0012987	1	0.0303339	-2.453731	-2.184149E-005	3.663266	11	0.1589136	0.0048181	-327.6853
	30	53	100.4464	0.0305839	-0.0013887	1	0.0306155	-2.599875	-1.980067E-005	3.663269	11	0.1589368	0.0048644	-327.6853
	31	55	79.00281	0.0308933	-0.001451	1	0.0309274	-2.689186	-1.989875E-005	3.663276	11	0.1589605	0.0049153	-327.6853
	32	56	63.3446	0.0311584	-0.0014767	1	0.0311934	-2.713356	-1.990586E-005	3.663283	11	0.1589746	0.0049583	-327.6853
	33	58	50.22321	0.031445	-0.0014712	1	0.0314794	-2.678686	-1.766789E-005	3.663286	11	0.1589826	0.0050043	-327.6853
	34	60	38.42213	0.0317595	-0.0014362	1	0.031792	-2.589236	-1.96633E-005	3.663295	11	0.1589824	0.0050541	-327.6853
	35	61	31.25	0.0319869	-0.0013866	1	0.0320169	-2.482118	-3.925571E-005	3.663298	11	0.1589957	0.0050904	-327.6853
	36	63	24.93351	0.0322154	-0.001317	1	0.0322423	-2.340938	-2.141774E-005	3.663299	11	0.1589994	0.0051264	-327.6853
	37	64	19.86229	0.0324034	-0.0012307	1	0.0324268	-2.175102	-4.809932E-006	3.663313	11	0.1589887	0.0051554	-327.6853
	38	66	15.625	0.0326015	-0.0011355	1	0.0326213	-1.99485	-1.65673E-005	3.663302	11	0.1589883	0.0051864	-327.6853
	39	67	12.40079	0.0327657	-0.0010358	1	0.032782	-1.810721	-5.809357E-006	3.663323	11	0.1589977	0.0052122	-327.6853
	40	69	9.93114	0.0328914	-0.0009687	1	0.0329057	-1.686914	-3.724566E-005	3.663321	11	0.1590132	0.0052324	-327.6853
	41	70	7.944915	0.0330014	-0.0008955	1	0.0330135	-1.554407	8.71066E-006	3.663317	11	0.1589996	0.0052491	-327.6853
	42	72	6.317385	0.0330981	-0.000827	1	0.0331084	-1.431371	2.092245E-005	3.663316	11	0.1589698	0.0052632	-327.6853
	43	74	5.008013	0.0331851	-0.0007934	1	0.0331946	-1.369619	2.140377E-005	3.663304	11	0.15901	0.0052783	-327.6853
	44	77	3.945707	0.0332622	-0.0007604	1	0.0332709	-1.309566	-1.7099E-005	3.663321	11	0.1590194	0.0052907	-327.6853
	45	79	3.158693	0.0333474	-0.0007543	1	0.033356	-1.295696	5.227257E-005	3.663315	11	0.1589882	0.0053032	-327.6853
	46	82	2.504006	0.0334358	-0.0007502	1	0.0334442	-1.285338	2.673676E-005	3.663308	11	0.1554114	0.005176	-327.6853
	47	85	1.998082	0.033523	-0.0007635	1	0.0335317	-1.30469	-0.0001178	3.663296	11	0.1613678	0.0053946	-327.6853
	48	88	1.584686	0.0336088	-0.0007962	1	0.0336182	-1.357091	-0.0003013	3.663305	11	0.1600289	0.0053689	-327.6853
	49	92	1.266892	0.0336995	-0.0008177	1	0.0337094	-1.389984	0.0001669	3.66337	11	0.1592365	0.0053605	-327.6853
	50	97	0.999041	0.0338029	-0.0008727	1	0.0338142	-1.478818	0.0001198	3.663394	11	0.1590395	0.0053732	-327.6853
	51	103	0.7923428	0.0339155	-0.0009272	1	0.0339282	-1.565992	-3.56551E-005	3.663419	11	0.1592633	0.0054006	-327.6853
	52	111	0.6334459	0.0340209	-0.0009932	1	0.0340354	-1.672231	-3.921179E-005	3.663443	11	0.1589839	0.0054092	-327.6853
	53	118	0.5040323	0.0341447	-0.0010689	1	0.0341615	-1.79311	-4.068206E-005	3.663465	11	0.1589823	0.0054298	-327.6853
	54	128	0.400641	0.0342758	-0.001161	1	0.0342955	-1.940039	-4.04673E-005	3.663494	11	0.158986	0.0054517	-327.6853
	55	139	0.316723	0.034424	-0.001274	1	0.0344476	-2.119558	-4.236224E-005	3.663527	11	0.1589902	0.0054763	-327.6853
	56	154	0.2520161	0.0345678	-0.0013941	1	0.0345959	-2.309458	-4.059281E-005	3.663563	11	0.1589945	0.0055003	-327.6853
	57	171	0.2003205	0.0347363	-0.0015442	1	0.0347706	-2.545357	-4.058972E-005	3.663621	11	0.158994	0.0055281	-327.6853
	58	197	0.1588983	0.0349159	-0.0017123	1	0.0349578	-2.807565	-3.908153E-005	3.663691	11	0.1589977	0.0055581	-327.6853
	59	229	0.1260081	0.0351261	-0.0019073	1	0.0351778	-3.108058	-4.212921E-005	3.663842	11	0.158999	0.0055932	-327.6853
	60	267	0.1001603	0.0353969	-0.0021205	1	0.0354604	-3.428344	-3.978929E-005	3.664078	11	0.1589982	0.0056381	-327.6853
	61	303	0.0794492	0.0356824	-0.002368	1	0.0357608	-3.796694	-4.06224E-005	3.664306	11	0.1589998	0.0056859	-327.6853
	62	343	0.0631739	0.0358802	-0.0026695	1	0.0359794	-4.254942	-4.187362E-005	3.664268	11	0.1589988	0.0057207	-327.6853
	63	392	0.0501337	0.0361409	-0.0030172	1	0.0362666	-4.772256	-4.180815E-005	3.664326	11	0.1590007	0.0057664	-327.6853
	64	473	0.0398258	0.0364664	-0.0034209	1	0.0366265	-5.359194	-4.162127E-005	3.664439	11	0.1589987	0.0058236	-327.6853
	65	550	0.0316296	0.0368238	-0.0039094	1	0.0370307	-6.060124	-4.072571E-005	3.664562	11	0.1590001	0.0058879	-327.6853
	66	646	0.0251206	0.0372463	-0.0044954	1	0.0375166	-6.881996	-4.172344E-005	3.664735	11	0.1590007	0.0059652	-327.6853
	67	807	0.0199553	0.0377187	-0.0051837	1	0.0380733	-7.825212	-4.105419E-005	3.664947	11	0.1589998	0.0060536	-327.6853
	68	1009	0.0158522	0.0383002	-0.006008	1	0.0387686	-8.91513	-4.020886E-005	3.6652	11	0.1589998	0.0061642	-327.6853
	69	1263	0.0125907	0.0389884	-0.0069652	1	0.0396056	-10.12899	-3.52616E-005	3.665453	11	0.1589993	0.0062973	-327.6853
	70	1503	0.0100011	0.0398241	-0.0080591	1	0.0406314	-11.44029	-4.078692E-005	3.665689	11	0.1590001	0.0064604	-327.6853
