EXPLAIN
TAG	GALVEIS
TITLE	LABEL	Galvanostatic EIS	Test Identifier
DATE	LABEL	23.4.2024	Date
TIME	LABEL	9:26:36	Time
NOTES	NOTES	1	Notes...
	
PSTAT	PSTAT	REF600-12055	Potentiostat
FREQINIT	QUANT	1.00000E+005	Initial Freq. (Hz)
FREQFINAL	QUANT	1.00000E-002	Final Freq. (Hz)
PTSPERDEC	QUANT	1.00000E+001	Points/decade
IACREQ	QUANT	1.59000E-001	AC Current (A rms)
IDCREQ	QUANT	0.00000E+000	DC Current (A)
AREA	QUANT	1.00000E+000	Sample Area (cm^2)
SPEED	SELECTOR	1	Optimize for:
DRIFTCOR	SELECTOR	0	Drift Correction
THD	SELECTOR	0	THD
ZGUESS	QUANT	1.00000E-001	Estimated Z (ohms)
EOC	QUANT	3.530131	Open Circuit (V)
SEQUENCER	TOGGLE	TRUE	Run as Sequence
PSTATMODEL	IQUANT	4	Pstat Model
PSTATSECTION	LABEL	REF600-12055	Pstat Section
PSTATSERIALNO	LABEL	12055	Pstat Serial Number
CTRLMODE	IQUANT	0	Control Mode
ELECTROMETER	IQUANT	0	RE=0 or CS=1
IESTAB	IQUANT	0	I/E Stability
CASPEED	IQUANT	4	Control Amp Speed
CONVENTION	IQUANT	1	Current Convention
ICHRANGE	IQUANT	2	Ich Range
ICHRANGEMODE	TOGGLE	F	Ich Auto Range
ICHOFFSETENABLE	TOGGLE	T	Ich Offset Enable
ICHOFFSET	QUANT	0	Ich Offset (V)
ICHFILTER	IQUANT	3	Ich Filter
VCHRANGE	IQUANT	2	Vch Range
VCHRANGEMODE	TOGGLE	F	Vch Auto Range
VCHOFFSETENABLE	TOGGLE	T	Vch Offset Enable
VCHOFFSET	QUANT	0	Vch Offset (V)
VCHFILTER	IQUANT	3	Vch Filter
ACHRANGE	IQUANT	2	Ach Range
ACHOFFSETENABLE	TOGGLE	F	Ach Offset Enable
ACHOFFSET	QUANT	0	Ach Offset (V)
ACHFILTER	IQUANT	1	Ach Filter
IERANGELOWERLIMIT	IQUANT	1	I/E Range Lower Limit
IERANGEMODE	TOGGLE	F	I/E AutoRange
IERANGE	IQUANT	7	I/E Range
POSFEEDENABLE	TOGGLE	F	Positive Feedback IR Comp
POSFEEDRESISTANCE	QUANT	0	Positive Feedback Resistance (ohm)
ACHSELECT	IQUANT	4	Ach Select
SENSECABLEID	IQUANT	14	Sense Cable ID
PWRCABLEID	IQUANT	14	Power Cable ID
DCCALDATE	LABEL	2/12/2024	DC Calibration Date
ACCALDATE	LABEL	2/12/2024	AC Calibration Date
THERMOSELECT	IQUANT	1	Thermo Select
FRAMEWORKVERSION	LABEL	7.10.3	Framework Version
INSTRUMENTVERSION	LABEL	4.91	Instrument Version
COMMVERSION	LABEL	2.24	Communications Version
CPUPLDVERSION	LABEL	0.00	CPU PLD Version
CTRLPLDVERSION	LABEL	0.00	CTRL PLD Version
PSTATPLDVERSION	LABEL	0.00	PSTAT PLD Version
ZCURVE	TABLE
	Pt	Time	Freq	Zreal	Zimag	Zsig	Zmod	Zphz	Idc	Vdc	IERange	Imod	Vmod	Temp
	#	s	Hz	ohm	ohm	V	ohm	°	A	V	#	A	V	°C
	0	5	100078.1	0.1012846	0.2379614	1	0.2586198	66.94371	2.892222E-005	3.530022	11	0.1596729	0.040994	-327.6853
	1	7	79453.13	0.0848365	0.1976339	1	0.215073	66.76804	5.617156E-006	3.530023	11	0.1642722	0.0351672	-327.6853
	2	9	63140.62	0.0719453	0.1636762	1	0.1787905	66.2717	2.702815E-006	3.530026	11	0.1619543	0.0288706	-327.6853
	3	11	50203.12	0.0619416	0.1351506	1	0.1486689	65.3773	-7.023802E-006	3.530014	11	0.1609254	0.0238797	-327.6853
	4	12	39890.62	0.0542685	0.1112508	1	0.1237813	63.99671	-1.724402E-005	3.530031	11	0.1602771	0.0198156	-327.6853
	5	14	31640.63	0.0483647	0.0913242	1	0.1033404	62.09458	-1.071999E-005	3.530036	11	0.159833	0.0165047	-327.6853
	6	16	25171.88	0.0438496	0.0751669	1	0.0870221	59.74232	-1.46972E-005	3.530028	11	0.1595451	0.0138773	-327.6853
	7	17	20015.62	0.0402303	0.0619214	1	0.0738427	56.98825	-1.821341E-005	3.530025	11	0.1593513	0.0117634	-327.6853
	8	19	15890.62	0.0372356	0.0509556	1	0.0631107	53.84272	-1.7485E-005	3.530032	11	0.1592287	0.0100471	-327.6853
	9	21	12609.38	0.0347048	0.0418606	1	0.0543759	50.33938	-2.616562E-005	3.530038	11	0.1591376	0.0086522	-327.6853
	10	22	10078.13	0.0326662	0.0344704	1	0.0474899	46.53942	-2.297049E-005	3.530047	11	0.1590868	0.0075544	-327.6853
	11	24	8015.625	0.0309888	0.0280799	1	0.0418185	42.18074	-1.993182E-005	3.530043	11	0.1590582	0.0066513	-327.6853
	12	26	6328.125	0.0296849	0.0225247	1	0.0372633	37.19098	-1.907267E-005	3.53004	11	0.1590324	0.0059259	-327.6853
	13	27	5015.625	0.0287781	0.0179664	1	0.033926	31.97691	-1.9737E-005	3.530052	11	0.1590157	0.0053947	-327.6853
	14	29	3984.375	0.0281814	0.0141925	1	0.0315534	26.73044	-1.662609E-005	3.530056	11	0.1590028	0.005017	-327.6853
	15	31	3170.956	0.0278276	0.0110979	1	0.029959	21.74245	-2.143893E-005	3.530044	11	0.1590079	0.0047637	-327.6853
	16	32	2527.573	0.0276599	0.00861	1	0.028969	17.29047	-1.958758E-005	3.530048	11	0.1590052	0.0046062	-327.6853
	17	34	1976.103	0.027634	0.0064179	1	0.0283695	13.07504	-2.251682E-005	3.530048	11	0.1590055	0.0045109	-327.6853
	18	35	1577.524	0.0277071	0.0047832	1	0.0281169	9.79476	-1.918897E-005	3.530064	11	0.1590007	0.0044706	-327.6853
	19	37	1265.625	0.0278192	0.0034813	1	0.0280362	7.132871	-1.902482E-005	3.53007	11	0.158994	0.0044576	-327.6853
	20	39	998.264	0.0280054	0.0023679	1	0.0281054	4.832966	-2.012087E-005	3.530073	11	0.1590011	0.0044688	-327.6853
	21	40	796.875	0.0282502	0.001513	1	0.0282907	3.065765	-2.307945E-005	3.530071	11	0.1590103	0.0044985	-327.6853
	22	42	627.7902	0.0284823	0.0007633	1	0.0284925	1.535074	-2.380111E-005	3.530078	11	0.1589964	0.0045302	-327.6853
	23	43	505.5147	0.0287147	0.0002231	1	0.0287156	0.4450639	-1.869015E-005	3.530086	11	0.1575959	0.0045003	-327.6853
	24	45	397.9953	0.0290022	-0.0002271	1	0.0290031	-0.4485818	-2.039655E-005	3.530092	11	0.1606017	0.0046388	-327.6853
	25	46	315.5048	0.0292847	-0.0005836	1	0.0292905	-1.141732	-2.137522E-005	3.530091	11	0.159333	0.0046538	-327.6853
	26	48	252.4038	0.0295606	-0.0008641	1	0.0295733	-1.674399	-2.112292E-005	3.530101	11	0.1589731	0.0046925	-327.6853
	27	49	198.6229	0.0298564	-0.0010996	1	0.0298767	-2.109305	-2.13373E-005	3.530098	11	0.1588763	0.004741	-327.6853
	28	51	158.3615	0.0301467	-0.001287	1	0.0301742	-2.444558	-2.076779E-005	3.530102	11	0.1588872	0.0047906	-327.6853
	29	52	125.558	0.0304471	-0.001435	1	0.0304809	-2.698423	-2.107059E-005	3.530103	11	0.1589101	0.0048413	-327.6853
	30	54	100.4464	0.0307415	-0.001543	1	0.0307802	-2.873352	-1.591083E-005	3.530111	11	0.158943	0.0048907	-327.6853
	31	56	79.00281	0.0310609	-0.0016287	1	0.0311036	-3.001614	-1.775671E-005	3.530111	11	0.1589574	0.0049432	-327.6853
	32	57	63.3446	0.031359	-0.0016819	1	0.0314041	-3.070057	-2.254714E-005	3.530117	11	0.1589789	0.004992	-327.6853
	33	59	50.22321	0.0316646	-0.0017125	1	0.0317109	-3.095718	-2.418796E-005	3.530118	11	0.1589825	0.0050411	-327.6853
	34	61	38.42213	0.0320291	-0.0017087	1	0.0320747	-3.053701	-1.875928E-005	3.530117	11	0.158986	0.0050992	-327.6853
	35	62	31.25	0.0323056	-0.0016767	1	0.0323491	-2.971101	-4.883274E-006	3.530123	11	0.158991	0.0051431	-327.6853
	36	64	24.93351	0.0325865	-0.0016418	1	0.0326278	-2.884258	-1.944695E-005	3.530136	11	0.1589954	0.0051876	-327.6853
	37	65	19.86229	0.0328488	-0.0015543	1	0.0328855	-2.70904	-3.483729E-005	3.530133	11	0.1589944	0.0052285	-327.6853
	38	67	15.625	0.0331245	-0.0014778	1	0.0331575	-2.554509	-2.006938E-005	3.530134	11	0.1589956	0.0052718	-327.6853
	39	68	12.40079	0.0333597	-0.0013934	1	0.0333887	-2.391746	-8.998613E-006	3.530136	11	0.158999	0.0053088	-327.6853
	40	70	9.93114	0.0335334	-0.0012776	1	0.0335578	-2.181847	-2.194494E-005	3.530138	11	0.1590047	0.0053358	-327.6853
	41	72	7.944915	0.0336997	-0.0011807	1	0.0337204	-2.006631	-2.555389E-005	3.530153	11	0.1589762	0.0053607	-327.6853
	42	73	6.317385	0.0338483	-0.0010883	1	0.0338658	-1.841479	6.887596E-005	3.530163	11	0.1590391	0.005386	-327.6853
	43	76	5.008013	0.0339706	-0.0010136	1	0.0339857	-1.709113	-6.544939E-005	3.53018	11	0.1589636	0.0054025	-327.6853
	44	78	3.945707	0.0340871	-0.0009544	1	0.0341005	-1.603832	-2.77074E-005	3.530184	11	0.1590166	0.0054225	-327.6853
	45	80	3.158693	0.0341868	-0.0009142	1	0.0341991	-1.531752	-0.0001034	3.530199	11	0.158982	0.005437	-327.6853
	46	84	2.504006	0.0342936	-0.000882	1	0.034305	-1.473293	-6.114948E-005	3.530216	11	0.1554191	0.0053095	-327.6853
	47	87	1.998082	0.0343883	-0.0008764	1	0.0343994	-1.459813	2.064971E-005	3.530234	11	0.161351	0.0055337	-327.6853
	48	91	1.584686	0.0344812	-0.0008886	1	0.0344926	-1.476139	0.0002131	3.530245	11	0.160016	0.0055081	-327.6853
	49	95	1.266892	0.0345823	-0.0009146	1	0.0345943	-1.514947	-0.000177	3.530199	11	0.159236	0.0055012	-327.6853
	50	101	0.999041	0.034692	-0.0009552	1	0.0347051	-1.577243	-0.0001271	3.530197	11	0.1590562	0.0055153	-327.6853
	51	107	0.7923428	0.0348137	-0.0009957	1	0.034828	-1.638208	-4.112517E-005	3.530279	11	0.1592746	0.0055442	-327.6853
	52	113	0.6334459	0.0349248	-0.0010551	1	0.0349407	-1.730474	-4.223982E-005	3.53028	11	0.1589827	0.005553	-327.6853
	53	123	0.5040323	0.0350539	-0.0011277	1	0.035072	-1.842666	-4.322027E-005	3.530298	11	0.1589816	0.0055746	-327.6853
	54	134	0.400641	0.0351871	-0.0012126	1	0.035208	-1.973727	-4.062748E-005	3.530321	11	0.1589859	0.0055968	-327.6853
	55	146	0.316723	0.0353324	-0.0013173	1	0.0353569	-2.135223	-3.953786E-005	3.530346	11	0.1589911	0.0056209	-327.6853
	56	163	0.2520161	0.0354879	-0.0014385	1	0.0355171	-2.321231	-4.659931E-005	3.53039	11	0.1589945	0.0056467	-327.6853
	57	180	0.2003205	0.0356525	-0.0015859	1	0.0356878	-2.54703	-4.12907E-005	3.530431	11	0.1589942	0.0056739	-327.6853
	58	202	0.1588983	0.0358318	-0.0017553	1	0.0358748	-2.804441	-4.125987E-005	3.530485	11	0.1589984	0.0057039	-327.6853
	59	233	0.1260081	0.0360534	-0.0019521	1	0.0361062	-3.099284	-4.228081E-005	3.530642	11	0.1589979	0.0057407	-327.6853
	60	264	0.1001603	0.0363028	-0.0021866	1	0.0363686	-3.446959	-4.243291E-005	3.530892	11	0.1589991	0.0057825	-327.6853
	61	300	0.0794492	0.0365651	-0.0024557	1	0.0366475	-3.84226	-4.07929E-005	3.531134	11	0.1589994	0.0058269	-327.6853
	62	352	0.0631739	0.0367599	-0.0027947	1	0.036866	-4.347515	-4.795853E-005	3.531102	11	0.1590009	0.0058617	-327.6853
	63	417	0.0501337	0.0370288	-0.0031737	1	0.0371646	-4.898727	-4.096159E-005	3.531168	11	0.1589999	0.0059091	-327.6853
	64	478	0.0398258	0.0373485	-0.0036381	1	0.0375253	-5.563613	-4.151958E-005	3.531281	11	0.158998	0.0059664	-327.6853
	65	580	0.0316296	0.0376946	-0.0041794	1	0.0379256	-6.326801	-4.25447E-005	3.531433	11	0.1589997	0.0060302	-327.6853
	66	676	0.0251206	0.0381104	-0.0048416	1	0.0384167	-7.240153	-4.018938E-005	3.531627	11	0.1590008	0.0061083	-327.6853
	67	837	0.0199553	0.03857	-0.0056295	1	0.0389787	-8.303944	-4.006395E-005	3.531867	11	0.159	0.0061976	-327.6853
	68	1039	0.0158522	0.0391416	-0.006563	1	0.039688	-9.51843	-4.133838E-005	3.532139	11	0.1589994	0.0063104	-327.6853
	69	1230	0.0125907	0.0398195	-0.0076904	1	0.0405553	-10.93101	-3.668085E-005	3.532425	11	0.1589987	0.0064482	-327.6853
	70	1470	0.0100011	0.040665	-0.0089812	1	0.0416449	-12.45432	-4.083618E-005	3.532762	11	0.1590005	0.0066216	-327.6853
