EXPLAIN
TAG	GALVEIS
TITLE	LABEL	Galvanostatic EIS	Test Identifier
DATE	LABEL	23.4.2024	Date
TIME	LABEL	1:20:37	Time
NOTES	NOTES	1	Notes...
	
PSTAT	PSTAT	REF600-12055	Potentiostat
FREQINIT	QUANT	1.00000E+005	Initial Freq. (Hz)
FREQFINAL	QUANT	1.00000E-002	Final Freq. (Hz)
PTSPERDEC	QUANT	1.00000E+001	Points/decade
IACREQ	QUANT	1.59000E-001	AC Current (A rms)
IDCREQ	QUANT	0.00000E+000	DC Current (A)
AREA	QUANT	1.00000E+000	Sample Area (cm^2)
SPEED	SELECTOR	1	Optimize for:
DRIFTCOR	SELECTOR	0	Drift Correction
THD	SELECTOR	0	THD
ZGUESS	QUANT	1.00000E-001	Estimated Z (ohms)
EOC	QUANT	4.034224	Open Circuit (V)
SEQUENCER	TOGGLE	TRUE	Run as Sequence
PSTATMODEL	IQUANT	4	Pstat Model
PSTATSECTION	LABEL	REF600-12055	Pstat Section
PSTATSERIALNO	LABEL	12055	Pstat Serial Number
CTRLMODE	IQUANT	0	Control Mode
ELECTROMETER	IQUANT	0	RE=0 or CS=1
IESTAB	IQUANT	0	I/E Stability
CASPEED	IQUANT	4	Control Amp Speed
CONVENTION	IQUANT	1	Current Convention
ICHRANGE	IQUANT	2	Ich Range
ICHRANGEMODE	TOGGLE	F	Ich Auto Range
ICHOFFSETENABLE	TOGGLE	T	Ich Offset Enable
ICHOFFSET	QUANT	0	Ich Offset (V)
ICHFILTER	IQUANT	3	Ich Filter
VCHRANGE	IQUANT	2	Vch Range
VCHRANGEMODE	TOGGLE	F	Vch Auto Range
VCHOFFSETENABLE	TOGGLE	T	Vch Offset Enable
VCHOFFSET	QUANT	0	Vch Offset (V)
VCHFILTER	IQUANT	3	Vch Filter
ACHRANGE	IQUANT	2	Ach Range
ACHOFFSETENABLE	TOGGLE	F	Ach Offset Enable
ACHOFFSET	QUANT	0	Ach Offset (V)
ACHFILTER	IQUANT	1	Ach Filter
IERANGELOWERLIMIT	IQUANT	1	I/E Range Lower Limit
IERANGEMODE	TOGGLE	F	I/E AutoRange
IERANGE	IQUANT	7	I/E Range
POSFEEDENABLE	TOGGLE	F	Positive Feedback IR Comp
POSFEEDRESISTANCE	QUANT	0	Positive Feedback Resistance (ohm)
ACHSELECT	IQUANT	4	Ach Select
SENSECABLEID	IQUANT	14	Sense Cable ID
PWRCABLEID	IQUANT	14	Power Cable ID
DCCALDATE	LABEL	2/12/2024	DC Calibration Date
ACCALDATE	LABEL	2/12/2024	AC Calibration Date
THERMOSELECT	IQUANT	1	Thermo Select
FRAMEWORKVERSION	LABEL	7.10.3	Framework Version
INSTRUMENTVERSION	LABEL	4.91	Instrument Version
COMMVERSION	LABEL	2.24	Communications Version
CPUPLDVERSION	LABEL	0.00	CPU PLD Version
CTRLPLDVERSION	LABEL	0.00	CTRL PLD Version
PSTATPLDVERSION	LABEL	0.00	PSTAT PLD Version
ZCURVE	TABLE
	Pt	Time	Freq	Zreal	Zimag	Zsig	Zmod	Zphz	Idc	Vdc	IERange	Imod	Vmod	Temp
	#	s	Hz	ohm	ohm	V	ohm	°	A	V	#	A	V	°C
	0	5	100078.1	0.1013846	0.2371407	1	0.2579041	66.85187	3.141398E-005	4.034063	11	0.1596607	0.0408774	-327.6853
	1	7	79453.13	0.0848458	0.1970229	1	0.2145154	66.70139	1.294503E-005	4.034054	11	0.1642894	0.0350797	-327.6853
	2	8	63140.62	0.0718897	0.163204	1	0.1783358	66.22699	4.94509E-006	4.034066	11	0.1619709	0.0288001	-327.6853
	3	10	50203.12	0.0618535	0.1347929	1	0.1483071	65.35065	-5.461741E-006	4.034068	11	0.1609279	0.0238219	-327.6853
	4	12	39890.62	0.0541538	0.1109649	1	0.123474	63.9864	-2.250116E-005	4.034062	11	0.1602794	0.0197667	-327.6853
	5	14	31640.63	0.0482395	0.0910892	1	0.1030742	62.09494	-9.697163E-006	4.03408	11	0.1598371	0.0164626	-327.6853
	6	15	25171.88	0.0437266	0.074987	1	0.0868048	59.7526	-1.302478E-005	4.03408	11	0.1595444	0.0138426	-327.6853
	7	17	20015.62	0.0401061	0.0617629	1	0.0736421	57.00211	-1.319626E-005	4.03408	11	0.1593591	0.011732	-327.6853
	8	19	15890.62	0.037114	0.0508341	1	0.0629409	53.86683	-1.307169E-005	4.034077	11	0.1592238	0.0100198	-327.6853
	9	20	12609.38	0.0345859	0.0417713	1	0.0542312	50.37582	-1.842331E-005	4.03408	11	0.159139	0.0086293	-327.6853
	10	22	10078.13	0.0325367	0.0344055	1	0.0473537	46.59906	-2.936076E-005	4.034083	11	0.1590888	0.0075329	-327.6853
	11	24	8015.625	0.0308688	0.0280267	1	0.0416939	42.23725	-2.825155E-005	4.034083	11	0.1590505	0.0066311	-327.6853
	12	25	6328.125	0.0295579	0.022485	1	0.0371382	37.2606	-2.595223E-005	4.034098	11	0.1590323	0.005906	-327.6853
	13	27	5015.625	0.0286506	0.0179421	1	0.033805	32.05639	-2.736133E-005	4.034102	11	0.1590161	0.0053754	-327.6853
	14	28	3984.375	0.0280492	0.0141779	1	0.0314288	26.81499	-1.88608E-005	4.034098	11	0.1590117	0.0049975	-327.6853
	15	30	3170.956	0.0276934	0.0111006	1	0.0298354	21.84287	-2.847891E-005	4.034098	11	0.1590023	0.0047439	-327.6853
	16	32	2527.573	0.0275369	0.0085792	1	0.0288424	17.30463	-2.343918E-005	4.034112	11	0.1590067	0.0045861	-327.6853
	17	33	1976.103	0.0274965	0.0064438	1	0.0282414	13.18928	-1.936834E-005	4.034114	11	0.1590036	0.0044905	-327.6853
	18	35	1577.524	0.0275468	0.0047918	1	0.0279605	9.86795	-2.125162E-005	4.034109	11	0.1589967	0.0044456	-327.6853
	19	37	1265.625	0.0276828	0.00347	1	0.0278994	7.144623	-1.732237E-005	4.034126	11	0.1590008	0.004436	-327.6853
	20	38	998.264	0.0278599	0.0023532	1	0.0279591	4.828101	-1.798569E-005	4.034121	11	0.1589947	0.0044453	-327.6853
	21	40	796.875	0.0280618	0.0014939	1	0.0281015	3.047258	-2.070458E-005	4.034121	11	0.1590009	0.0044682	-327.6853
	22	41	627.7902	0.0283124	0.0007769	1	0.028323	1.571825	-2.298655E-005	4.034126	11	0.1590018	0.0045034	-327.6853
	23	43	505.5147	0.0285291	0.0002851	1	0.0285305	0.5726468	-2.042321E-005	4.034134	11	0.1576014	0.0044715	-327.6853
	24	44	397.9953	0.0288022	-0.0001558	1	0.0288026	-0.3098682	-1.916208E-005	4.034135	11	0.160602	0.0046068	-327.6853
	25	46	315.5048	0.0290663	-0.0005161	1	0.0290709	-1.017169	-1.890602E-005	4.034139	11	0.1593417	0.0046192	-327.6853
	26	47	252.4038	0.0293214	-0.0007944	1	0.0293322	-1.551835	-1.592806E-005	4.034141	11	0.1589668	0.004654	-327.6853
	27	49	198.6229	0.0295999	-0.0010412	1	0.0296182	-2.014534	-2.041803E-005	4.034146	11	0.1588784	0.0047	-327.6853
	28	50	158.3615	0.0298743	-0.0012309	1	0.0298996	-2.359402	-2.485751E-005	4.03415	11	0.1588895	0.004747	-327.6853
	29	52	125.558	0.0301618	-0.001388	1	0.0301937	-2.634764	-1.405692E-005	4.034156	11	0.1589091	0.0047957	-327.6853
	30	54	100.4464	0.0304377	-0.0015205	1	0.0304756	-2.859749	-2.361927E-005	4.034156	11	0.1589451	0.0048424	-327.6853
	31	55	79.00281	0.030751	-0.0016258	1	0.0307939	-3.026393	-2.426351E-005	4.034161	11	0.1589505	0.0048937	-327.6853
	32	57	63.3446	0.0310434	-0.0017012	1	0.03109	-3.136741	-3.134867E-005	4.034161	11	0.1589791	0.004942	-327.6853
	33	58	50.22321	0.0313517	-0.0017554	1	0.0314008	-3.204591	-3.251107E-005	4.034164	11	0.1589794	0.0049917	-327.6853
	34	60	38.42213	0.0317222	-0.0017957	1	0.031773	-3.239882	-1.634483E-005	4.034162	11	0.1589891	0.0050513	-327.6853
	35	62	31.25	0.0320051	-0.0017975	1	0.0320556	-3.214591	-3.651099E-005	4.034169	11	0.158998	0.0050966	-327.6853
	36	63	24.93351	0.0323091	-0.0017785	1	0.032358	-3.150702	-1.858966E-005	4.034176	11	0.1589902	0.0051445	-327.6853
	37	65	19.86229	0.0326056	-0.0017393	1	0.032652	-3.053518	4.410511E-006	4.034163	11	0.1589885	0.0051912	-327.6853
	38	66	15.625	0.0329093	-0.0016833	1	0.0329524	-2.928082	-3.848237E-005	4.034183	11	0.1590003	0.0052394	-327.6853
	39	68	12.40079	0.0331784	-0.0016036	1	0.0332172	-2.767174	-5.070446E-005	4.034171	11	0.1589925	0.0052813	-327.6853
	40	69	9.93114	0.0334115	-0.0015156	1	0.0334459	-2.597288	-5.870464E-005	4.034165	11	0.1589935	0.0053177	-327.6853
	41	71	7.944915	0.0336229	-0.0014426	1	0.0336538	-2.456706	-2.375353E-005	4.034194	11	0.1589972	0.0053509	-327.6853
	42	73	6.317385	0.0338048	-0.0013573	1	0.033832	-2.29931	3.689819E-005	4.034182	11	0.1589994	0.0053793	-327.6853
	43	75	5.008013	0.0339775	-0.0012934	1	0.0340021	-2.179964	1.739943E-005	4.034158	11	0.1590095	0.0054067	-327.6853
	44	77	3.945707	0.034131	-0.0012259	1	0.034153	-2.056978	-2.950898E-005	4.034173	11	0.1590126	0.0054308	-327.6853
	45	80	3.158693	0.0342598	-0.001202	1	0.0342809	-2.009412	4.004885E-005	4.034163	11	0.159002	0.0054507	-327.6853
	46	82	2.504006	0.034412	-0.0011808	1	0.0344323	-1.96522	3.202283E-005	4.034152	11	0.1553936	0.0053283	-327.6853
	47	86	1.998082	0.0345341	-0.0011876	1	0.0345545	-1.969509	-0.0001469	4.034136	11	0.1613832	0.0055597	-327.6853
	48	91	1.584686	0.0346649	-0.0012098	1	0.034686	-1.998756	-0.0003145	4.034152	11	0.1600434	0.00554	-327.6853
	49	96	1.266892	0.0347954	-0.0012518	1	0.0348179	-2.060401	0.0002038	4.034218	11	0.1592364	0.0055368	-327.6853
	50	103	0.999041	0.0349539	-0.0013186	1	0.0349787	-2.16036	0.0001648	4.034254	11	0.1590565	0.0055588	-327.6853
	51	109	0.7923428	0.0351265	-0.0013834	1	0.0351537	-2.25534	-3.963857E-005	4.034278	11	0.1592221	0.0055942	-327.6853
	52	115	0.6334459	0.0352792	-0.0014832	1	0.0353103	-2.407409	-4.086923E-005	4.034284	11	0.1589836	0.0056118	-327.6853
	53	123	0.5040323	0.0354623	-0.0016003	1	0.0354984	-2.583888	-4.606135E-005	4.0343	11	0.1589822	0.0056424	-327.6853
	54	132	0.400641	0.0356525	-0.0017314	1	0.0356946	-2.780207	-4.03687E-005	4.034323	11	0.1589858	0.0056741	-327.6853
	55	144	0.316723	0.0358598	-0.0018902	1	0.0359096	-3.017336	-3.82209E-005	4.034346	11	0.15899	0.0057087	-327.6853
	56	158	0.2520161	0.0360849	-0.0020685	1	0.0361441	-3.280746	-4.159685E-005	4.034378	11	0.1589946	0.0057464	-327.6853
	57	176	0.2003205	0.0363396	-0.0022675	1	0.0364103	-3.570449	-3.982312E-005	4.034413	11	0.158995	0.0057889	-327.6853
	58	197	0.1588983	0.0366088	-0.0025033	1	0.0366942	-3.911795	-3.993379E-005	4.034453	11	0.1589977	0.0058342	-327.6853
	59	222	0.1260081	0.0369302	-0.0027644	1	0.0370336	-4.280796	-3.983687E-005	4.034589	11	0.1589984	0.0058882	-327.6853
	60	260	0.1001603	0.0373112	-0.0030507	1	0.0374357	-4.674368	-3.937072E-005	4.034842	11	0.1589983	0.0059522	-327.6853
	61	297	0.0794492	0.0377234	-0.0033723	1	0.0378738	-5.108469	-4.076411E-005	4.035082	11	0.1590004	0.0060219	-327.6853
	62	336	0.0631739	0.0380314	-0.0037735	1	0.0382181	-5.666436	-4.419818E-005	4.03498	11	0.158999	0.0060766	-327.6853
	63	385	0.0501337	0.0384428	-0.0042104	1	0.0386727	-6.250299	-3.985337E-005	4.035005	11	0.1589992	0.0061489	-327.6853
	64	466	0.0398258	0.0389073	-0.0047045	1	0.0391907	-6.894538	-3.932996E-005	4.035084	11	0.1590011	0.0062314	-327.6853
	65	568	0.0316296	0.0394349	-0.0052675	1	0.0397852	-7.608178	-4.047138E-005	4.035209	11	0.1589992	0.0063258	-327.6853
	66	665	0.0251206	0.0399988	-0.0059217	1	0.0404348	-8.42125	-3.917623E-005	4.035337	11	0.1590004	0.0064291	-327.6853
	67	786	0.0199553	0.0406396	-0.0066992	1	0.041188	-9.360749	-4.215074E-005	4.035494	11	0.1590005	0.0065489	-327.6853
	68	988	0.0158522	0.041392	-0.0075937	1	0.0420828	-10.39572	-4.054573E-005	4.035678	11	0.1589998	0.0066912	-327.6853
	69	1179	0.0125907	0.0422676	-0.0086571	1	0.0431451	-11.57506	-4.118655E-005	4.035867	11	0.1589989	0.00686	-327.6853
	70	1418	0.0100011	0.0433232	-0.0098639	1	0.044432	-12.82657	-4.136946E-005	4.036065	11	0.1590005	0.0070647	-327.6853
