EXPLAIN
TAG	GALVEIS
TITLE	LABEL	Galvanostatic EIS	Test Identifier
DATE	LABEL	23.4.2024	Date
TIME	LABEL	2:40:12	Time
NOTES	NOTES	1	Notes...
	
PSTAT	PSTAT	REF600-12055	Potentiostat
FREQINIT	QUANT	1.00000E+005	Initial Freq. (Hz)
FREQFINAL	QUANT	1.00000E-002	Final Freq. (Hz)
PTSPERDEC	QUANT	1.00000E+001	Points/decade
IACREQ	QUANT	1.59000E-001	AC Current (A rms)
IDCREQ	QUANT	0.00000E+000	DC Current (A)
AREA	QUANT	1.00000E+000	Sample Area (cm^2)
SPEED	SELECTOR	1	Optimize for:
DRIFTCOR	SELECTOR	0	Drift Correction
THD	SELECTOR	0	THD
ZGUESS	QUANT	1.00000E-001	Estimated Z (ohms)
EOC	QUANT	3.93545	Open Circuit (V)
SEQUENCER	TOGGLE	TRUE	Run as Sequence
PSTATMODEL	IQUANT	4	Pstat Model
PSTATSECTION	LABEL	REF600-12055	Pstat Section
PSTATSERIALNO	LABEL	12055	Pstat Serial Number
CTRLMODE	IQUANT	0	Control Mode
ELECTROMETER	IQUANT	0	RE=0 or CS=1
IESTAB	IQUANT	0	I/E Stability
CASPEED	IQUANT	4	Control Amp Speed
CONVENTION	IQUANT	1	Current Convention
ICHRANGE	IQUANT	2	Ich Range
ICHRANGEMODE	TOGGLE	F	Ich Auto Range
ICHOFFSETENABLE	TOGGLE	T	Ich Offset Enable
ICHOFFSET	QUANT	0	Ich Offset (V)
ICHFILTER	IQUANT	3	Ich Filter
VCHRANGE	IQUANT	2	Vch Range
VCHRANGEMODE	TOGGLE	F	Vch Auto Range
VCHOFFSETENABLE	TOGGLE	T	Vch Offset Enable
VCHOFFSET	QUANT	0	Vch Offset (V)
VCHFILTER	IQUANT	3	Vch Filter
ACHRANGE	IQUANT	2	Ach Range
ACHOFFSETENABLE	TOGGLE	F	Ach Offset Enable
ACHOFFSET	QUANT	0	Ach Offset (V)
ACHFILTER	IQUANT	1	Ach Filter
IERANGELOWERLIMIT	IQUANT	1	I/E Range Lower Limit
IERANGEMODE	TOGGLE	F	I/E AutoRange
IERANGE	IQUANT	7	I/E Range
POSFEEDENABLE	TOGGLE	F	Positive Feedback IR Comp
POSFEEDRESISTANCE	QUANT	0	Positive Feedback Resistance (ohm)
ACHSELECT	IQUANT	4	Ach Select
SENSECABLEID	IQUANT	14	Sense Cable ID
PWRCABLEID	IQUANT	14	Power Cable ID
DCCALDATE	LABEL	2/12/2024	DC Calibration Date
ACCALDATE	LABEL	2/12/2024	AC Calibration Date
THERMOSELECT	IQUANT	1	Thermo Select
FRAMEWORKVERSION	LABEL	7.10.3	Framework Version
INSTRUMENTVERSION	LABEL	4.91	Instrument Version
COMMVERSION	LABEL	2.24	Communications Version
CPUPLDVERSION	LABEL	0.00	CPU PLD Version
CTRLPLDVERSION	LABEL	0.00	CTRL PLD Version
PSTATPLDVERSION	LABEL	0.00	PSTAT PLD Version
ZCURVE	TABLE
	Pt	Time	Freq	Zreal	Zimag	Zsig	Zmod	Zphz	Idc	Vdc	IERange	Imod	Vmod	Temp
	#	s	Hz	ohm	ohm	V	ohm	°	A	V	#	A	V	°C
	0	5	100078.1	0.1013216	0.2371573	1	0.2578947	66.8662	3.107137E-005	3.935396	11	0.1596727	0.040879	-327.6853
	1	7	79453.13	0.0848217	0.197043	1	0.2145243	66.70942	1.493716E-005	3.935404	11	0.1642706	0.0350771	-327.6853
	2	9	63140.62	0.0718942	0.1632079	1	0.1783412	66.22618	4.057074E-007	3.935413	11	0.1619779	0.0288022	-327.6853
	3	10	50203.12	0.0618747	0.1348019	1	0.1483241	65.34464	-6.829156E-006	3.935406	11	0.1609317	0.0238252	-327.6853
	4	12	39890.62	0.0541792	0.1109718	1	0.1234914	63.97721	-1.086801E-005	3.93542	11	0.1602818	0.0197698	-327.6853
	5	14	31640.63	0.0482623	0.0911039	1	0.1030979	62.08762	-1.142302E-005	3.935425	11	0.1598398	0.0164667	-327.6853
	6	16	25171.88	0.0437423	0.0750014	1	0.0868251	59.74838	-1.37341E-005	3.935416	11	0.1595403	0.0138455	-327.6853
	7	17	20015.62	0.0401291	0.0617762	1	0.0736657	56.99272	-1.518102E-005	3.935423	11	0.1593562	0.0117355	-327.6853
	8	19	15890.62	0.0371278	0.0508473	1	0.0629597	53.86374	-1.94863E-005	3.935413	11	0.159228	0.010023	-327.6853
	9	21	12609.38	0.0346002	0.0417675	1	0.0542374	50.36168	-1.964311E-005	3.935418	11	0.1591422	0.0086304	-327.6853
	10	22	10078.13	0.0325572	0.0344027	1	0.0473658	46.57872	-2.009585E-005	3.935421	11	0.159086	0.0075347	-327.6853
	11	24	8015.625	0.0308741	0.0280341	1	0.0417028	42.23987	-1.60489E-005	3.935429	11	0.15905	0.0066325	-327.6853
	12	25	6328.125	0.029581	0.0224891	1	0.0371591	37.244	-2.167199E-005	3.935426	11	0.1590374	0.0059095	-327.6853
	13	27	5015.625	0.0286654	0.0179331	1	0.0338128	32.03013	-2.084393E-005	3.935432	11	0.1590144	0.0053766	-327.6853
	14	29	3984.375	0.0280672	0.0141787	1	0.0314452	26.80149	-2.099364E-005	3.935437	11	0.1590096	0.005	-327.6853
	15	30	3170.956	0.027715	0.0111364	1	0.0298687	21.89118	-2.039224E-005	3.935446	11	0.1590031	0.0047492	-327.6853
	16	32	2527.573	0.0275426	0.0085923	1	0.0288517	17.32606	-1.627521E-005	3.935455	11	0.1590041	0.0045875	-327.6853
	17	34	1976.103	0.0275247	0.0064033	1	0.0282597	13.09618	-1.632806E-005	3.93545	11	0.159004	0.0044934	-327.6853
	18	35	1577.524	0.0275762	0.0047433	1	0.0279811	9.75975	-1.881446E-005	3.935459	11	0.1589996	0.004449	-327.6853
	19	37	1265.625	0.0276957	0.0035316	1	0.0279199	7.266875	-1.526612E-005	3.935458	11	0.1590034	0.0044394	-327.6853
	20	39	998.264	0.0279002	0.0023809	1	0.0280016	4.877582	-2.065918E-005	3.93546	11	0.1589966	0.0044522	-327.6853
	21	40	796.875	0.0280951	0.0015832	1	0.0281397	3.225291	-2.420601E-005	3.935465	11	0.1590126	0.0044746	-327.6853
	22	42	627.7902	0.0283258	0.0008101	1	0.0283374	1.638162	-1.941074E-005	3.935456	11	0.1589877	0.0045053	-327.6853
	23	43	505.5147	0.0285665	0.0002767	1	0.0285678	0.5549857	-1.74233E-005	3.935466	11	0.1575958	0.0044772	-327.6853
	24	45	397.9953	0.0288396	-0.0001639	1	0.0288401	-0.3256419	-1.926822E-005	3.935471	11	0.1606072	0.0046129	-327.6853
	25	46	315.5048	0.0291092	-0.0005176	1	0.0291138	-1.018623	-1.889106E-005	3.935472	11	0.1593332	0.0046257	-327.6853
	26	48	252.4038	0.0293694	-0.0007924	1	0.0293801	-1.545583	-2.299831E-005	3.93548	11	0.158973	0.0046618	-327.6853
	27	49	198.6229	0.0296542	-0.0010303	1	0.0296721	-1.989829	-1.932721E-005	3.935485	11	0.1588767	0.0047085	-327.6853
	28	51	158.3615	0.0299314	-0.0012153	1	0.0299561	-2.325079	-3.174471E-005	3.935483	11	0.1588885	0.004756	-327.6853
	29	52	125.558	0.030219	-0.0013608	1	0.0302496	-2.578343	-2.764288E-005	3.935491	11	0.1589128	0.0048047	-327.6853
	30	54	100.4464	0.0305002	-0.0014699	1	0.0305356	-2.75911	-1.718989E-005	3.93549	11	0.158943	0.0048519	-327.6853
	31	55	79.00281	0.0308116	-0.0015599	1	0.0308511	-2.89826	-1.970556E-005	3.935491	11	0.1589598	0.0049031	-327.6853
	32	57	63.3446	0.0311018	-0.0016078	1	0.0311434	-2.959176	-2.167479E-005	3.9355	11	0.1589733	0.0049503	-327.6853
	33	59	50.22321	0.0314027	-0.0016351	1	0.0314452	-2.980617	-1.454155E-005	3.9355	11	0.1589816	0.0049988	-327.6853
	34	60	38.42213	0.0317508	-0.0016284	1	0.0317926	-2.935977	-2.053578E-005	3.9355	11	0.1589897	0.0050545	-327.6853
	35	62	31.25	0.0320058	-0.0016065	1	0.0320461	-2.873528	-4.218193E-006	3.935498	11	0.1589858	0.0050947	-327.6853
	36	63	24.93351	0.0322751	-0.001553	1	0.0323124	-2.754739	-1.817674E-005	3.935508	11	0.1590047	0.0051377	-327.6853
	37	65	19.86229	0.0325203	-0.0014745	1	0.0325538	-2.5961	-1.364169E-005	3.935497	11	0.1589931	0.0051758	-327.6853
	38	67	15.625	0.0327678	-0.0013992	1	0.0327977	-2.445031	-3.437605E-005	3.935517	11	0.1589812	0.0052142	-327.6853
	39	68	12.40079	0.0329813	-0.0013109	1	0.0330073	-2.276208	-4.107365E-005	3.935509	11	0.158998	0.0052481	-327.6853
	40	70	9.93114	0.033153	-0.0012197	1	0.0331754	-2.106986	-4.776346E-005	3.935502	11	0.1589958	0.0052747	-327.6853
	41	71	7.944915	0.0332997	-0.0011575	1	0.0333198	-1.99075	7.485505E-006	3.935512	11	0.1590129	0.0052983	-327.6853
	42	73	6.317385	0.0334305	-0.0010914	1	0.0334483	-1.869812	4.900177E-005	3.935513	11	0.1589984	0.0053182	-327.6853
	43	75	5.008013	0.0335543	-0.0010484	1	0.0335706	-1.789691	4.060508E-006	3.935499	11	0.159007	0.005338	-327.6853
	44	78	3.945707	0.0336666	-0.0010255	1	0.0336822	-1.744686	-7.204281E-005	3.935527	11	0.1589769	0.0053547	-327.6853
	45	80	3.158693	0.0337796	-0.0010139	1	0.0337948	-1.719294	-0.0001215	3.935552	11	0.1589957	0.0053732	-327.6853
	46	83	2.504006	0.0338971	-0.0010074	1	0.033912	-1.702361	-1.231034E-006	3.935562	11	0.1554485	0.0052496	-327.6853
	47	87	1.998082	0.034005	-0.0010404	1	0.0340209	-1.752465	-0.0002545	3.935538	11	0.1614653	0.0054766	-327.6853
	48	91	1.584686	0.034119	-0.0010922	1	0.0341365	-1.83353	-0.0001571	3.93555	11	0.159786	0.0054434	-327.6853
	49	96	1.266892	0.034256	-0.001145	1	0.0342751	-1.914363	0.0001463	3.93552	11	0.1593353	0.0054539	-327.6853
	50	102	0.999041	0.034392	-0.0012319	1	0.034414	-2.051445	0.000185	3.93555	11	0.1591226	0.0054713	-327.6853
	51	107	0.7923428	0.0345619	-0.001324	1	0.0345873	-2.193835	-3.941869E-005	3.935641	11	0.1592052	0.0055035	-327.6853
	52	115	0.6334459	0.0347162	-0.0014352	1	0.0347459	-2.367377	-3.96875E-005	3.935636	11	0.1589832	0.0055221	-327.6853
	53	124	0.5040323	0.0348877	-0.0015658	1	0.0349228	-2.569811	-3.896825E-005	3.935653	11	0.1589824	0.0055509	-327.6853
	54	134	0.400641	0.0350721	-0.0017165	1	0.0351141	-2.801924	-3.858685E-005	3.935666	11	0.1589864	0.0055819	-327.6853
	55	148	0.316723	0.035282	-0.0018816	1	0.0353321	-3.052658	-4.07172E-005	3.935694	11	0.158989	0.0056169	-327.6853
	56	165	0.2520161	0.0355205	-0.0020727	1	0.0355809	-3.339528	-4.183434E-005	3.935725	11	0.1589952	0.0056569	-327.6853
	57	186	0.2003205	0.035774	-0.0022851	1	0.0358469	-3.654932	-4.731103E-005	3.935758	11	0.158997	0.0056994	-327.6853
	58	208	0.1588983	0.0360647	-0.0025374	1	0.0361538	-4.024457	-3.891099E-005	3.935803	11	0.1589958	0.0057482	-327.6853
	59	233	0.1260081	0.036399	-0.0028004	1	0.0365065	-4.399433	-4.622369E-005	3.93595	11	0.1589991	0.0058044	-327.6853
	60	263	0.1001603	0.0367866	-0.0031073	1	0.0369176	-4.828265	-4.772097E-005	3.936202	11	0.1589999	0.0058698	-327.6853
	61	300	0.0794492	0.0372091	-0.0034371	1	0.0373675	-5.277516	-4.169837E-005	3.936444	11	0.1589966	0.0059413	-327.6853
	62	339	0.0631739	0.0375312	-0.0038528	1	0.0377284	-5.861192	-4.014213E-005	3.936328	11	0.1590008	0.0059988	-327.6853
	63	388	0.0501337	0.0379433	-0.0043181	1	0.0381882	-6.49251	-4.10489E-005	3.93632	11	0.1590007	0.0060719	-327.6853
	64	469	0.0398258	0.0384254	-0.0048394	1	0.038729	-7.178201	-3.991002E-005	3.936383	11	0.158999	0.0061579	-327.6853
	65	546	0.0316296	0.0389556	-0.0054431	1	0.039334	-7.95417	-4.169062E-005	3.936471	11	0.1589997	0.0062541	-327.6853
	66	642	0.0251206	0.03952	-0.00616	1	0.0399972	-8.859471	-4.025349E-005	3.936591	11	0.1589995	0.0063595	-327.6853
	67	803	0.0199553	0.0401407	-0.0070052	1	0.0407473	-9.89928	-4.14837E-005	3.936758	11	0.1590002	0.0064788	-327.6853
	68	1005	0.0158522	0.0408546	-0.0079807	1	0.0416268	-11.05322	-4.098878E-005	3.936943	11	0.1589993	0.0066186	-327.6853
	69	1196	0.0125907	0.0416475	-0.0091383	1	0.0426383	-12.37572	-4.547923E-005	3.937142	11	0.1590009	0.0067795	-327.6853
	70	1515	0.0100011	0.0426401	-0.0104462	1	0.0439011	-13.76555	-3.98333E-005	3.937396	11	0.1589996	0.0069803	-327.6853
