EXPLAIN
TAG	GALVEIS
TITLE	LABEL	Galvanostatic EIS	Test Identifier
DATE	LABEL	23.4.2024	Date
TIME	LABEL	10:44:45	Time
NOTES	NOTES	1	Notes...
	
PSTAT	PSTAT	REF600-12055	Potentiostat
FREQINIT	QUANT	1.00000E+005	Initial Freq. (Hz)
FREQFINAL	QUANT	1.00000E-002	Final Freq. (Hz)
PTSPERDEC	QUANT	1.00000E+001	Points/decade
IACREQ	QUANT	1.59000E-001	AC Current (A rms)
IDCREQ	QUANT	0.00000E+000	DC Current (A)
AREA	QUANT	1.00000E+000	Sample Area (cm^2)
SPEED	SELECTOR	1	Optimize for:
DRIFTCOR	SELECTOR	0	Drift Correction
THD	SELECTOR	0	THD
ZGUESS	QUANT	1.00000E-001	Estimated Z (ohms)
EOC	QUANT	3.432561	Open Circuit (V)
SEQUENCER	TOGGLE	TRUE	Run as Sequence
PSTATMODEL	IQUANT	4	Pstat Model
PSTATSECTION	LABEL	REF600-12055	Pstat Section
PSTATSERIALNO	LABEL	12055	Pstat Serial Number
CTRLMODE	IQUANT	0	Control Mode
ELECTROMETER	IQUANT	0	RE=0 or CS=1
IESTAB	IQUANT	0	I/E Stability
CASPEED	IQUANT	4	Control Amp Speed
CONVENTION	IQUANT	1	Current Convention
ICHRANGE	IQUANT	2	Ich Range
ICHRANGEMODE	TOGGLE	F	Ich Auto Range
ICHOFFSETENABLE	TOGGLE	T	Ich Offset Enable
ICHOFFSET	QUANT	0	Ich Offset (V)
ICHFILTER	IQUANT	3	Ich Filter
VCHRANGE	IQUANT	2	Vch Range
VCHRANGEMODE	TOGGLE	F	Vch Auto Range
VCHOFFSETENABLE	TOGGLE	T	Vch Offset Enable
VCHOFFSET	QUANT	0	Vch Offset (V)
VCHFILTER	IQUANT	3	Vch Filter
ACHRANGE	IQUANT	2	Ach Range
ACHOFFSETENABLE	TOGGLE	F	Ach Offset Enable
ACHOFFSET	QUANT	0	Ach Offset (V)
ACHFILTER	IQUANT	1	Ach Filter
IERANGELOWERLIMIT	IQUANT	1	I/E Range Lower Limit
IERANGEMODE	TOGGLE	F	I/E AutoRange
IERANGE	IQUANT	7	I/E Range
POSFEEDENABLE	TOGGLE	F	Positive Feedback IR Comp
POSFEEDRESISTANCE	QUANT	0	Positive Feedback Resistance (ohm)
ACHSELECT	IQUANT	4	Ach Select
SENSECABLEID	IQUANT	14	Sense Cable ID
PWRCABLEID	IQUANT	14	Power Cable ID
DCCALDATE	LABEL	2/12/2024	DC Calibration Date
ACCALDATE	LABEL	2/12/2024	AC Calibration Date
THERMOSELECT	IQUANT	1	Thermo Select
FRAMEWORKVERSION	LABEL	7.10.3	Framework Version
INSTRUMENTVERSION	LABEL	4.91	Instrument Version
COMMVERSION	LABEL	2.24	Communications Version
CPUPLDVERSION	LABEL	0.00	CPU PLD Version
CTRLPLDVERSION	LABEL	0.00	CTRL PLD Version
PSTATPLDVERSION	LABEL	0.00	PSTAT PLD Version
ZCURVE	TABLE
	Pt	Time	Freq	Zreal	Zimag	Zsig	Zmod	Zphz	Idc	Vdc	IERange	Imod	Vmod	Temp
	#	s	Hz	ohm	ohm	V	ohm	°	A	V	#	A	V	°C
	0	5	100078.1	0.1012663	0.2382343	1	0.2588637	66.9711	2.821931E-005	3.432314	11	0.159644	0.0410252	-327.6853
	1	7	79453.13	0.0848155	0.1978263	1	0.2152416	66.79339	1.535949E-005	3.432315	11	0.1642933	0.0351993	-327.6853
	2	8	63140.62	0.0719364	0.1638223	1	0.1789207	66.29312	-2.523535E-006	3.43233	11	0.1619578	0.0288922	-327.6853
	3	10	50203.12	0.0619459	0.1352615	1	0.1487716	65.39359	-1.336681E-006	3.432337	11	0.1609344	0.0238975	-327.6853
	4	12	39890.62	0.0542811	0.1113379	1	0.1238651	64.00916	-1.10165E-005	3.432331	11	0.1602721	0.0198284	-327.6853
	5	13	31640.63	0.0483773	0.0913955	1	0.1034094	62.10694	-9.672687E-006	3.43234	11	0.159834	0.0165158	-327.6853
	6	15	25171.88	0.0438694	0.0752286	1	0.0870854	59.75148	-1.272757E-005	3.432341	11	0.1595453	0.0138874	-327.6853
	7	17	20015.62	0.0402596	0.0619525	1	0.0738847	56.98231	-1.396239E-005	3.43235	11	0.1593536	0.0117702	-327.6853
	8	18	15890.62	0.0372618	0.0509812	1	0.0631468	53.83716	-1.496996E-005	3.432361	11	0.1592318	0.0100531	-327.6853
	9	20	12609.38	0.0347366	0.0418907	1	0.0544193	50.33379	-1.557788E-005	3.432363	11	0.1591402	0.0086593	-327.6853
	10	22	10078.13	0.0326968	0.0345003	1	0.0475327	46.53741	-1.916499E-005	3.432361	11	0.1590831	0.0075611	-327.6853
	11	23	8015.625	0.0310172	0.0281092	1	0.0418592	42.18423	-1.814961E-005	3.432375	11	0.1590522	0.0066575	-327.6853
	12	25	6328.125	0.029708	0.0225494	1	0.0372967	37.19978	-2.033752E-005	3.432376	11	0.159035	0.0059313	-327.6853
	13	27	5015.625	0.0288071	0.0179765	1	0.0339559	31.9653	-2.071995E-005	3.43238	11	0.159017	0.0053995	-327.6853
	14	29	3984.375	0.0282114	0.0142226	1	0.0315937	26.75473	-1.918909E-005	3.432383	11	0.1590058	0.0050235	-327.6853
	15	30	3170.956	0.0278519	0.0111357	1	0.0299955	21.79247	-2.86962E-005	3.432382	11	0.159004	0.0047694	-327.6853
	16	32	2527.573	0.0276707	0.0086028	1	0.0289771	17.27048	-2.175921E-005	3.432391	11	0.1590005	0.0046074	-327.6853
	17	33	1976.103	0.0276421	0.0064344	1	0.0283811	13.10365	-2.950255E-005	3.432398	11	0.1590038	0.0045127	-327.6853
	18	35	1577.524	0.0277155	0.0047455	1	0.0281188	9.7161	-2.881433E-005	3.432409	11	0.1590038	0.004471	-327.6853
	19	36	1265.625	0.0278505	0.0034657	1	0.0280653	7.093455	-2.165843E-005	3.432403	11	0.1590003	0.0044624	-327.6853
	20	38	998.264	0.028022	0.0023817	1	0.028123	4.858068	-2.159749E-005	3.432407	11	0.1590068	0.0044717	-327.6853
	21	39	796.875	0.0282381	0.0014977	1	0.0282778	3.036043	-2.08923E-005	3.43241	11	0.158997	0.0044961	-327.6853
	22	41	627.7902	0.0285024	0.0007243	1	0.0285116	1.455739	-2.088456E-005	3.432416	11	0.1589995	0.0045333	-327.6853
	23	42	505.5147	0.0287184	0.0002015	1	0.0287191	0.4019911	-1.832884E-005	3.432426	11	0.157598	0.0045009	-327.6853
	24	44	397.9953	0.0290101	-0.0002564	1	0.0290113	-0.5063981	-1.900631E-005	3.432431	11	0.1605979	0.00464	-327.6853
	25	45	315.5048	0.029289	-0.000625	1	0.0292956	-1.222434	-2.206326E-005	3.432439	11	0.1593428	0.0046549	-327.6853
	26	47	252.4038	0.0295601	-0.0009156	1	0.0295743	-1.774194	-2.100389E-005	3.432443	11	0.158968	0.0046925	-327.6853
	27	48	198.6229	0.0298637	-0.0011708	1	0.0298867	-2.245188	-2.057792E-005	3.432446	11	0.1588782	0.0047426	-327.6853
	28	50	158.3615	0.0301502	-0.0013657	1	0.0301811	-2.593622	-2.087315E-005	3.432451	11	0.1588822	0.0047915	-327.6853
	29	51	125.558	0.0304568	-0.0015341	1	0.0304954	-2.883464	-2.217089E-005	3.432455	11	0.1589199	0.0048439	-327.6853
	30	53	100.4464	0.0307535	-0.0016751	1	0.030799	-3.117831	-2.400961E-005	3.432457	11	0.1589374	0.0048936	-327.6853
	31	55	79.00281	0.0310787	-0.0017882	1	0.0311301	-3.293031	-2.128014E-005	3.432463	11	0.1589597	0.0049475	-327.6853
	32	56	63.3446	0.031388	-0.0018889	1	0.0314448	-3.443924	-2.233253E-005	3.432469	11	0.158974	0.0049983	-327.6853
	33	58	50.22321	0.0317107	-0.0019698	1	0.0317719	-3.554554	-2.821116E-005	3.432474	11	0.158984	0.0050508	-327.6853
	34	60	38.42213	0.0320966	-0.0020433	1	0.0321615	-3.642674	-2.749148E-005	3.432475	11	0.1589822	0.0051129	-327.6853
	35	61	31.25	0.032414	-0.0020895	1	0.0324812	-3.688324	-4.461978E-005	3.432486	11	0.1589926	0.0051641	-327.6853
	36	63	24.93351	0.0327552	-0.0021224	1	0.0328239	-3.707407	-2.132123E-005	3.432481	11	0.1589988	0.0052189	-327.6853
	37	64	19.86229	0.0330972	-0.0021396	1	0.0331663	-3.698781	-2.952989E-005	3.432494	11	0.1589953	0.0052732	-327.6853
	38	66	15.625	0.033489	-0.0021314	1	0.0335567	-3.641751	-5.64591E-006	3.432492	11	0.1589815	0.0053349	-327.6853
	39	67	12.40079	0.0338536	-0.002111	1	0.0339193	-3.568198	-5.991664E-006	3.432514	11	0.1590035	0.0053933	-327.6853
	40	69	9.93114	0.0341952	-0.0020497	1	0.0342566	-3.430213	-9.269163E-006	3.432515	11	0.1590042	0.0054469	-327.6853
	41	71	7.944915	0.0345137	-0.0019773	1	0.0345703	-3.278896	-8.441275E-006	3.432505	11	0.1589979	0.0054966	-327.6853
	42	72	6.317385	0.0348236	-0.0018688	1	0.0348737	-3.071838	-0.0001042	3.43251	11	0.1590142	0.0055454	-327.6853
	43	74	5.008013	0.0351064	-0.0017635	1	0.0351506	-2.875755	-4.825019E-005	3.432538	11	0.1589933	0.0055887	-327.6853
	44	76	3.945707	0.035354	-0.0016392	1	0.0353919	-2.654621	-1.616369E-005	3.432545	11	0.1589997	0.0056273	-327.6853
	45	79	3.158693	0.0355656	-0.001536	1	0.0355987	-2.472922	-7.938349E-005	3.432564	11	0.1590032	0.0056603	-327.6853
	46	82	2.504006	0.0357582	-0.0014416	1	0.0357872	-2.308663	-6.397488E-005	3.432589	11	0.1553938	0.005538	-327.6853
	47	85	1.998082	0.0359289	-0.0013713	1	0.0359551	-2.185783	7.432484E-005	3.432619	11	0.1613778	0.0057849	-327.6853
	48	88	1.584686	0.0360718	-0.0013209	1	0.0360959	-2.097149	0.0002607	3.432631	11	0.1600275	0.0057646	-327.6853
	49	93	1.266892	0.0362184	-0.0012967	1	0.0362416	-2.050387	-0.0002082	3.432592	11	0.1592343	0.0057631	-327.6853
	50	98	0.999041	0.0363818	-0.0012872	1	0.0364046	-2.02634	-0.0001607	3.43259	11	0.159042	0.0057849	-327.6853
	51	103	0.7923428	0.0365216	-0.0012876	1	0.0365443	-2.019223	-4.212876E-005	3.432681	11	0.1592588	0.0058168	-327.6853
	52	111	0.6334459	0.0366587	-0.0013183	1	0.0366824	-2.05959	-4.104394E-005	3.432697	11	0.1589834	0.0058298	-327.6853
	53	119	0.5040323	0.0368113	-0.0013649	1	0.0368366	-2.123485	-4.489237E-005	3.432717	11	0.1589815	0.005855	-327.6853
	54	128	0.400641	0.0369543	-0.0014414	1	0.0369824	-2.233761	-4.066789E-005	3.43275	11	0.1589864	0.0058789	-327.6853
	55	140	0.316723	0.0371143	-0.0015226	1	0.0371455	-2.349172	-4.155129E-005	3.432786	11	0.1589899	0.0059052	-327.6853
	56	154	0.2520161	0.037266	-0.0016334	1	0.0373017	-2.509773	-4.26871E-005	3.432829	11	0.1589943	0.0059304	-327.6853
	57	171	0.2003205	0.0374229	-0.0017748	1	0.0374649	-2.715191	-4.266654E-005	3.432888	11	0.1589949	0.0059565	-327.6853
	58	198	0.1588983	0.0375962	-0.0019579	1	0.0376472	-2.981175	-4.43024E-005	3.432972	11	0.1589961	0.0059856	-327.6853
	59	229	0.1260081	0.0378084	-0.0021732	1	0.0378708	-3.289663	-3.917472E-005	3.433163	11	0.1590007	0.0060214	-327.6853
	60	259	0.1001603	0.0380334	-0.002441	1	0.0381116	-3.672265	-4.077769E-005	3.433456	11	0.1589989	0.0060597	-327.6853
	61	306	0.0794492	0.0383071	-0.0027564	1	0.0384062	-4.115638	-4.020298E-005	3.433792	11	0.1589992	0.0061065	-327.6853
	62	345	0.0631739	0.0385007	-0.0031497	1	0.0386293	-4.67686	-4.282109E-005	3.433774	11	0.1589989	0.006142	-327.6853
	63	410	0.0501337	0.0387661	-0.0036175	1	0.0389345	-5.331148	-4.207505E-005	3.433893	11	0.1589998	0.0061906	-327.6853
	64	491	0.0398258	0.0390904	-0.004169	1	0.0393121	-6.087618	-3.9942E-005	3.434067	11	0.1590005	0.0062506	-327.6853
	65	568	0.0316296	0.0394766	-0.0048222	1	0.03977	-6.964372	-4.067363E-005	3.43429	11	0.1589994	0.0063234	-327.6853
	66	696	0.0251206	0.0399408	-0.0056181	1	0.040334	-8.006742	-4.097392E-005	3.43455	11	0.1590004	0.0064131	-327.6853
	67	817	0.0199553	0.0404657	-0.0065627	1	0.0409945	-9.212008	-4.242129E-005	3.434851	11	0.1589998	0.0065181	-327.6853
	68	1019	0.0158522	0.0411208	-0.0076916	1	0.041834	-10.59467	-4.249316E-005	3.435215	11	0.1590002	0.0066516	-327.6853
	69	1210	0.0125907	0.0419447	-0.0090041	1	0.0429002	-12.11558	-3.762466E-005	3.435589	11	0.1589982	0.0068211	-327.6853
	70	1450	0.0100011	0.0429922	-0.0105505	1	0.0442679	-13.78818	-4.761737E-005	3.436065	11	0.1590014	0.0070387	-327.6853
