EXPLAIN
TAG	GALVEIS
TITLE	LABEL	Galvanostatic EIS	Test Identifier
DATE	LABEL	23.4.2024	Date
TIME	LABEL	8:08:18	Time
NOTES	NOTES	1	Notes...
	
PSTAT	PSTAT	REF600-12055	Potentiostat
FREQINIT	QUANT	1.00000E+005	Initial Freq. (Hz)
FREQFINAL	QUANT	1.00000E-002	Final Freq. (Hz)
PTSPERDEC	QUANT	1.00000E+001	Points/decade
IACREQ	QUANT	1.59000E-001	AC Current (A rms)
IDCREQ	QUANT	0.00000E+000	DC Current (A)
AREA	QUANT	1.00000E+000	Sample Area (cm^2)
SPEED	SELECTOR	1	Optimize for:
DRIFTCOR	SELECTOR	0	Drift Correction
THD	SELECTOR	0	THD
ZGUESS	QUANT	1.00000E-001	Estimated Z (ohms)
EOC	QUANT	3.602937	Open Circuit (V)
SEQUENCER	TOGGLE	TRUE	Run as Sequence
PSTATMODEL	IQUANT	4	Pstat Model
PSTATSECTION	LABEL	REF600-12055	Pstat Section
PSTATSERIALNO	LABEL	12055	Pstat Serial Number
CTRLMODE	IQUANT	0	Control Mode
ELECTROMETER	IQUANT	0	RE=0 or CS=1
IESTAB	IQUANT	0	I/E Stability
CASPEED	IQUANT	4	Control Amp Speed
CONVENTION	IQUANT	1	Current Convention
ICHRANGE	IQUANT	2	Ich Range
ICHRANGEMODE	TOGGLE	F	Ich Auto Range
ICHOFFSETENABLE	TOGGLE	T	Ich Offset Enable
ICHOFFSET	QUANT	0	Ich Offset (V)
ICHFILTER	IQUANT	3	Ich Filter
VCHRANGE	IQUANT	2	Vch Range
VCHRANGEMODE	TOGGLE	F	Vch Auto Range
VCHOFFSETENABLE	TOGGLE	T	Vch Offset Enable
VCHOFFSET	QUANT	0	Vch Offset (V)
VCHFILTER	IQUANT	3	Vch Filter
ACHRANGE	IQUANT	2	Ach Range
ACHOFFSETENABLE	TOGGLE	F	Ach Offset Enable
ACHOFFSET	QUANT	0	Ach Offset (V)
ACHFILTER	IQUANT	1	Ach Filter
IERANGELOWERLIMIT	IQUANT	1	I/E Range Lower Limit
IERANGEMODE	TOGGLE	F	I/E AutoRange
IERANGE	IQUANT	7	I/E Range
POSFEEDENABLE	TOGGLE	F	Positive Feedback IR Comp
POSFEEDRESISTANCE	QUANT	0	Positive Feedback Resistance (ohm)
ACHSELECT	IQUANT	4	Ach Select
SENSECABLEID	IQUANT	14	Sense Cable ID
PWRCABLEID	IQUANT	14	Power Cable ID
DCCALDATE	LABEL	2/12/2024	DC Calibration Date
ACCALDATE	LABEL	2/12/2024	AC Calibration Date
THERMOSELECT	IQUANT	1	Thermo Select
FRAMEWORKVERSION	LABEL	7.10.3	Framework Version
INSTRUMENTVERSION	LABEL	4.91	Instrument Version
COMMVERSION	LABEL	2.24	Communications Version
CPUPLDVERSION	LABEL	0.00	CPU PLD Version
CTRLPLDVERSION	LABEL	0.00	CTRL PLD Version
PSTATPLDVERSION	LABEL	0.00	PSTAT PLD Version
ZCURVE	TABLE
	Pt	Time	Freq	Zreal	Zimag	Zsig	Zmod	Zphz	Idc	Vdc	IERange	Imod	Vmod	Temp
	#	s	Hz	ohm	ohm	V	ohm	°	A	V	#	A	V	°C
	0	5	100078.1	0.1011538	0.2375847	1	0.258222	66.93769	2.801552E-005	3.602892	11	0.1596616	0.040928	-327.6853
	1	7	79453.13	0.0847456	0.1973423	1	0.2147692	66.75964	1.554628E-005	3.602913	11	0.1642911	0.0351215	-327.6853
	2	9	63140.62	0.0718682	0.1634407	1	0.1785439	66.26393	-1.488952E-007	3.602913	11	0.1619754	0.0288345	-327.6853
	3	10	50203.12	0.0618845	0.1349667	1	0.148478	65.36776	-6.227638E-006	3.602917	11	0.160938	0.0238508	-327.6853
	4	12	39890.62	0.0542155	0.1111034	1	0.1236256	63.98888	-9.758922E-006	3.602929	11	0.1602693	0.0197897	-327.6853
	5	14	31640.63	0.0483138	0.0911993	1	0.1032063	62.0871	-1.061847E-005	3.602931	11	0.1598422	0.0164843	-327.6853
	6	15	25171.88	0.043808	0.0750657	1	0.0869137	59.73237	-1.428952E-005	3.602946	11	0.1595436	0.0138599	-327.6853
	7	17	20015.62	0.0401965	0.0618306	1	0.0737481	56.97179	-2.179062E-005	3.602947	11	0.15936	0.0117489	-327.6853
	8	19	15890.62	0.0371939	0.0508811	1	0.063026	53.83336	-1.764309E-005	3.60295	11	0.1592265	0.0100335	-327.6853
	9	21	12609.38	0.0346749	0.0418055	1	0.0543143	50.32655	-1.512538E-005	3.602945	11	0.1591415	0.0086426	-327.6853
	10	22	10078.13	0.0326332	0.0344251	1	0.0474344	46.53068	-1.821987E-005	3.602964	11	0.1590852	0.0075455	-327.6853
	11	24	8015.625	0.0309653	0.028038	1	0.0417729	42.1597	-1.938391E-005	3.602959	11	0.1590557	0.0066439	-327.6853
	12	26	6328.125	0.0296521	0.0224876	1	0.0372148	37.17602	-2.237526E-005	3.60298	11	0.1590314	0.0059181	-327.6853
	13	27	5015.625	0.028755	0.0179261	1	0.033885	31.93976	-1.891475E-005	3.602983	11	0.1590138	0.0053881	-327.6853
	14	29	3984.375	0.0281592	0.0141587	1	0.0315184	26.69358	-1.700141E-005	3.602991	11	0.1590094	0.0050117	-327.6853
	15	30	3170.956	0.0278083	0.0111065	1	0.0299442	21.77151	-1.723589E-005	3.602994	11	0.1590076	0.0047613	-327.6853
	16	32	2527.573	0.0276412	0.0085953	1	0.0289467	17.27363	-2.810312E-005	3.603009	11	0.159007	0.0046027	-327.6853
	17	34	1976.103	0.0276153	0.0063441	1	0.0283347	12.93808	-3.282994E-005	3.603006	11	0.1589918	0.004505	-327.6853
	18	35	1577.524	0.0276877	0.0046858	1	0.0280814	9.6056	-3.126729E-005	3.603008	11	0.1590061	0.0044651	-327.6853
	19	37	1265.625	0.0278277	0.003489	1	0.0280456	7.146335	-2.108043E-005	3.603017	11	0.1590076	0.0044595	-327.6853
	20	39	998.264	0.0280243	0.0022643	1	0.0281156	4.619287	-2.975721E-005	3.603022	11	0.1589922	0.0044702	-327.6853
	21	40	796.875	0.0282489	0.0014357	1	0.0282854	2.909523	-3.604963E-005	3.603039	11	0.1590021	0.0044974	-327.6853
	22	42	627.7902	0.0284752	0.0007034	1	0.0284839	1.414947	-3.06773E-005	3.603041	11	0.1589917	0.0045287	-327.6853
	23	43	505.5147	0.0287391	0.0001992	1	0.0287398	0.3971891	-2.892222E-005	3.603053	11	0.1576058	0.0045044	-327.6853
	24	45	397.9953	0.0290304	-0.000252	1	0.0290315	-0.4973439	-1.79456E-005	3.603057	11	0.1606014	0.0046434	-327.6853
	25	46	315.5048	0.0293184	-0.0006023	1	0.0293246	-1.176952	-1.968886E-005	3.603065	11	0.1593412	0.0046595	-327.6853
	26	48	252.4038	0.0295954	-0.0008742	1	0.0296083	-1.691851	-2.135814E-005	3.603072	11	0.1589645	0.0046978	-327.6853
	27	49	198.6229	0.0299016	-0.0011031	1	0.029922	-2.112807	-1.879979E-005	3.603074	11	0.1588823	0.0047483	-327.6853
	28	51	158.3615	0.0301895	-0.0012791	1	0.0302166	-2.426126	-3.132242E-005	3.603084	11	0.1588857	0.0047972	-327.6853
	29	52	125.558	0.0304876	-0.0014168	1	0.0305205	-2.66072	-2.10997E-005	3.603089	11	0.1589185	0.0048479	-327.6853
	30	54	100.4464	0.0307879	-0.0015103	1	0.0308249	-2.808375	-2.609496E-005	3.603093	11	0.1589381	0.0048977	-327.6853
	31	56	79.00281	0.0311126	-0.0015818	1	0.0311528	-2.91055	-2.027932E-005	3.603099	11	0.1589581	0.004951	-327.6853
	32	57	63.3446	0.0314038	-0.0016105	1	0.0314451	-2.935699	-2.667203E-005	3.603105	11	0.1589711	0.0049982	-327.6853
	33	59	50.22321	0.0317083	-0.0016127	1	0.0317493	-2.911524	-1.856487E-005	3.603109	11	0.1589857	0.0050473	-327.6853
	34	61	38.42213	0.0320558	-0.0015894	1	0.0320952	-2.838523	-2.161961E-005	3.603121	11	0.1589876	0.0051025	-327.6853
	35	62	31.25	0.0323011	-0.0015476	1	0.0323382	-2.743074	-2.527751E-005	3.603126	11	0.1590023	0.0051417	-327.6853
	36	64	24.93351	0.032563	-0.0014732	1	0.0325963	-2.590364	-1.968921E-005	3.603129	11	0.1589841	0.0051822	-327.6853
	37	66	19.86229	0.0327912	-0.0013893	1	0.0328206	-2.42614	-5.013472E-005	3.603138	11	0.1589765	0.0052176	-327.6853
	38	67	15.625	0.0330201	-0.0012924	1	0.0330454	-2.24142	-2.097432E-005	3.603141	11	0.159016	0.0052547	-327.6853
	39	68	12.40079	0.0331975	-0.0011857	1	0.0332187	-2.045488	-2.409978E-005	3.603133	11	0.1589959	0.0052816	-327.6853
	40	70	9.93114	0.0333425	-0.0010865	1	0.0333602	-1.866385	-2.590276E-005	3.603148	11	0.1590047	0.0053044	-327.6853
	41	71	7.944915	0.0334707	-0.0010107	1	0.0334859	-1.729687	-2.407939E-005	3.603165	11	0.1589773	0.0053235	-327.6853
	42	73	6.317385	0.0335899	-0.00093	1	0.0336027	-1.585958	2.965884E-005	3.603161	11	0.1589933	0.0053426	-327.6853
	43	75	5.008013	0.033692	-0.0008699	1	0.0337032	-1.479083	-3.423181E-005	3.603168	11	0.1590327	0.0053599	-327.6853
	44	78	3.945707	0.0337881	-0.0008299	1	0.0337983	-1.407022	-5.958509E-005	3.603184	11	0.158972	0.005373	-327.6853
	45	81	3.158693	0.0338715	-0.0008129	1	0.0338812	-1.374843	-0.0001259	3.60321	11	0.1589794	0.0053864	-327.6853
	46	84	2.504006	0.0339608	-0.0007978	1	0.0339702	-1.345741	-2.164366E-005	3.603226	11	0.1554688	0.0052593	-327.6853
	47	88	1.998082	0.0340438	-0.0008019	1	0.0340533	-1.349375	-0.0002204	3.603226	11	0.1614233	0.0054804	-327.6853
	48	91	1.584686	0.0341386	-0.0008281	1	0.0341486	-1.38949	-6.681477E-005	3.603249	11	0.1597809	0.0054452	-327.6853
	49	97	1.266892	0.0342485	-0.0008566	1	0.0342592	-1.4328	7.218908E-005	3.603229	11	0.1593384	0.0054514	-327.6853
	50	103	0.999041	0.0343513	-0.0008935	1	0.0343629	-1.490041	0.0001318	3.603258	11	0.1591201	0.0054631	-327.6853
	51	108	0.7923428	0.0344698	-0.000947	1	0.0344828	-1.573789	-4.012039E-005	3.60334	11	0.1592534	0.0054885	-327.6853
	52	115	0.6334459	0.0345809	-0.0010085	1	0.0345956	-1.670401	-4.688581E-005	3.603357	11	0.1589826	0.0054981	-327.6853
	53	123	0.5040323	0.0346946	-0.0010826	1	0.0347115	-1.787191	-3.878417E-005	3.603388	11	0.1589829	0.0055173	-327.6853
	54	135	0.400641	0.0348327	-0.0011643	1	0.0348522	-1.914352	-4.150654E-005	3.603429	11	0.1589866	0.0055402	-327.6853
	55	146	0.316723	0.0349634	-0.0012634	1	0.0349862	-2.069447	-4.023283E-005	3.603475	11	0.1589899	0.005562	-327.6853
	56	160	0.2520161	0.0351057	-0.0013904	1	0.0351332	-2.268064	-4.031425E-005	3.603536	11	0.1589934	0.0055856	-327.6853
	57	178	0.2003205	0.0352753	-0.0015235	1	0.0353081	-2.473067	-4.966366E-005	3.603604	11	0.1589973	0.0056137	-327.6853
	58	199	0.1588983	0.0354316	-0.0016802	1	0.0354715	-2.715023	-3.969581E-005	3.603693	11	0.1589958	0.0056397	-327.6853
	59	231	0.1260081	0.0356506	-0.0018627	1	0.0356992	-2.990845	-4.078574E-005	3.603879	11	0.1589981	0.005676	-327.6853
	60	269	0.1001603	0.0358853	-0.0020739	1	0.0359451	-3.307658	-4.063764E-005	3.604136	11	0.158999	0.0057152	-327.6853
	61	315	0.0794492	0.0361531	-0.0023273	1	0.0362279	-3.683217	-3.889053E-005	3.604426	11	0.1589991	0.0057602	-327.6853
	62	355	0.0631739	0.036349	-0.0026192	1	0.0364432	-4.121436	-3.950703E-005	3.60444	11	0.1590002	0.0057945	-327.6853
	63	404	0.0501337	0.0365977	-0.0029657	1	0.0367176	-4.632908	-4.266719E-005	3.60454	11	0.1589987	0.005838	-327.6853
	64	465	0.0398258	0.0368727	-0.0033696	1	0.0370264	-5.221512	-4.138708E-005	3.604702	11	0.1590009	0.0058872	-327.6853
	65	567	0.0316296	0.0371967	-0.0038505	1	0.0373955	-5.909991	-4.051437E-005	3.604901	11	0.1590002	0.0059459	-327.6853
	66	663	0.0251206	0.03754	-0.0044235	1	0.0377997	-6.720439	-4.722477E-005	3.605107	11	0.1589995	0.0060101	-327.6853
	67	784	0.0199553	0.0379292	-0.0050967	1	0.0382701	-7.653231	-3.99319E-005	3.605339	11	0.1590008	0.006085	-327.6853
	68	936	0.0158522	0.0383954	-0.0059021	1	0.0388463	-8.739042	-4.001513E-005	3.605605	11	0.1590003	0.0061766	-327.6853
	69	1127	0.0125907	0.0389408	-0.0068487	1	0.0395385	-9.9749	-4.07048E-005	3.605939	11	0.159	0.0062866	-327.6853
	70	1446	0.0100011	0.0396689	-0.0079322	1	0.0404542	-11.30776	-4.13181E-005	3.60635	11	0.1589995	0.0064322	-327.6853
