EXPLAIN
TAG	GALVEIS
TITLE	LABEL	Galvanostatic EIS	Test Identifier
DATE	LABEL	23.4.2024	Date
TIME	LABEL	0:05:36	Time
NOTES	NOTES	1	Notes...
	
PSTAT	PSTAT	REF600-12055	Potentiostat
FREQINIT	QUANT	1.00000E+005	Initial Freq. (Hz)
FREQFINAL	QUANT	1.00000E-002	Final Freq. (Hz)
PTSPERDEC	QUANT	1.00000E+001	Points/decade
IACREQ	QUANT	1.59000E-001	AC Current (A rms)
IDCREQ	QUANT	0.00000E+000	DC Current (A)
AREA	QUANT	1.00000E+000	Sample Area (cm^2)
SPEED	SELECTOR	1	Optimize for:
DRIFTCOR	SELECTOR	0	Drift Correction
THD	SELECTOR	0	THD
ZGUESS	QUANT	1.00000E-001	Estimated Z (ohms)
EOC	QUANT	4.089705	Open Circuit (V)
SEQUENCER	TOGGLE	TRUE	Run as Sequence
PSTATMODEL	IQUANT	4	Pstat Model
PSTATSECTION	LABEL	REF600-12055	Pstat Section
PSTATSERIALNO	LABEL	12055	Pstat Serial Number
CTRLMODE	IQUANT	0	Control Mode
ELECTROMETER	IQUANT	0	RE=0 or CS=1
IESTAB	IQUANT	0	I/E Stability
CASPEED	IQUANT	4	Control Amp Speed
CONVENTION	IQUANT	1	Current Convention
ICHRANGE	IQUANT	2	Ich Range
ICHRANGEMODE	TOGGLE	F	Ich Auto Range
ICHOFFSETENABLE	TOGGLE	T	Ich Offset Enable
ICHOFFSET	QUANT	0	Ich Offset (V)
ICHFILTER	IQUANT	3	Ich Filter
VCHRANGE	IQUANT	2	Vch Range
VCHRANGEMODE	TOGGLE	F	Vch Auto Range
VCHOFFSETENABLE	TOGGLE	T	Vch Offset Enable
VCHOFFSET	QUANT	0	Vch Offset (V)
VCHFILTER	IQUANT	3	Vch Filter
ACHRANGE	IQUANT	2	Ach Range
ACHOFFSETENABLE	TOGGLE	F	Ach Offset Enable
ACHOFFSET	QUANT	0	Ach Offset (V)
ACHFILTER	IQUANT	1	Ach Filter
IERANGELOWERLIMIT	IQUANT	1	I/E Range Lower Limit
IERANGEMODE	TOGGLE	F	I/E AutoRange
IERANGE	IQUANT	7	I/E Range
POSFEEDENABLE	TOGGLE	F	Positive Feedback IR Comp
POSFEEDRESISTANCE	QUANT	0	Positive Feedback Resistance (ohm)
ACHSELECT	IQUANT	4	Ach Select
SENSECABLEID	IQUANT	14	Sense Cable ID
PWRCABLEID	IQUANT	14	Power Cable ID
DCCALDATE	LABEL	2/12/2024	DC Calibration Date
ACCALDATE	LABEL	2/12/2024	AC Calibration Date
THERMOSELECT	IQUANT	1	Thermo Select
FRAMEWORKVERSION	LABEL	7.10.3	Framework Version
INSTRUMENTVERSION	LABEL	4.91	Instrument Version
COMMVERSION	LABEL	2.24	Communications Version
CPUPLDVERSION	LABEL	0.00	CPU PLD Version
CTRLPLDVERSION	LABEL	0.00	CTRL PLD Version
PSTATPLDVERSION	LABEL	0.00	PSTAT PLD Version
ZCURVE	TABLE
	Pt	Time	Freq	Zreal	Zimag	Zsig	Zmod	Zphz	Idc	Vdc	IERange	Imod	Vmod	Temp
	#	s	Hz	ohm	ohm	V	ohm	°	A	V	#	A	V	°C
	0	5	100078.1	0.1013908	0.2371719	1	0.2579353	66.85333	3.169582E-005	4.089781	11	0.1596762	0.0408863	-327.6853
	1	7	79453.13	0.0848582	0.1970643	1	0.2145583	66.70273	1.228903E-005	4.089769	11	0.1642776	0.0350842	-327.6853
	2	9	63140.62	0.071902	0.1632352	1	0.1783694	66.22742	-5.706679E-007	4.089779	11	0.1619653	0.0288045	-327.6853
	3	10	50203.12	0.0618618	0.1348044	1	0.148321	65.3496	-9.532203E-006	4.08979	11	0.1609435	0.0238264	-327.6853
	4	12	39890.62	0.0541562	0.1109866	1	0.1234946	63.98981	-1.213374E-005	4.089786	11	0.1602706	0.0197689	-327.6853
	5	14	31640.63	0.0482385	0.0911029	1	0.1030859	62.09904	-1.432118E-005	4.089787	11	0.1598406	0.0164649	-327.6853
	6	15	25171.88	0.0437215	0.0749948	1	0.0868089	59.75809	-1.857989E-005	4.089798	11	0.159548	0.0138435	-327.6853
	7	17	20015.62	0.0401032	0.0617706	1	0.0736469	57.00723	-1.468137E-005	4.089792	11	0.1593504	0.0117321	-327.6853
	8	19	15890.62	0.0371076	0.0508346	1	0.0629375	53.8718	-1.658709E-005	4.089794	11	0.1592282	0.0100195	-327.6853
	9	21	12609.38	0.0345791	0.0417683	1	0.0542245	50.37936	-2.083779E-005	4.089785	11	0.1591432	0.0086284	-327.6853
	10	22	10078.13	0.0325405	0.0343895	1	0.0473447	46.58241	-1.472002E-005	4.089801	11	0.1590807	0.007531	-327.6853
	11	24	8015.625	0.0308685	0.0280149	1	0.0416857	42.22554	-2.056372E-005	4.089789	11	0.1590581	0.0066301	-327.6853
	12	25	6328.125	0.0295637	0.022462	1	0.0371289	37.22701	-1.751527E-005	4.089798	11	0.1590317	0.0059045	-327.6853
	13	27	5015.625	0.02866	0.0179108	1	0.0337963	32.00285	-2.257887E-005	4.089795	11	0.1590149	0.005374	-327.6853
	14	29	3984.375	0.028065	0.0141538	1	0.0314321	26.76281	-2.196174E-005	4.089798	11	0.1590092	0.0049979	-327.6853
	15	30	3170.956	0.0277166	0.0111041	1	0.0298581	21.83244	-2.362631E-005	4.0898	11	0.1590023	0.0047475	-327.6853
	16	32	2527.573	0.0275445	0.0085479	1	0.0288404	17.24079	-2.113503E-005	4.089804	11	0.1590053	0.0045857	-327.6853
	17	34	1976.103	0.0275342	0.0063753	1	0.0282626	13.03654	-2.128212E-005	4.089811	11	0.1590055	0.0044939	-327.6853
	18	35	1577.524	0.0275883	0.0047324	1	0.0279912	9.73359	-2.050097E-005	4.089811	11	0.158996	0.0044505	-327.6853
	19	37	1265.625	0.0277188	0.0034282	1	0.02793	7.050485	-2.079853E-005	4.089812	11	0.1590015	0.0044409	-327.6853
	20	38	998.264	0.0278986	0.002375	1	0.0279995	4.865838	-1.602399E-005	4.089828	11	0.1590027	0.004452	-327.6853
	21	40	796.875	0.0281211	0.0014745	1	0.0281598	3.001416	-1.739326E-005	4.089831	11	0.1589937	0.0044772	-327.6853
	22	41	627.7902	0.028351	0.0007692	1	0.0283614	1.554097	-2.053671E-005	4.089833	11	0.1589965	0.0045094	-327.6853
	23	43	505.5147	0.0285909	0.0002488	1	0.028592	0.4986159	-2.011127E-005	4.089838	11	0.157607	0.0044813	-327.6853
	24	44	397.9953	0.0288713	-0.0001995	1	0.028872	-0.3958949	-2.058654E-005	4.089841	11	0.1606018	0.0046179	-327.6853
	25	46	315.5048	0.0291357	-0.0005519	1	0.0291409	-1.085278	-2.559437E-005	4.089841	11	0.1593415	0.0046303	-327.6853
	26	47	252.4038	0.0293921	-0.0008335	1	0.0294039	-1.624406	-2.05168E-005	4.089843	11	0.1589682	0.0046654	-327.6853
	27	49	198.6229	0.0296688	-0.0010829	1	0.0296886	-2.090397	-1.918746E-005	4.08985	11	0.1588764	0.0047111	-327.6853
	28	50	158.3615	0.0299441	-0.0012834	1	0.0299716	-2.454245	-3.127755E-005	4.089855	11	0.1588885	0.0047584	-327.6853
	29	52	125.558	0.0302236	-0.0014546	1	0.0302586	-2.755432	-1.499709E-005	4.089856	11	0.1589105	0.004806	-327.6853
	30	53	100.4464	0.0305009	-0.0015965	1	0.0305426	-2.996333	-1.705484E-005	4.089864	11	0.158944	0.004853	-327.6853
	31	55	79.00281	0.0308121	-0.0017252	1	0.0308604	-3.204639	-2.598343E-005	4.089863	11	0.1589597	0.0049046	-327.6853
	32	56	63.3446	0.0310931	-0.0018342	1	0.0311471	-3.376054	-2.16433E-005	4.089866	11	0.1589714	0.0049509	-327.6853
	33	58	50.22321	0.0314141	-0.0019357	1	0.0314736	-3.525966	-1.66127E-005	4.089866	11	0.1589824	0.0050034	-327.6853
	34	59	38.42213	0.031782	-0.0020464	1	0.0318478	-3.684041	-1.539249E-005	4.089863	11	0.1589862	0.0050631	-327.6853
	35	61	31.25	0.0320704	-0.0021112	1	0.0321398	-3.76635	-3.552483E-005	4.089871	11	0.1589936	0.0051099	-327.6853
	36	62	24.93351	0.032408	-0.002179	1	0.0324812	-3.846608	-2.295594E-005	4.089865	11	0.1589977	0.0051643	-327.6853
	37	64	19.86229	0.0327591	-0.0022458	1	0.032836	-3.921726	-4.311401E-005	4.089881	11	0.158997	0.0052208	-327.6853
	38	65	15.625	0.0331511	-0.0023079	1	0.0332313	-3.982351	-1.125061E-005	4.089871	11	0.158984	0.0052832	-327.6853
	39	67	12.40079	0.0335327	-0.002345	1	0.0336146	-4.000263	2.744491E-006	4.089885	11	0.1589967	0.0053446	-327.6853
	40	68	9.93114	0.0339214	-0.0023505	1	0.0340027	-3.963886	-2.480811E-007	4.089895	11	0.1590051	0.0054066	-327.6853
	41	70	7.944915	0.0343045	-0.0023333	1	0.0343837	-3.891041	-8.219038E-006	4.089873	11	0.1589948	0.0054668	-327.6853
	42	72	6.317385	0.0347014	-0.0022735	1	0.0347758	-3.748502	-0.0001035	4.08988	11	0.1590229	0.0055301	-327.6853
	43	74	5.008013	0.0350736	-0.0021975	1	0.0351424	-3.585074	-4.016678E-005	4.089903	11	0.1589947	0.0055874	-327.6853
	44	76	3.945707	0.0354249	-0.0020912	1	0.0354866	-3.37834	1.601956E-005	4.089887	11	0.1589702	0.0056413	-327.6853
	45	79	3.158693	0.0357281	-0.0019855	1	0.0357832	-3.180771	7.485528E-005	4.089877	11	0.1589932	0.0056893	-327.6853
	46	82	2.504006	0.0360043	-0.0018722	1	0.0360529	-2.976597	-3.00071E-005	4.089878	11	0.1554561	0.0055813	-327.6853
	47	85	1.998082	0.0362311	-0.0017786	1	0.0362747	-2.810461	0.000205	4.089905	11	0.1614527	0.005839	-327.6853
	48	89	1.584686	0.0364621	-0.0017112	1	0.0365022	-2.687007	9.14539E-005	4.089901	11	0.1597903	0.0058208	-327.6853
	49	93	1.266892	0.0366605	-0.0016521	1	0.0366978	-2.580281	-0.000174	4.089944	11	0.1593375	0.0058394	-327.6853
	50	98	0.999041	0.0368552	-0.001635	1	0.0368915	-2.54009	-0.0002196	4.089937	11	0.1591172	0.005865	-327.6853
	51	102	0.7923428	0.0370656	-0.0016292	1	0.0371014	-2.516767	-4.237451E-005	4.089964	11	0.1592141	0.0059038	-327.6853
	52	110	0.6334459	0.0372603	-0.0016412	1	0.0372965	-2.52204	-4.575972E-005	4.089969	11	0.1589823	0.0059274	-327.6853
	53	119	0.5040323	0.0374515	-0.0016758	1	0.037489	-2.562086	-4.087135E-005	4.089983	11	0.1589831	0.0059588	-327.6853
	54	129	0.400641	0.0376526	-0.0017365	1	0.0376926	-2.640577	-3.83911E-005	4.090001	11	0.1589865	0.0059918	-327.6853
	55	140	0.316723	0.0378722	-0.0018191	1	0.0379159	-2.749935	-3.812643E-005	4.090017	11	0.1589901	0.0060277	-327.6853
	56	155	0.2520161	0.0380944	-0.0019252	1	0.038143	-2.893111	-4.730708E-005	4.090033	11	0.1589942	0.0060642	-327.6853
	57	176	0.2003205	0.0383249	-0.0020523	1	0.0383798	-3.065198	-3.976982E-005	4.090055	11	0.1589961	0.006102	-327.6853
	58	202	0.1588983	0.0385909	-0.0022046	1	0.0386538	-3.269576	-3.985547E-005	4.090081	11	0.1589967	0.0061457	-327.6853
	59	228	0.1260081	0.038897	-0.0023906	1	0.0389704	-3.516897	-3.705504E-005	4.090178	11	0.1589983	0.0061961	-327.6853
	60	266	0.1001603	0.03922	-0.0025921	1	0.0393055	-3.781322	-4.369917E-005	4.090339	11	0.1589993	0.0062495	-327.6853
	61	312	0.0794492	0.0395757	-0.0028313	1	0.0396768	-4.092052	-4.096761E-005	4.090477	11	0.1589994	0.0063086	-327.6853
	62	364	0.0631739	0.0398835	-0.0031234	1	0.0400057	-4.477898	-4.400135E-005	4.090422	11	0.1590004	0.0063609	-327.6853
	63	413	0.0501337	0.0402644	-0.0034585	1	0.0404126	-4.909415	-4.0479E-005	4.090442	11	0.1589978	0.0064255	-327.6853
	64	474	0.0398258	0.0407066	-0.0038308	1	0.0408865	-5.37613	-4.581276E-005	4.090491	11	0.1590012	0.006501	-327.6853
	65	551	0.0316296	0.0411793	-0.0042558	1	0.0413987	-5.900437	-3.97621E-005	4.090545	11	0.1589988	0.0065823	-327.6853
	66	648	0.0251206	0.0417185	-0.0047469	1	0.0419877	-6.491366	-3.976102E-005	4.090612	11	0.1590007	0.0066761	-327.6853
	67	769	0.0199553	0.0422852	-0.0053038	1	0.0426165	-7.149219	-4.112734E-005	4.090699	11	0.1589996	0.006776	-327.6853
	68	921	0.0158522	0.0428371	-0.0059407	1	0.0432471	-7.89551	-3.889728E-005	4.09081	11	0.1590007	0.0068763	-327.6853
	69	1174	0.0125907	0.0434738	-0.0066534	1	0.04398	-8.70122	-4.123085E-005	4.090933	11	0.1589992	0.0069928	-327.6853
	70	1414	0.0100011	0.0442231	-0.0074605	1	0.044848	-9.57574	-3.917984E-005	4.091062	11	0.1590009	0.0071309	-327.6853
