EXPLAIN
TAG	GALVEIS
TITLE	LABEL	Galvanostatic EIS	Test Identifier
DATE	LABEL	23.4.2024	Date
TIME	LABEL	5:19:57	Time
NOTES	NOTES	1	Notes...
	
PSTAT	PSTAT	REF600-12055	Potentiostat
FREQINIT	QUANT	1.00000E+005	Initial Freq. (Hz)
FREQFINAL	QUANT	1.00000E-002	Final Freq. (Hz)
PTSPERDEC	QUANT	1.00000E+001	Points/decade
IACREQ	QUANT	1.59000E-001	AC Current (A rms)
IDCREQ	QUANT	0.00000E+000	DC Current (A)
AREA	QUANT	1.00000E+000	Sample Area (cm^2)
SPEED	SELECTOR	1	Optimize for:
DRIFTCOR	SELECTOR	0	Drift Correction
THD	SELECTOR	0	THD
ZGUESS	QUANT	1.00000E-001	Estimated Z (ohms)
EOC	QUANT	3.751237	Open Circuit (V)
SEQUENCER	TOGGLE	TRUE	Run as Sequence
PSTATMODEL	IQUANT	4	Pstat Model
PSTATSECTION	LABEL	REF600-12055	Pstat Section
PSTATSERIALNO	LABEL	12055	Pstat Serial Number
CTRLMODE	IQUANT	0	Control Mode
ELECTROMETER	IQUANT	0	RE=0 or CS=1
IESTAB	IQUANT	0	I/E Stability
CASPEED	IQUANT	4	Control Amp Speed
CONVENTION	IQUANT	1	Current Convention
ICHRANGE	IQUANT	2	Ich Range
ICHRANGEMODE	TOGGLE	F	Ich Auto Range
ICHOFFSETENABLE	TOGGLE	T	Ich Offset Enable
ICHOFFSET	QUANT	0	Ich Offset (V)
ICHFILTER	IQUANT	3	Ich Filter
VCHRANGE	IQUANT	2	Vch Range
VCHRANGEMODE	TOGGLE	F	Vch Auto Range
VCHOFFSETENABLE	TOGGLE	T	Vch Offset Enable
VCHOFFSET	QUANT	0	Vch Offset (V)
VCHFILTER	IQUANT	3	Vch Filter
ACHRANGE	IQUANT	2	Ach Range
ACHOFFSETENABLE	TOGGLE	F	Ach Offset Enable
ACHOFFSET	QUANT	0	Ach Offset (V)
ACHFILTER	IQUANT	1	Ach Filter
IERANGELOWERLIMIT	IQUANT	1	I/E Range Lower Limit
IERANGEMODE	TOGGLE	F	I/E AutoRange
IERANGE	IQUANT	7	I/E Range
POSFEEDENABLE	TOGGLE	F	Positive Feedback IR Comp
POSFEEDRESISTANCE	QUANT	0	Positive Feedback Resistance (ohm)
ACHSELECT	IQUANT	4	Ach Select
SENSECABLEID	IQUANT	14	Sense Cable ID
PWRCABLEID	IQUANT	14	Power Cable ID
DCCALDATE	LABEL	2/12/2024	DC Calibration Date
ACCALDATE	LABEL	2/12/2024	AC Calibration Date
THERMOSELECT	IQUANT	1	Thermo Select
FRAMEWORKVERSION	LABEL	7.10.3	Framework Version
INSTRUMENTVERSION	LABEL	4.91	Instrument Version
COMMVERSION	LABEL	2.24	Communications Version
CPUPLDVERSION	LABEL	0.00	CPU PLD Version
CTRLPLDVERSION	LABEL	0.00	CTRL PLD Version
PSTATPLDVERSION	LABEL	0.00	PSTAT PLD Version
ZCURVE	TABLE
	Pt	Time	Freq	Zreal	Zimag	Zsig	Zmod	Zphz	Idc	Vdc	IERange	Imod	Vmod	Temp
	#	s	Hz	ohm	ohm	V	ohm	°	A	V	#	A	V	°C
	0	5	100078.1	0.1012801	0.2374013	1	0.2581028	66.89594	1.635891E-005	3.751133	11	0.1596445	0.0409047	-327.6853
	1	6	79453.13	0.084824	0.1972104	1	0.2146789	66.72654	2.98419E-006	3.751154	11	0.1642991	0.0351085	-327.6853
	2	8	63140.62	0.0719071	0.1633591	1	0.1784848	66.24194	-1.07279E-005	3.751159	11	0.1619712	0.0288242	-327.6853
	3	10	50203.12	0.0618915	0.1349076	1	0.1484271	65.35577	-3.891415E-006	3.751174	11	0.1609274	0.0238411	-327.6853
	4	12	39890.62	0.0542007	0.1110746	1	0.1235932	63.98915	-1.407135E-005	3.751186	11	0.1602785	0.0197857	-327.6853
	5	13	31640.63	0.0482907	0.0911901	1	0.1031874	62.09605	-1.34852E-005	3.75118	11	0.1598408	0.0164811	-327.6853
	6	15	25171.88	0.0437647	0.0750622	1	0.086889	59.75585	-1.307181E-005	3.751201	11	0.1595409	0.0138557	-327.6853
	7	17	20015.62	0.040154	0.0618253	1	0.0737205	56.99726	-1.663447E-005	3.751192	11	0.1593557	0.0117442	-327.6853
	8	18	15890.62	0.0371371	0.0508822	1	0.0629934	53.87566	-1.857948E-005	3.751191	11	0.1592278	0.0100284	-327.6853
	9	20	12609.38	0.0346184	0.0418067	1	0.0542793	50.37324	-1.808712E-005	3.751203	11	0.1591409	0.008637	-327.6853
	10	22	10078.13	0.0325807	0.0344253	1	0.0473983	46.57689	-1.453271E-005	3.751217	11	0.1590843	0.0075398	-327.6853
	11	24	8015.625	0.0309055	0.0280499	1	0.0417366	42.22701	-1.79389E-005	3.751224	11	0.1590553	0.0066381	-327.6853
	12	25	6328.125	0.0296042	0.0224914	1	0.0371789	37.22522	-1.597148E-005	3.751226	11	0.1590292	0.0059124	-327.6853
	13	27	5015.625	0.0286958	0.0179292	1	0.0338364	31.99725	-1.775101E-005	3.75124	11	0.1590192	0.0053805	-327.6853
	14	28	3984.375	0.0280932	0.0141913	1	0.0314742	26.80062	-1.539185E-005	3.751243	11	0.1590077	0.0050046	-327.6853
	15	30	3170.956	0.0277422	0.0111105	1	0.0298843	21.82578	-1.619669E-005	3.751248	11	0.1590066	0.0047518	-327.6853
	16	32	2527.573	0.0275885	0.0085723	1	0.0288896	17.26103	-2.101797E-005	3.751257	11	0.1590057	0.0045936	-327.6853
	17	33	1976.103	0.0275426	0.0064255	1	0.0282822	13.13175	-1.976651E-005	3.751266	11	0.1590008	0.0044969	-327.6853
	18	35	1577.524	0.027623	0.0047957	1	0.0280362	9.84904	-2.025889E-005	3.751271	11	0.1590047	0.0044579	-327.6853
	19	37	1265.625	0.0277427	0.0035237	1	0.0279655	7.238553	-2.209586E-005	3.751271	11	0.1590008	0.0044465	-327.6853
	20	38	998.264	0.0279131	0.0024007	1	0.0280161	4.915631	-1.590198E-005	3.751285	11	0.1589985	0.0044545	-327.6853
	21	40	796.875	0.0281521	0.0015531	1	0.0281949	3.15761	-2.072017E-005	3.751292	11	0.159003	0.0044831	-327.6853
	22	41	627.7902	0.0283713	0.0008029	1	0.0283827	1.621107	-1.784752E-005	3.751301	11	0.1589924	0.0045126	-327.6853
	23	43	505.5147	0.0286186	0.0002603	1	0.0286197	0.5210521	-1.609442E-005	3.751312	11	0.1576016	0.0044855	-327.6853
	24	44	397.9953	0.0289011	-0.0001801	1	0.0289016	-0.3571076	-1.951045E-005	3.751315	11	0.1606015	0.0046226	-327.6853
	25	46	315.5048	0.0291758	-0.0005261	1	0.0291805	-1.033014	-1.971994E-005	3.751324	11	0.1593398	0.0046365	-327.6853
	26	47	252.4038	0.0294408	-0.0007948	1	0.0294515	-1.546395	-1.608173E-005	3.751333	11	0.1589656	0.0046729	-327.6853
	27	49	198.6229	0.0297281	-0.001034	1	0.0297461	-1.992059	-1.920736E-005	3.751337	11	0.1588757	0.0047202	-327.6853
	28	50	158.3615	0.0300098	-0.0012052	1	0.0300339	-2.299782	-2.917775E-005	3.751344	11	0.1588912	0.0047684	-327.6853
	29	52	125.558	0.0303038	-0.0013433	1	0.0303335	-2.538069	-3.204413E-005	3.751347	11	0.1589101	0.0048179	-327.6853
	30	53	100.4464	0.0305823	-0.0014386	1	0.0306161	-2.693287	-3.424461E-005	3.751357	11	0.1589438	0.0048647	-327.6853
	31	55	79.00281	0.0308908	-0.0015106	1	0.0309278	-2.799647	-2.970872E-005	3.751368	11	0.1589573	0.0049152	-327.6853
	32	56	63.3446	0.031171	-0.0015478	1	0.0312094	-2.842698	-1.911359E-005	3.751375	11	0.1589785	0.004961	-327.6853
	33	58	50.22321	0.0314713	-0.0015585	1	0.0315099	-2.835061	-2.45783E-005	3.751382	11	0.1589812	0.0050091	-327.6853
	34	60	38.42213	0.0318009	-0.0015284	1	0.0318376	-2.751625	-2.21458E-005	3.751389	11	0.1589877	0.0050616	-327.6853
	35	61	31.25	0.0320423	-0.0014958	1	0.0320772	-2.672727	-8.280738E-006	3.751394	11	0.1589937	0.0050999	-327.6853
	36	63	24.93351	0.0322883	-0.001431	1	0.03232	-2.537728	-1.903425E-005	3.751406	11	0.1589958	0.0051386	-327.6853
	37	65	19.86229	0.0325108	-0.00135	1	0.0325388	-2.377734	-4.95147E-005	3.751416	11	0.1589719	0.0051727	-327.6853
	38	66	15.625	0.0327364	-0.0012476	1	0.0327602	-2.182544	-2.168227E-005	3.751415	11	0.1590161	0.0052094	-327.6853
	39	68	12.40079	0.0329019	-0.0011639	1	0.0329225	-2.025982	-1.582049E-005	3.751423	11	0.1589883	0.0052343	-327.6853
	40	69	9.93114	0.0330483	-0.0010765	1	0.0330658	-1.865644	-1.477543E-006	3.751447	11	0.1589896	0.0052571	-327.6853
	41	71	7.944915	0.0331718	-0.001003	1	0.033187	-1.731961	-3.879366E-005	3.751447	11	0.1590113	0.0052771	-327.6853
	42	72	6.317385	0.0332878	-0.000937	1	0.033301	-1.612343	-5.611655E-006	3.751471	11	0.1589673	0.0052938	-327.6853
	43	75	5.008013	0.033393	-0.0008942	1	0.033405	-1.53384	-6.033119E-005	3.751494	11	0.1590306	0.0053124	-327.6853
	44	77	3.945707	0.0334883	-0.0008599	1	0.0334993	-1.470822	3.471621E-006	3.751483	11	0.1589891	0.005326	-327.6853
	45	80	3.158693	0.0335746	-0.0008548	1	0.0335855	-1.458421	6.341864E-005	3.751478	11	0.1589904	0.0053398	-327.6853
	46	83	2.504006	0.0336729	-0.0008437	1	0.0336835	-1.435296	-3.405835E-005	3.751485	11	0.1554528	0.0052144	-327.6853
	47	87	1.998082	0.0337609	-0.0008593	1	0.0337718	-1.458035	0.0002026	3.751523	11	0.1614408	0.0054357	-327.6853
	48	92	1.584686	0.0338617	-0.0009003	1	0.0338736	-1.523059	5.017876E-005	3.751529	11	0.1597869	0.0054016	-327.6853
	49	96	1.266892	0.0339581	-0.0009377	1	0.033971	-1.581682	-0.0001446	3.751592	11	0.1593335	0.0054054	-327.6853
	50	101	0.999041	0.0340673	-0.0010014	1	0.034082	-1.683651	-0.0001864	3.751597	11	0.1591215	0.0054185	-327.6853
	51	105	0.7923428	0.0341928	-0.0010753	1	0.0342097	-1.801301	-3.805582E-005	3.751628	11	0.1592341	0.0054444	-327.6853
	52	112	0.6334459	0.0343152	-0.001156	1	0.0343347	-1.929383	-3.538252E-005	3.751658	11	0.1589831	0.0054567	-327.6853
	53	120	0.5040323	0.0344552	-0.0012577	1	0.0344781	-2.090561	-4.219401E-005	3.751694	11	0.1589831	0.0054802	-327.6853
	54	129	0.400641	0.0345949	-0.0013725	1	0.0346221	-2.271855	-3.87683E-005	3.75174	11	0.1589855	0.0055036	-327.6853
	55	143	0.316723	0.034757	-0.001513	1	0.0347899	-2.492507	-3.938148E-005	3.751806	11	0.1589899	0.0055307	-327.6853
	56	161	0.2520161	0.0349342	-0.0016697	1	0.0349741	-2.736458	-4.368613E-005	3.751873	11	0.1589934	0.0055603	-327.6853
	57	178	0.2003205	0.0351163	-0.0018494	1	0.035165	-3.014615	-3.809897E-005	3.75195	11	0.1589963	0.0055909	-327.6853
	58	204	0.1588983	0.0353268	-0.0020623	1	0.0353869	-3.341084	-4.102474E-005	3.752056	11	0.1589974	0.0056263	-327.6853
	59	230	0.1260081	0.0355656	-0.0022922	1	0.0356394	-3.687668	-4.260413E-005	3.752256	11	0.1589987	0.0056665	-327.6853
	60	268	0.1001603	0.0358674	-0.0025667	1	0.0359591	-4.093163	-4.019556E-005	3.752569	11	0.1589979	0.0057174	-327.6853
	61	304	0.0794492	0.0361551	-0.002878	1	0.0362695	-4.551288	-4.043734E-005	3.752873	11	0.1590001	0.0057668	-327.6853
	62	356	0.0631739	0.0363933	-0.0032573	1	0.0365388	-5.114527	-4.101251E-005	3.752956	11	0.158999	0.0058096	-327.6853
	63	421	0.0501337	0.0367229	-0.0036801	1	0.0369068	-5.722699	-4.339153E-005	3.753124	11	0.1590002	0.0058682	-327.6853
	64	482	0.0398258	0.0370682	-0.0041768	1	0.0373028	-6.428835	-3.973654E-005	3.75333	11	0.1590007	0.0059312	-327.6853
	65	559	0.0316296	0.0374819	-0.0047829	1	0.0377859	-7.271945	-3.979295E-005	3.753568	11	0.1589998	0.0060079	-327.6853
	66	656	0.0251206	0.0379213	-0.0055055	1	0.0383188	-8.260585	-4.140803E-005	3.753875	11	0.159	0.0060927	-327.6853
	67	816	0.0199553	0.0384447	-0.0063682	1	0.0389686	-9.405387	-4.074384E-005	3.754225	11	0.1589999	0.006196	-327.6853
	68	968	0.0158522	0.0390636	-0.0074022	1	0.0397587	-10.72979	-3.988107E-005	3.754617	11	0.1589999	0.0063216	-327.6853
	69	1222	0.0125907	0.0398681	-0.0086488	1	0.0407954	-12.23978	-4.010192E-005	3.755088	11	0.1590007	0.0064865	-327.6853
	70	1541	0.0100011	0.0409302	-0.0101086	1	0.04216	-13.87287	-4.146764E-005	3.75549	11	0.1590002	0.0067034	-327.6853
