EXPLAIN
TAG	GALVEIS
TITLE	LABEL	Galvanostatic EIS	Test Identifier
DATE	LABEL	23.4.2024	Date
TIME	LABEL	11:53:25	Time
NOTES	NOTES	1	Notes...
	
PSTAT	PSTAT	REF600-12055	Potentiostat
FREQINIT	QUANT	1.00000E+005	Initial Freq. (Hz)
FREQFINAL	QUANT	1.00000E-002	Final Freq. (Hz)
PTSPERDEC	QUANT	1.00000E+001	Points/decade
IACREQ	QUANT	1.59000E-001	AC Current (A rms)
IDCREQ	QUANT	0.00000E+000	DC Current (A)
AREA	QUANT	1.00000E+000	Sample Area (cm^2)
SPEED	SELECTOR	1	Optimize for:
DRIFTCOR	SELECTOR	0	Drift Correction
THD	SELECTOR	0	THD
ZGUESS	QUANT	1.00000E-001	Estimated Z (ohms)
EOC	QUANT	3.231658	Open Circuit (V)
SEQUENCER	TOGGLE	TRUE	Run as Sequence
PSTATMODEL	IQUANT	4	Pstat Model
PSTATSECTION	LABEL	REF600-12055	Pstat Section
PSTATSERIALNO	LABEL	12055	Pstat Serial Number
CTRLMODE	IQUANT	0	Control Mode
ELECTROMETER	IQUANT	0	RE=0 or CS=1
IESTAB	IQUANT	0	I/E Stability
CASPEED	IQUANT	4	Control Amp Speed
CONVENTION	IQUANT	1	Current Convention
ICHRANGE	IQUANT	2	Ich Range
ICHRANGEMODE	TOGGLE	F	Ich Auto Range
ICHOFFSETENABLE	TOGGLE	T	Ich Offset Enable
ICHOFFSET	QUANT	0	Ich Offset (V)
ICHFILTER	IQUANT	3	Ich Filter
VCHRANGE	IQUANT	2	Vch Range
VCHRANGEMODE	TOGGLE	F	Vch Auto Range
VCHOFFSETENABLE	TOGGLE	T	Vch Offset Enable
VCHOFFSET	QUANT	0	Vch Offset (V)
VCHFILTER	IQUANT	3	Vch Filter
ACHRANGE	IQUANT	2	Ach Range
ACHOFFSETENABLE	TOGGLE	F	Ach Offset Enable
ACHOFFSET	QUANT	0	Ach Offset (V)
ACHFILTER	IQUANT	1	Ach Filter
IERANGELOWERLIMIT	IQUANT	1	I/E Range Lower Limit
IERANGEMODE	TOGGLE	F	I/E AutoRange
IERANGE	IQUANT	7	I/E Range
POSFEEDENABLE	TOGGLE	F	Positive Feedback IR Comp
POSFEEDRESISTANCE	QUANT	0	Positive Feedback Resistance (ohm)
ACHSELECT	IQUANT	4	Ach Select
SENSECABLEID	IQUANT	14	Sense Cable ID
PWRCABLEID	IQUANT	14	Power Cable ID
DCCALDATE	LABEL	2/12/2024	DC Calibration Date
ACCALDATE	LABEL	2/12/2024	AC Calibration Date
THERMOSELECT	IQUANT	1	Thermo Select
FRAMEWORKVERSION	LABEL	7.10.3	Framework Version
INSTRUMENTVERSION	LABEL	4.91	Instrument Version
COMMVERSION	LABEL	2.24	Communications Version
CPUPLDVERSION	LABEL	0.00	CPU PLD Version
CTRLPLDVERSION	LABEL	0.00	CTRL PLD Version
PSTATPLDVERSION	LABEL	0.00	PSTAT PLD Version
ZCURVE	TABLE
	Pt	Time	Freq	Zreal	Zimag	Zsig	Zmod	Zphz	Idc	Vdc	IERange	Imod	Vmod	Temp
	#	s	Hz	ohm	ohm	V	ohm	°	A	V	#	A	V	°C
	0	5	100078.1	0.1012736	0.239097	1	0.2596608	67.04408	2.618786E-005	3.231602	11	0.1597006	0.0411661	-327.6853
	1	6	79453.13	0.0849154	0.1984883	1	0.2158894	66.83824	1.378113E-005	3.231615	11	0.1641938	0.0352838	-327.6853
	2	8	63140.62	0.0721047	0.164322	1	0.1794459	66.30807	-1.337437E-006	3.231651	11	0.1619714	0.0289795	-327.6853
	3	10	50203.12	0.0621591	0.1356419	1	0.1492062	65.37997	-1.503318E-005	3.231671	11	0.1609053	0.023963	-327.6853
	4	11	39890.62	0.0545281	0.1116394	1	0.1242444	63.9677	-2.250227E-005	3.231689	11	0.160259	0.0198875	-327.6853
	5	13	31640.63	0.0486466	0.0916192	1	0.1037331	62.03325	-1.206342E-005	3.23172	11	0.1598357	0.0165677	-327.6853
	6	15	25171.88	0.0441529	0.0754003	1	0.0873767	59.64761	-2.727611E-005	3.231735	11	0.1595372	0.0139331	-327.6853
	7	17	20015.62	0.0405486	0.0620896	1	0.0741573	56.85279	-1.922809E-005	3.231758	11	0.1593543	0.0118137	-327.6853
	8	18	15890.62	0.0375555	0.0510953	1	0.0634125	53.68381	-1.536094E-005	3.231791	11	0.1592247	0.0100949	-327.6853
	9	20	12609.38	0.0350443	0.0419686	1	0.054676	50.13768	-1.67219E-005	3.231814	11	0.1591388	0.0087	-327.6853
	10	21	10078.13	0.0330019	0.0345554	1	0.0477829	46.31731	-1.850189E-005	3.231826	11	0.15908	0.0076007	-327.6853
	11	23	8015.625	0.0313187	0.0281443	1	0.0421065	41.94421	-2.034521E-005	3.231847	11	0.1590546	0.0066969	-327.6853
	12	24	6328.125	0.0300086	0.0225671	1	0.0375472	36.94395	-3.258348E-005	3.231864	11	0.159036	0.0059712	-327.6853
	13	26	5015.625	0.0291118	0.0179954	1	0.0342247	31.72224	-3.379839E-005	3.231897	11	0.1590133	0.0054421	-327.6853
	14	28	3984.375	0.0285134	0.0142153	1	0.0318604	26.49841	-3.0298E-005	3.231922	11	0.1590061	0.0050659	-327.6853
	15	30	3170.956	0.0281607	0.0111411	1	0.0302845	21.58495	-3.353227E-005	3.231936	11	0.1590079	0.0048154	-327.6853
	16	31	2527.573	0.0279995	0.0086134	1	0.0292944	17.09923	-3.105635E-005	3.231963	11	0.159005	0.0046579	-327.6853
	17	33	1976.103	0.0279703	0.0063439	1	0.0286807	12.77896	-1.926697E-005	3.231988	11	0.1589984	0.0045602	-327.6853
	18	34	1577.524	0.0280323	0.0047079	1	0.0284249	9.53358	-2.022E-005	3.232012	11	0.1589971	0.0045195	-327.6853
	19	36	1265.625	0.0281528	0.0034075	1	0.0283582	6.901197	-2.261135E-005	3.23203	11	0.1590041	0.0045091	-327.6853
	20	37	998.264	0.0283559	0.0023109	1	0.0284499	4.65916	-1.805567E-005	3.232055	11	0.1590022	0.0045236	-327.6853
	21	39	796.875	0.0285646	0.0013812	1	0.028598	2.768244	-1.901714E-005	3.232079	11	0.1589976	0.004547	-327.6853
	22	40	627.7902	0.0288281	0.0006419	1	0.0288352	1.275637	-2.310798E-005	3.232089	11	0.1589968	0.0045847	-327.6853
	23	42	505.5147	0.0290771	9.477189E-005	1	0.0290773	0.1867451	-2.612581E-005	3.232121	11	0.1576045	0.0045573	-327.6853
	24	43	397.9953	0.029385	-0.0003853	1	0.0293875	-0.7511905	-1.952704E-005	3.232141	11	0.1605973	0.0047002	-327.6853
	25	45	315.5048	0.0296765	-0.0007673	1	0.0296864	-1.48107	-1.878002E-005	3.232165	11	0.1593431	0.004717	-327.6853
	26	46	252.4038	0.0299655	-0.0010852	1	0.0299851	-2.074111	-2.184592E-005	3.232187	11	0.1589679	0.0047577	-327.6853
	27	48	198.6229	0.0302902	-0.0013651	1	0.030321	-2.580407	-2.016529E-005	3.232207	11	0.1588785	0.0048115	-327.6853
	28	49	158.3615	0.0306043	-0.0015909	1	0.0306456	-2.975811	-1.995877E-005	3.232243	11	0.1588832	0.0048653	-327.6853
	29	51	125.558	0.0309296	-0.0017943	1	0.0309816	-3.320089	-1.768582E-005	3.232257	11	0.1589124	0.0049209	-327.6853
	30	52	100.4464	0.0312558	-0.0019588	1	0.0313171	-3.586038	-1.625402E-005	3.232284	11	0.1589444	0.0049761	-327.6853
	31	54	79.00281	0.0316095	-0.0021177	1	0.0316803	-3.832916	-3.07014E-005	3.232307	11	0.1589612	0.0050349	-327.6853
	32	55	63.3446	0.0319487	-0.0022487	1	0.0320278	-4.026067	-3.120687E-005	3.232319	11	0.158974	0.0050909	-327.6853
	33	57	50.22321	0.032304	-0.0023844	1	0.0323919	-4.221366	-2.549682E-005	3.232348	11	0.1589831	0.0051493	-327.6853
	34	59	38.42213	0.0327297	-0.0025409	1	0.0328282	-4.439134	-1.864904E-005	3.232373	11	0.1589833	0.0052189	-327.6853
	35	60	31.25	0.0330638	-0.0026559	1	0.0331703	-4.592597	-2.268821E-005	3.232395	11	0.159003	0.005274	-327.6853
	36	62	24.93351	0.0334451	-0.0027931	1	0.0335615	-4.773894	-2.12198E-005	3.232415	11	0.1589875	0.0053358	-327.6853
	37	64	19.86229	0.0338395	-0.0029517	1	0.033968	-4.985136	3.024703E-006	3.232453	11	0.1589834	0.0054003	-327.6853
	38	65	15.625	0.0342804	-0.0031288	1	0.0344229	-5.214905	-5.182461E-006	3.232451	11	0.1589947	0.005473	-327.6853
	39	66	12.40079	0.0347501	-0.0032946	1	0.0349059	-5.415922	-4.334375E-006	3.232518	11	0.1590045	0.0055502	-327.6853
	40	68	9.93114	0.0352194	-0.0035109	1	0.035394	-5.692815	-7.722934E-006	3.232526	11	0.1590057	0.0056278	-327.6853
	41	70	7.944915	0.0357287	-0.0036901	1	0.0359188	-5.896659	-6.477465E-006	3.232518	11	0.1589918	0.0057108	-327.6853
	42	72	6.317385	0.0363402	-0.0039019	1	0.0365491	-6.128403	-7.097411E-005	3.232527	11	0.158984	0.0058107	-327.6853
	43	74	5.008013	0.0369895	-0.0040755	1	0.0372133	-6.287433	2.924353E-007	3.232534	11	0.1590278	0.005918	-327.6853
	44	76	3.945707	0.0377262	-0.0041914	1	0.0379583	-6.339596	-3.237795E-005	3.232589	11	0.1589908	0.006035	-327.6853
	45	79	3.158693	0.0384264	-0.0042609	1	0.0386619	-6.327355	2.55573E-005	3.232607	11	0.1590188	0.006148	-327.6853
	46	82	2.504006	0.0391896	-0.0042687	1	0.0394214	-6.216417	3.142713E-005	3.232616	11	0.1553789	0.0060998	-327.6853
	47	86	1.998082	0.0399032	-0.0042018	1	0.0401238	-6.011148	-0.0001491	3.23262	11	0.1613985	0.0064564	-327.6853
	48	90	1.584686	0.0405585	-0.0041048	1	0.0407657	-5.779067	-0.00031	3.23267	11	0.1600343	0.0065106	-327.6853
	49	94	1.266892	0.0411505	-0.0039475	1	0.0413394	-5.47959	0.0001907	3.23282	11	0.1592341	0.0065737	-327.6853
	50	98	0.999041	0.0417367	-0.0038083	1	0.0419101	-5.213605	0.0001408	3.232927	11	0.1590368	0.0066595	-327.6853
	51	103	0.7923428	0.0422585	-0.0036773	1	0.0424182	-4.973342	-4.679943E-005	3.233026	11	0.1592317	0.0067506	-327.6853
	52	109	0.6334459	0.0426917	-0.0035833	1	0.0428418	-4.797776	-4.213152E-005	3.233132	11	0.1589825	0.0068087	-327.6853
	53	119	0.5040323	0.0431013	-0.0035332	1	0.0432459	-4.686348	-4.082761E-005	3.233283	11	0.1589824	0.0068738	-327.6853
	54	130	0.400641	0.0434895	-0.0035263	1	0.0436323	-4.635637	-3.93417E-005	3.233466	11	0.1589854	0.0069359	-327.6853
	55	144	0.316723	0.0438862	-0.0035855	1	0.0440324	-4.670687	-4.058071E-005	3.23367	11	0.1589902	0.0070001	-327.6853
	56	159	0.2520161	0.044237	-0.0036996	1	0.0443914	-4.780568	-4.03434E-005	3.233893	11	0.1589934	0.0070575	-327.6853
	57	176	0.2003205	0.0446046	-0.0038892	1	0.0447738	-4.983216	-4.140919E-005	3.234167	11	0.1589952	0.0071186	-327.6853
	58	197	0.1588983	0.0449827	-0.0041523	1	0.0451739	-5.273982	-4.342954E-005	3.234501	11	0.1589992	0.0071825	-327.6853
	59	223	0.1260081	0.0453941	-0.004499	1	0.0456165	-5.660134	-4.3942E-005	3.235114	11	0.1589981	0.0072528	-327.6853
	60	253	0.1001603	0.0458646	-0.0049134	1	0.0461271	-6.11472	-4.847464E-005	3.236073	11	0.1590002	0.0073341	-327.6853
	61	289	0.0794492	0.0463093	-0.0054368	1	0.0466274	-6.696019	-4.216011E-005	3.23724	11	0.1589974	0.0074136	-327.6853
	62	341	0.0631739	0.046663	-0.0060953	1	0.0470594	-7.442061	-3.876146E-005	3.237707	11	0.1590001	0.0074824	-327.6853
	63	390	0.0501337	0.0471185	-0.0068879	1	0.0476192	-8.316704	-4.76893E-005	3.238354	11	0.1589998	0.0075714	-327.6853
	64	452	0.0398258	0.0475978	-0.0078647	1	0.0482432	-9.382299	-4.062741E-005	3.239145	11	0.1589998	0.0076706	-327.6853
	65	528	0.0316296	0.0480915	-0.0090675	1	0.0489389	-10.67757	-4.314228E-005	3.240268	11	0.1589984	0.0077812	-327.6853
	66	656	0.0251206	0.0486544	-0.010574	1	0.0497902	-12.2613	-4.056693E-005	3.241578	11	0.1590011	0.0079167	-327.6853
	67	777	0.0199553	0.0492915	-0.0124418	1	0.0508375	-14.16628	-4.14261E-005	3.242954	11	0.1589995	0.0080831	-327.6853
	68	929	0.0158522	0.0500612	-0.0147403	1	0.0521862	-16.40684	-4.958583E-005	3.244592	11	0.159001	0.0082977	-327.6853
	69	1120	0.0125907	0.0510613	-0.0175191	1	0.053983	-18.93703	-4.082892E-005	3.246743	11	0.1589995	0.0085833	-327.6853
	70	1439	0.0100011	0.0523856	-0.0208067	1	0.0563664	-21.66218	-4.850381E-005	3.249442	11	0.1589999	0.0089623	-327.6853
