EXPLAIN
TAG	GALVEIS
TITLE	LABEL	Galvanostatic EIS	Test Identifier
DATE	LABEL	22.4.2024	Date
TIME	LABEL	13:45:19	Time
NOTES	NOTES	1	Notes...
	
PSTAT	PSTAT	REF600-12055	Potentiostat
FREQINIT	QUANT	1.00000E+005	Initial Freq. (Hz)
FREQFINAL	QUANT	1.00000E-002	Final Freq. (Hz)
PTSPERDEC	QUANT	1.00000E+001	Points/decade
IACREQ	QUANT	1.59000E-001	AC Current (A rms)
IDCREQ	QUANT	0.00000E+000	DC Current (A)
AREA	QUANT	1.00000E+000	Sample Area (cm^2)
SPEED	SELECTOR	1	Optimize for:
DRIFTCOR	SELECTOR	0	Drift Correction
THD	SELECTOR	0	THD
ZGUESS	QUANT	1.00000E-001	Estimated Z (ohms)
EOC	QUANT	3.573321	Open Circuit (V)
SEQUENCER	TOGGLE	TRUE	Run as Sequence
PSTATMODEL	IQUANT	4	Pstat Model
PSTATSECTION	LABEL	REF600-12055	Pstat Section
PSTATSERIALNO	LABEL	12055	Pstat Serial Number
CTRLMODE	IQUANT	0	Control Mode
ELECTROMETER	IQUANT	0	RE=0 or CS=1
IESTAB	IQUANT	0	I/E Stability
CASPEED	IQUANT	4	Control Amp Speed
CONVENTION	IQUANT	1	Current Convention
ICHRANGE	IQUANT	2	Ich Range
ICHRANGEMODE	TOGGLE	F	Ich Auto Range
ICHOFFSETENABLE	TOGGLE	T	Ich Offset Enable
ICHOFFSET	QUANT	0	Ich Offset (V)
ICHFILTER	IQUANT	3	Ich Filter
VCHRANGE	IQUANT	2	Vch Range
VCHRANGEMODE	TOGGLE	F	Vch Auto Range
VCHOFFSETENABLE	TOGGLE	T	Vch Offset Enable
VCHOFFSET	QUANT	0	Vch Offset (V)
VCHFILTER	IQUANT	3	Vch Filter
ACHRANGE	IQUANT	2	Ach Range
ACHOFFSETENABLE	TOGGLE	F	Ach Offset Enable
ACHOFFSET	QUANT	0	Ach Offset (V)
ACHFILTER	IQUANT	1	Ach Filter
IERANGELOWERLIMIT	IQUANT	1	I/E Range Lower Limit
IERANGEMODE	TOGGLE	F	I/E AutoRange
IERANGE	IQUANT	7	I/E Range
POSFEEDENABLE	TOGGLE	F	Positive Feedback IR Comp
POSFEEDRESISTANCE	QUANT	0	Positive Feedback Resistance (ohm)
ACHSELECT	IQUANT	4	Ach Select
SENSECABLEID	IQUANT	14	Sense Cable ID
PWRCABLEID	IQUANT	14	Power Cable ID
DCCALDATE	LABEL	2/12/2024	DC Calibration Date
ACCALDATE	LABEL	2/12/2024	AC Calibration Date
THERMOSELECT	IQUANT	1	Thermo Select
FRAMEWORKVERSION	LABEL	7.10.3	Framework Version
INSTRUMENTVERSION	LABEL	4.91	Instrument Version
COMMVERSION	LABEL	2.24	Communications Version
CPUPLDVERSION	LABEL	0.00	CPU PLD Version
CTRLPLDVERSION	LABEL	0.00	CTRL PLD Version
PSTATPLDVERSION	LABEL	0.00	PSTAT PLD Version
ZCURVE	TABLE
	Pt	Time	Freq	Zreal	Zimag	Zsig	Zmod	Zphz	Idc	Vdc	IERange	Imod	Vmod	Temp
	#	s	Hz	ohm	ohm	V	ohm	°	A	V	#	A	V	°C
	0	5	100078.1	0.1012784	0.2379639	1	0.2586197	66.94521	3.100757E-005	3.573201	11	0.1596767	0.0409949	-327.6853
	1	7	79453.13	0.0848169	0.1976317	1	0.2150632	66.77262	1.58445E-005	3.573198	11	0.1642915	0.0351697	-327.6853
	2	8	63140.62	0.0718993	0.1636586	1	0.1787558	66.28291	2.296525E-006	3.573187	11	0.1619674	0.0288673	-327.6853
	3	10	50203.12	0.0619145	0.135136	1	0.1486444	65.38443	-4.571863E-006	3.573182	11	0.1609358	0.0238772	-327.6853
	4	12	39890.62	0.0542317	0.111238	1	0.1237537	64.00943	-8.515759E-006	3.573184	11	0.1602804	0.0198116	-327.6853
	5	14	31640.63	0.048326	0.0913028	1	0.1033034	62.10798	-1.32987E-005	3.573172	11	0.1598401	0.0164996	-327.6853
	6	15	25171.88	0.0438141	0.0751477	1	0.0869876	59.75614	-1.37816E-005	3.573171	11	0.1595472	0.013872	-327.6853
	7	17	20015.62	0.0402024	0.06189	1	0.0738011	56.99313	-1.401594E-005	3.573165	11	0.159359	0.0117573	-327.6853
	8	19	15890.62	0.0372059	0.0509268	1	0.0630699	53.84904	-1.598452E-005	3.573154	11	0.1592246	0.0100404	-327.6853
	9	20	12609.38	0.0346918	0.0418365	1	0.054349	50.33366	-1.545221E-005	3.57315	11	0.1591478	0.0086485	-327.6853
	10	22	10078.13	0.0326473	0.0344453	1	0.0474586	46.53508	-1.47043E-005	3.573146	11	0.1590848	0.0075494	-327.6853
	11	23	8015.625	0.0309739	0.0280618	1	0.0417953	42.17598	-1.919619E-005	3.573138	11	0.1590545	0.0066474	-327.6853
	12	25	6328.125	0.0296733	0.0224925	1	0.0372346	37.16233	-2.612523E-005	3.573124	11	0.159029	0.0059212	-327.6853
	13	27	5015.625	0.02876	0.0179248	1	0.0338886	31.93349	-3.360421E-005	3.573131	11	0.1590191	0.0053888	-327.6853
	14	28	3984.375	0.0281585	0.0141656	1	0.0315208	26.70547	-1.735345E-005	3.573126	11	0.1590075	0.005012	-327.6853
	15	30	3170.956	0.027819	0.0110882	1	0.0299474	21.73137	-2.358819E-005	3.573123	11	0.1590027	0.0047617	-327.6853
	16	32	2527.573	0.0276567	0.008581	1	0.0289573	17.23758	-2.445455E-005	3.573104	11	0.1590039	0.0046043	-327.6853
	17	34	1976.103	0.0276251	0.0063287	1	0.0283408	12.90335	-2.607936E-005	3.573108	11	0.1589997	0.0045062	-327.6853
	18	35	1577.524	0.0277074	0.0047059	1	0.0281042	9.63935	-2.48685E-005	3.573099	11	0.1590058	0.0044687	-327.6853
	19	37	1265.625	0.0278466	0.0033729	1	0.0280501	6.906364	-1.55163E-005	3.573098	11	0.1589993	0.0044599	-327.6853
	20	38	998.264	0.0280445	0.0022352	1	0.0281334	4.557012	-1.557288E-005	3.573087	11	0.1589989	0.0044732	-327.6853
	21	40	796.875	0.0282657	0.0013591	1	0.0282983	2.752805	-1.470471E-005	3.573087	11	0.1590002	0.0044994	-327.6853
	22	41	627.7902	0.0285568	0.0006536	1	0.0285643	1.311234	-1.991039E-005	3.573075	11	0.1590076	0.0045419	-327.6853
	23	43	505.5147	0.0287982	0.0001156	1	0.0287985	0.2300617	-1.714076E-005	3.573082	11	0.157594	0.0045133	-327.6853
	24	44	397.9953	0.0291026	-0.0003425	1	0.0291046	-0.6742885	-1.865794E-005	3.573076	11	0.1606011	0.0046551	-327.6853
	25	46	315.5048	0.0294054	-0.0007037	1	0.0294138	-1.370908	-1.754833E-005	3.573074	11	0.1593388	0.0046736	-327.6853
	26	47	252.4038	0.0296914	-0.0009832	1	0.0297077	-1.896592	-1.534098E-005	3.57307	11	0.1589718	0.0047138	-327.6853
	27	49	198.6229	0.0300111	-0.0012356	1	0.0300366	-2.357574	-1.401524E-005	3.573066	11	0.1588742	0.0047663	-327.6853
	28	50	158.3615	0.030314	-0.0014237	1	0.0303474	-2.688918	-1.926589E-005	3.573062	11	0.1588867	0.004818	-327.6853
	29	52	125.558	0.0306361	-0.0015767	1	0.0306767	-2.946125	-2.082158E-005	3.573058	11	0.1589166	0.0048726	-327.6853
	30	54	100.4464	0.0309505	-0.0016918	1	0.0309967	-3.128713	-2.356234E-005	3.573056	11	0.1589413	0.0049251	-327.6853
	31	55	79.00281	0.0312942	-0.0017857	1	0.0313451	-3.265892	-1.965929E-005	3.573054	11	0.1589572	0.0049815	-327.6853
	32	57	63.3446	0.0316154	-0.0018426	1	0.0316691	-3.335588	-1.692364E-005	3.573053	11	0.1589698	0.0050338	-327.6853
	33	59	50.22321	0.0319524	-0.0018827	1	0.0320079	-3.372074	-2.516829E-005	3.573051	11	0.158988	0.0050885	-327.6853
	34	60	38.42213	0.0323461	-0.0018878	1	0.0324012	-3.340224	-2.846896E-005	3.573042	11	0.1589864	0.0051511	-327.6853
	35	62	31.25	0.0326417	-0.001875	1	0.0326955	-3.287503	-1.39008E-005	3.573041	11	0.158998	0.0051984	-327.6853
	36	63	24.93351	0.0329623	-0.0018262	1	0.0330129	-3.171048	-2.414198E-005	3.57304	11	0.1589902	0.0052486	-327.6853
	37	65	19.86229	0.0332702	-0.0017656	1	0.033317	-3.037817	4.560687E-006	3.573027	11	0.1589802	0.0052967	-327.6853
	38	66	15.625	0.0335736	-0.0016765	1	0.0336154	-2.8587	-3.459293E-005	3.573031	11	0.158998	0.0053447	-327.6853
	39	68	12.40079	0.0338408	-0.0015603	1	0.0338768	-2.63983	-3.011734E-005	3.573014	11	0.1590058	0.0053866	-327.6853
	40	69	9.93114	0.0340692	-0.001452	1	0.0341001	-2.440345	-1.039228E-005	3.573022	11	0.1590032	0.005422	-327.6853
	41	71	7.944915	0.0342519	-0.001329	1	0.0342776	-2.222023	-5.092437E-005	3.573025	11	0.1589921	0.0054499	-327.6853
	42	73	6.317385	0.0344194	-0.0012368	1	0.0344416	-2.057878	3.032072E-005	3.57303	11	0.1589868	0.0054758	-327.6853
	43	75	5.008013	0.0345646	-0.0011429	1	0.0345835	-1.893821	-5.695561E-005	3.573028	11	0.1590116	0.0054992	-327.6853
	44	77	3.945707	0.0346954	-0.0010534	1	0.0347114	-1.739034	-1.856235E-005	3.573018	11	0.1590109	0.0055195	-327.6853
	45	80	3.158693	0.0348008	-0.001003	1	0.0348152	-1.650923	-8.757121E-005	3.573019	11	0.1589996	0.0055356	-327.6853
	46	82	2.504006	0.034917	-0.0009577	1	0.0349302	-1.571069	-7.435249E-005	3.573024	11	0.1554011	0.0054056	-327.6853
	47	87	1.998082	0.0350219	-0.0009377	1	0.0350344	-1.533672	7.548725E-005	3.573035	11	0.1613672	0.0056364	-327.6853
	48	90	1.584686	0.035118	-0.0009426	1	0.0351306	-1.53753	0.0002602	3.573022	11	0.1600377	0.0056108	-327.6853
	49	95	1.266892	0.0352149	-0.0009521	1	0.0352278	-1.54873	-0.0002139	3.572955	11	0.1592368	0.005602	-327.6853
	50	101	0.999041	0.0353428	-0.0009851	1	0.0353566	-1.596575	-0.0001719	3.572924	11	0.1590508	0.0056187	-327.6853
	51	106	0.7923428	0.0354703	-0.0010174	1	0.0354849	-1.642933	-3.920434E-005	3.572972	11	0.1592546	0.005648	-327.6853
	52	114	0.6334459	0.0355899	-0.001071	1	0.035606	-1.723708	-4.084228E-005	3.572946	11	0.1589846	0.0056588	-327.6853
	53	122	0.5040323	0.0357165	-0.0011341	1	0.0357345	-1.818758	-4.487659E-005	3.572923	11	0.158982	0.0056799	-327.6853
	54	131	0.400641	0.0358614	-0.0012138	1	0.035882	-1.938532	-3.753293E-005	3.572892	11	0.1589851	0.0057039	-327.6853
	55	145	0.316723	0.0360112	-0.001305	1	0.0360348	-2.075371	-4.296999E-005	3.572859	11	0.15899	0.0057287	-327.6853
	56	162	0.2520161	0.0361609	-0.0014145	1	0.0361885	-2.240141	-3.939201E-005	3.572821	11	0.1589935	0.0057534	-327.6853
	57	184	0.2003205	0.0363344	-0.0015429	1	0.0363671	-2.431579	-3.843202E-005	3.572777	11	0.1589958	0.005782	-327.6853
	58	205	0.1588983	0.0365019	-0.0017034	1	0.0365416	-2.671763	-3.986132E-005	3.572726	11	0.1589975	0.0058099	-327.6853
	59	237	0.1260081	0.0367193	-0.0018927	1	0.0367681	-2.950633	-3.557943E-005	3.572743	11	0.1589969	0.0058459	-327.6853
	60	275	0.1001603	0.0369579	-0.0021051	1	0.0370178	-3.260059	-4.386107E-005	3.57285	11	0.1589989	0.0058857	-327.6853
	61	311	0.0794492	0.0371987	-0.0023647	1	0.0372738	-3.63736	-3.611299E-005	3.57292	11	0.1590002	0.0059265	-327.6853
	62	363	0.0631739	0.0374015	-0.0026791	1	0.0374974	-4.097186	-4.109432E-005	3.572688	11	0.1590004	0.0059621	-327.6853
	63	428	0.0501337	0.0376659	-0.0030455	1	0.0377888	-4.622571	-4.203899E-005	3.572529	11	0.1589987	0.0060084	-327.6853
	64	509	0.0398258	0.0379642	-0.0034952	1	0.0381248	-5.260184	-4.135045E-005	3.572377	11	0.1590022	0.0060619	-327.6853
	65	611	0.0316296	0.0383013	-0.00401	1	0.0385107	-5.976918	-4.024993E-005	3.572212	11	0.1589985	0.0061231	-327.6853
	66	739	0.0251206	0.0386884	-0.0046398	1	0.0389656	-6.83866	-3.895907E-005	3.572074	11	0.1590008	0.0061956	-327.6853
	67	860	0.0199553	0.0391476	-0.0053974	1	0.0395179	-7.849979	-3.634599E-005	3.571894	11	0.158999	0.0062833	-327.6853
	68	1062	0.0158522	0.0396954	-0.0062992	1	0.0401921	-9.016946	-4.039181E-005	3.571724	11	0.1590005	0.0063906	-327.6853
	69	1253	0.0125907	0.0403701	-0.0073811	1	0.0410393	-10.36123	-4.047477E-005	3.571527	11	0.1590001	0.0065253	-327.6853
	70	1572	0.0100011	0.0411927	-0.0086014	1	0.0420811	-11.79442	-3.621078E-005	3.571285	11	0.1590001	0.0066909	-327.6853
