EXPLAIN
TAG	GALVEIS
TITLE	LABEL	Galvanostatic EIS	Test Identifier
DATE	LABEL	22.4.2024	Date
TIME	LABEL	20:44:51	Time
NOTES	NOTES	1	Notes...
	
PSTAT	PSTAT	REF600-12055	Potentiostat
FREQINIT	QUANT	1.00000E+005	Initial Freq. (Hz)
FREQFINAL	QUANT	1.00000E-002	Final Freq. (Hz)
PTSPERDEC	QUANT	1.00000E+001	Points/decade
IACREQ	QUANT	1.59000E-001	AC Current (A rms)
IDCREQ	QUANT	0.00000E+000	DC Current (A)
AREA	QUANT	1.00000E+000	Sample Area (cm^2)
SPEED	SELECTOR	1	Optimize for:
DRIFTCOR	SELECTOR	0	Drift Correction
THD	SELECTOR	0	THD
ZGUESS	QUANT	1.00000E-001	Estimated Z (ohms)
EOC	QUANT	4.006084	Open Circuit (V)
SEQUENCER	TOGGLE	TRUE	Run as Sequence
PSTATMODEL	IQUANT	4	Pstat Model
PSTATSECTION	LABEL	REF600-12055	Pstat Section
PSTATSERIALNO	LABEL	12055	Pstat Serial Number
CTRLMODE	IQUANT	0	Control Mode
ELECTROMETER	IQUANT	0	RE=0 or CS=1
IESTAB	IQUANT	0	I/E Stability
CASPEED	IQUANT	4	Control Amp Speed
CONVENTION	IQUANT	1	Current Convention
ICHRANGE	IQUANT	2	Ich Range
ICHRANGEMODE	TOGGLE	F	Ich Auto Range
ICHOFFSETENABLE	TOGGLE	T	Ich Offset Enable
ICHOFFSET	QUANT	0	Ich Offset (V)
ICHFILTER	IQUANT	3	Ich Filter
VCHRANGE	IQUANT	2	Vch Range
VCHRANGEMODE	TOGGLE	F	Vch Auto Range
VCHOFFSETENABLE	TOGGLE	T	Vch Offset Enable
VCHOFFSET	QUANT	0	Vch Offset (V)
VCHFILTER	IQUANT	3	Vch Filter
ACHRANGE	IQUANT	2	Ach Range
ACHOFFSETENABLE	TOGGLE	F	Ach Offset Enable
ACHOFFSET	QUANT	0	Ach Offset (V)
ACHFILTER	IQUANT	1	Ach Filter
IERANGELOWERLIMIT	IQUANT	1	I/E Range Lower Limit
IERANGEMODE	TOGGLE	F	I/E AutoRange
IERANGE	IQUANT	7	I/E Range
POSFEEDENABLE	TOGGLE	F	Positive Feedback IR Comp
POSFEEDRESISTANCE	QUANT	0	Positive Feedback Resistance (ohm)
ACHSELECT	IQUANT	4	Ach Select
SENSECABLEID	IQUANT	14	Sense Cable ID
PWRCABLEID	IQUANT	14	Power Cable ID
DCCALDATE	LABEL	2/12/2024	DC Calibration Date
ACCALDATE	LABEL	2/12/2024	AC Calibration Date
THERMOSELECT	IQUANT	1	Thermo Select
FRAMEWORKVERSION	LABEL	7.10.3	Framework Version
INSTRUMENTVERSION	LABEL	4.91	Instrument Version
COMMVERSION	LABEL	2.24	Communications Version
CPUPLDVERSION	LABEL	0.00	CPU PLD Version
CTRLPLDVERSION	LABEL	0.00	CTRL PLD Version
PSTATPLDVERSION	LABEL	0.00	PSTAT PLD Version
ZCURVE	TABLE
	Pt	Time	Freq	Zreal	Zimag	Zsig	Zmod	Zphz	Idc	Vdc	IERange	Imod	Vmod	Temp
	#	s	Hz	ohm	ohm	V	ohm	°	A	V	#	A	V	°C
	0	5	100078.1	0.1013791	0.2372222	1	0.2579769	66.86012	1.631887E-005	4.00605	11	0.159671	0.0408916	-327.6853
	1	7	79453.13	0.0848385	0.1970845	1	0.2145691	66.70968	3.420166E-006	4.006049	11	0.164298	0.0350903	-327.6853
	2	9	63140.62	0.0718735	0.1632613	1	0.1783818	66.23919	-7.040333E-006	4.006037	11	0.161976	0.0288084	-327.6853
	3	10	50203.12	0.0618298	0.1348196	1	0.1483215	65.36327	-1.708767E-005	4.006019	11	0.1609403	0.023826	-327.6853
	4	12	39890.62	0.0541297	0.1109944	1	0.12349	64.00243	-1.019612E-005	4.006026	11	0.1602723	0.0197684	-327.6853
	5	14	31640.63	0.0482109	0.0911101	1	0.1030793	62.11443	-1.141476E-005	4.006019	11	0.1598441	0.0164642	-327.6853
	6	15	25171.88	0.0436921	0.0749878	1	0.0867881	59.77256	-1.079775E-005	4.006019	11	0.1595454	0.01384	-327.6853
	7	17	20015.62	0.040085	0.0617652	1	0.0736325	57.0168	-1.68439E-005	4.005989	11	0.1593568	0.0117303	-327.6853
	8	19	15890.62	0.0370789	0.0508269	1	0.0629144	53.88877	-1.428992E-005	4.005985	11	0.1592278	0.0100158	-327.6853
	9	21	12609.38	0.0345654	0.0417449	1	0.0541978	50.37471	-1.751847E-005	4.005978	11	0.1591382	0.0086239	-327.6853
	10	22	10078.13	0.0325177	0.0343778	1	0.0473205	46.59281	-1.700962E-005	4.005978	11	0.1590886	0.0075276	-327.6853
	11	24	8015.625	0.030851	0.0280076	1	0.0416679	42.23429	-1.540803E-005	4.005978	11	0.1590529	0.0066271	-327.6853
	12	25	6328.125	0.0295553	0.0224442	1	0.0371115	37.21294	-1.950096E-005	4.005968	11	0.1590337	0.0059018	-327.6853
	13	27	5015.625	0.0286514	0.0178965	1	0.0337815	31.99019	-3.293937E-005	4.00595	11	0.1590158	0.0053717	-327.6853
	14	28	3984.375	0.0280616	0.0141619	1	0.0314327	26.77884	-2.915054E-005	4.005948	11	0.159011	0.0049981	-327.6853
	15	30	3170.956	0.0277216	0.0110984	1	0.0298607	21.81871	-1.976686E-005	4.005938	11	0.1590046	0.004748	-327.6853
	16	32	2527.573	0.0275401	0.0085725	1	0.0288434	17.28996	-1.620431E-005	4.005945	11	0.1590015	0.0045861	-327.6853
	17	33	1976.103	0.0275379	0.0063618	1	0.0282632	13.00826	-1.486018E-005	4.005942	11	0.1590047	0.004494	-327.6853
	18	35	1577.524	0.0275948	0.0047096	1	0.0279938	9.6854	-1.861047E-005	4.005926	11	0.1589963	0.0044509	-327.6853
	19	36	1265.625	0.0277217	0.0034176	1	0.0279316	7.028113	-1.947046E-005	4.005919	11	0.1590034	0.0044412	-327.6853
	20	38	998.264	0.027926	0.0023282	1	0.0280229	4.765692	-1.638907E-005	4.00592	11	0.1589967	0.0044555	-327.6853
	21	39	796.875	0.0281302	0.0015021	1	0.0281702	3.056638	-1.770491E-005	4.005919	11	0.1590039	0.0044792	-327.6853
	22	41	627.7902	0.0283853	0.0008359	1	0.0283976	1.686811	-1.689279E-005	4.005913	11	0.1590072	0.0045154	-327.6853
	23	42	505.5147	0.028601	0.0002655	1	0.0286022	0.5318632	-1.697103E-005	4.005908	11	0.1575899	0.0044824	-327.6853
	24	44	397.9953	0.0288887	-0.0001734	1	0.0288892	-0.3438247	-1.813783E-005	4.005903	11	0.1606037	0.0046207	-327.6853
	25	45	315.5048	0.0291546	-0.0005134	1	0.0291592	-1.008933	-1.945393E-005	4.005895	11	0.1593362	0.004633	-327.6853
	26	47	252.4038	0.029413	-0.000786	1	0.0294235	-1.530757	-2.096713E-005	4.00589	11	0.1589684	0.0046686	-327.6853
	27	48	198.6229	0.0297012	-0.0010132	1	0.0297185	-1.953719	-1.848408E-005	4.005887	11	0.1588776	0.0047159	-327.6853
	28	50	158.3615	0.0299693	-0.0011918	1	0.029993	-2.277246	-3.091991E-005	4.005874	11	0.1588912	0.0047619	-327.6853
	29	52	125.558	0.0302529	-0.0013303	1	0.0302822	-2.517815	-3.2134E-005	4.00587	11	0.158912	0.0048098	-327.6853
	30	53	100.4464	0.0305287	-0.0014379	1	0.0305626	-2.696624	-2.853561E-005	4.005866	11	0.1589446	0.0048562	-327.6853
	31	55	79.00281	0.0308325	-0.0015184	1	0.0308699	-2.819334	-3.682054E-005	4.00586	11	0.1589558	0.004906	-327.6853
	32	56	63.3446	0.0311131	-0.0015707	1	0.0311528	-2.890117	-1.88452E-005	4.005853	11	0.1589733	0.0049518	-327.6853
	33	58	50.22321	0.0314111	-0.0015987	1	0.0314518	-2.913536	-2.032219E-005	4.005843	11	0.158979	0.0049998	-327.6853
	34	60	38.42213	0.0317485	-0.0015962	1	0.0317886	-2.878248	-2.008647E-005	4.005833	11	0.158988	0.0050538	-327.6853
	35	62	31.25	0.0320058	-0.0015733	1	0.0320444	-2.814148	-2.444669E-005	4.00583	11	0.1590017	0.005095	-327.6853
	36	63	24.93351	0.0322661	-0.0015222	1	0.032302	-2.701041	-1.936313E-005	4.005827	11	0.1589932	0.0051357	-327.6853
	37	65	19.86229	0.0325167	-0.0014711	1	0.03255	-2.590428	9.9506E-006	4.005816	11	0.1589734	0.0051745	-327.6853
	38	66	15.625	0.0327549	-0.0013857	1	0.0327842	-2.422483	-2.520066E-005	4.005826	11	0.1590104	0.005213	-327.6853
	39	68	12.40079	0.0329635	-0.0012826	1	0.0329884	-2.228324	-1.672618E-005	4.005826	11	0.158998	0.0052451	-327.6853
	40	69	9.93114	0.0331299	-0.0011986	1	0.0331516	-2.072001	-2.36393E-006	4.005824	11	0.1590008	0.0052711	-327.6853
	41	71	7.944915	0.0332817	-0.0011206	1	0.0333006	-1.928405	-3.364222E-005	4.005802	11	0.1589891	0.0052944	-327.6853
	42	73	6.317385	0.0334141	-0.0010403	1	0.0334303	-1.783275	-0.0001017	4.005794	11	0.1590231	0.0053162	-327.6853
	43	75	5.008013	0.0335369	-0.0009914	1	0.0335516	-1.693277	-4.402694E-005	4.005795	11	0.1589931	0.0053345	-327.6853
	44	77	3.945707	0.0336525	-0.0009475	1	0.0336659	-1.612681	1.443329E-005	4.005775	11	0.1589791	0.0053522	-327.6853
	45	80	3.158693	0.0337438	-0.0009253	1	0.0337565	-1.570766	3.499293E-005	4.005761	11	0.1590254	0.0053681	-327.6853
	46	83	2.504006	0.0338559	-0.0009147	1	0.0338683	-1.547666	-5.575363E-005	4.00575	11	0.1554013	0.0052413	-327.6853
	47	87	1.998082	0.0339601	-0.000939	1	0.0339731	-1.583803	0.0002577	4.005771	11	0.161528	0.0054711	-327.6853
	48	91	1.584686	0.0340611	-0.0009543	1	0.0340744	-1.604885	0.0002394	4.005741	11	0.1598482	0.0054357	-327.6853
	49	95	1.266892	0.0341771	-0.0009845	1	0.0341912	-1.65004	-0.0002773	4.005726	11	0.1593151	0.0054398	-327.6853
	50	102	0.999041	0.0343	-0.0010314	1	0.0343155	-1.722426	-0.0002773	4.005686	11	0.1591092	0.0054552	-327.6853
	51	107	0.7923428	0.0344471	-0.0010931	1	0.0344645	-1.817508	-3.443385E-005	4.005699	11	0.159137	0.0054816	-327.6853
	52	115	0.6334459	0.0345785	-0.0011677	1	0.0345983	-1.934181	-4.839065E-005	4.005666	11	0.1589832	0.0054986	-327.6853
	53	124	0.5040323	0.0347271	-0.0012539	1	0.0347497	-2.067822	-4.699134E-005	4.005636	11	0.1589837	0.0055234	-327.6853
	54	134	0.400641	0.0348903	-0.0013538	1	0.0349165	-2.222028	-3.768413E-005	4.005608	11	0.1589846	0.0055504	-327.6853
	55	145	0.316723	0.0350559	-0.001476	1	0.035087	-2.410929	-4.275575E-005	4.005563	11	0.1589899	0.005578	-327.6853
	56	163	0.2520161	0.0352442	-0.0016204	1	0.0352815	-2.632381	-4.414284E-005	4.005513	11	0.1589924	0.0056092	-327.6853
	57	184	0.2003205	0.0354375	-0.0017729	1	0.0354818	-2.864071	-4.038606E-005	4.005446	11	0.1589986	0.0056414	-327.6853
	58	211	0.1588983	0.0356655	-0.0019558	1	0.0357191	-3.138858	-4.069156E-005	4.005378	11	0.1589962	0.0056791	-327.6853
	59	236	0.1260081	0.0359248	-0.002162	1	0.0359898	-3.444011	-3.933073E-005	4.005369	11	0.1589987	0.0057223	-327.6853
	60	274	0.1001603	0.0362336	-0.0023998	1	0.036313	-3.789293	-4.010844E-005	4.005448	11	0.1589991	0.0057737	-327.6853
	61	310	0.0794492	0.0365543	-0.0026715	1	0.0366518	-4.179904	-4.151423E-005	4.005486	11	0.1590006	0.0058276	-327.6853
	62	362	0.0631739	0.0368015	-0.0029951	1	0.0369232	-4.652786	-4.031939E-005	4.005227	11	0.158997	0.0058707	-327.6853
	63	427	0.0501337	0.0371333	-0.0033749	1	0.0372864	-5.193116	-3.802215E-005	4.005063	11	0.1590012	0.0059286	-327.6853
	64	488	0.0398258	0.0375125	-0.0038024	1	0.0377047	-5.787948	-4.106428E-005	4.004922	11	0.1590002	0.005995	-327.6853
	65	565	0.0316296	0.0379418	-0.0043065	1	0.0381854	-6.475535	-4.111939E-005	4.004728	11	0.1589991	0.0060714	-327.6853
	66	693	0.0251206	0.0384301	-0.004901	1	0.0387413	-7.267731	-3.937972E-005	4.004499	11	0.1590004	0.0061599	-327.6853
	67	854	0.0199553	0.0389778	-0.0055819	1	0.0393754	-8.149796	-3.962967E-005	4.004288	11	0.1590009	0.0062607	-327.6853
	68	1006	0.0158522	0.0395966	-0.0064052	1	0.0401113	-9.188581	-4.016479E-005	4.004047	11	0.1589989	0.0063777	-327.6853
	69	1260	0.0125907	0.0403358	-0.0073512	1	0.0410002	-10.32878	-3.982184E-005	4.003807	11	0.1590005	0.006519	-327.6853
	70	1500	0.0100011	0.0411686	-0.0084362	1	0.042024	-11.58066	-3.893313E-005	4.003595	11	0.1589995	0.0066818	-327.6853
