EXPLAIN
TAG	GALVEIS
TITLE	LABEL	Galvanostatic EIS	Test Identifier
DATE	LABEL	22.4.2024	Date
TIME	LABEL	16:43:23	Time
NOTES	NOTES	1	Notes...
	
PSTAT	PSTAT	REF600-12055	Potentiostat
FREQINIT	QUANT	1.00000E+005	Initial Freq. (Hz)
FREQFINAL	QUANT	1.00000E-002	Final Freq. (Hz)
PTSPERDEC	QUANT	1.00000E+001	Points/decade
IACREQ	QUANT	1.59000E-001	AC Current (A rms)
IDCREQ	QUANT	0.00000E+000	DC Current (A)
AREA	QUANT	1.00000E+000	Sample Area (cm^2)
SPEED	SELECTOR	1	Optimize for:
DRIFTCOR	SELECTOR	0	Drift Correction
THD	SELECTOR	0	THD
ZGUESS	QUANT	1.00000E-001	Estimated Z (ohms)
EOC	QUANT	3.719576	Open Circuit (V)
SEQUENCER	TOGGLE	TRUE	Run as Sequence
PSTATMODEL	IQUANT	4	Pstat Model
PSTATSECTION	LABEL	REF600-12055	Pstat Section
PSTATSERIALNO	LABEL	12055	Pstat Serial Number
CTRLMODE	IQUANT	0	Control Mode
ELECTROMETER	IQUANT	0	RE=0 or CS=1
IESTAB	IQUANT	0	I/E Stability
CASPEED	IQUANT	4	Control Amp Speed
CONVENTION	IQUANT	1	Current Convention
ICHRANGE	IQUANT	2	Ich Range
ICHRANGEMODE	TOGGLE	F	Ich Auto Range
ICHOFFSETENABLE	TOGGLE	T	Ich Offset Enable
ICHOFFSET	QUANT	0	Ich Offset (V)
ICHFILTER	IQUANT	3	Ich Filter
VCHRANGE	IQUANT	2	Vch Range
VCHRANGEMODE	TOGGLE	F	Vch Auto Range
VCHOFFSETENABLE	TOGGLE	T	Vch Offset Enable
VCHOFFSET	QUANT	0	Vch Offset (V)
VCHFILTER	IQUANT	3	Vch Filter
ACHRANGE	IQUANT	2	Ach Range
ACHOFFSETENABLE	TOGGLE	F	Ach Offset Enable
ACHOFFSET	QUANT	0	Ach Offset (V)
ACHFILTER	IQUANT	1	Ach Filter
IERANGELOWERLIMIT	IQUANT	1	I/E Range Lower Limit
IERANGEMODE	TOGGLE	F	I/E AutoRange
IERANGE	IQUANT	7	I/E Range
POSFEEDENABLE	TOGGLE	F	Positive Feedback IR Comp
POSFEEDRESISTANCE	QUANT	0	Positive Feedback Resistance (ohm)
ACHSELECT	IQUANT	4	Ach Select
SENSECABLEID	IQUANT	14	Sense Cable ID
PWRCABLEID	IQUANT	14	Power Cable ID
DCCALDATE	LABEL	2/12/2024	DC Calibration Date
ACCALDATE	LABEL	2/12/2024	AC Calibration Date
THERMOSELECT	IQUANT	1	Thermo Select
FRAMEWORKVERSION	LABEL	7.10.3	Framework Version
INSTRUMENTVERSION	LABEL	4.91	Instrument Version
COMMVERSION	LABEL	2.24	Communications Version
CPUPLDVERSION	LABEL	0.00	CPU PLD Version
CTRLPLDVERSION	LABEL	0.00	CTRL PLD Version
PSTATPLDVERSION	LABEL	0.00	PSTAT PLD Version
ZCURVE	TABLE
	Pt	Time	Freq	Zreal	Zimag	Zsig	Zmod	Zphz	Idc	Vdc	IERange	Imod	Vmod	Temp
	#	s	Hz	ohm	ohm	V	ohm	°	A	V	#	A	V	°C
	0	5	100078.1	0.1013107	0.2375632	1	0.2582637	66.90379	2.99851E-005	3.719255	11	0.1596567	0.0409334	-327.6853
	1	7	79453.13	0.0848208	0.1973409	1	0.2147976	66.74107	1.352397E-005	3.719239	11	0.1643152	0.0351314	-327.6853
	2	9	63140.62	0.0718914	0.163449	1	0.1785608	66.25819	4.358706E-006	3.719248	11	0.161983	0.0288386	-327.6853
	3	11	50203.12	0.0618644	0.1349762	1	0.1484782	65.37632	-5.759182E-006	3.719235	11	0.1609383	0.0238509	-327.6853
	4	12	39890.62	0.0541775	0.1111159	1	0.1236202	64.00723	-1.270487E-005	3.719233	11	0.1602813	0.0197903	-327.6853
	5	14	31640.63	0.0482593	0.0912178	1	0.1031972	62.11868	-9.080744E-006	3.719226	11	0.1598415	0.0164827	-327.6853
	6	16	25171.88	0.043745	0.075081	1	0.0868953	59.77332	-1.401012E-005	3.719215	11	0.159551	0.0138576	-327.6853
	7	17	20015.62	0.0401241	0.0618366	1	0.0737136	57.02155	-1.384527E-005	3.719214	11	0.1593544	0.011743	-327.6853
	8	19	15890.62	0.0371307	0.0508885	1	0.0629947	53.88373	-1.711072E-005	3.719198	11	0.1592273	0.0100286	-327.6853
	9	21	12609.38	0.0346033	0.0418067	1	0.0542696	50.38558	-2.474448E-005	3.71919	11	0.1591454	0.0086357	-327.6853
	10	22	10078.13	0.0325568	0.0344214	1	0.0473791	46.5946	-2.242357E-005	3.719198	11	0.1590825	0.0075366	-327.6853
	11	24	8015.625	0.0308828	0.0280428	1	0.0417151	42.24069	-1.967361E-005	3.719189	11	0.1590586	0.0066348	-327.6853
	12	26	6328.125	0.0295849	0.022495	1	0.0371658	37.24767	-1.948616E-005	3.719175	11	0.1590343	0.0059105	-327.6853
	13	27	5015.625	0.0286773	0.0179181	1	0.0338149	31.99792	-1.776719E-005	3.719165	11	0.1590101	0.0053768	-327.6853
	14	29	3984.375	0.02808	0.0141614	1	0.0314488	26.76289	-1.650071E-005	3.719168	11	0.1590115	0.0050007	-327.6853
	15	30	3170.956	0.0277371	0.0111057	1	0.0298778	21.8208	-1.940736E-005	3.719157	11	0.1590028	0.0047506	-327.6853
	16	32	2527.573	0.0275705	0.00855	1	0.0288658	17.22937	-1.879827E-005	3.719161	11	0.1589999	0.0045896	-327.6853
	17	33	1976.103	0.0275587	0.0063426	1	0.0282791	12.96088	-2.048514E-005	3.719151	11	0.159004	0.0044965	-327.6853
	18	35	1577.524	0.0276098	0.0047734	1	0.0280194	9.80887	-2.222101E-005	3.719141	11	0.1590085	0.0044553	-327.6853
	19	37	1265.625	0.0277593	0.0034121	1	0.0279682	7.007469	-1.814211E-005	3.719146	11	0.1589902	0.0044467	-327.6853
	20	38	998.264	0.0279498	0.0023516	1	0.0280486	4.809357	-2.199609E-005	3.719135	11	0.1590118	0.00446	-327.6853
	21	40	796.875	0.0281504	0.0014411	1	0.0281873	2.930506	-2.176734E-005	3.71912	11	0.158987	0.0044814	-327.6853
	22	41	627.7902	0.0284373	0.0007566	1	0.0284474	1.524006	-2.449646E-005	3.719129	11	0.1590109	0.0045234	-327.6853
	23	43	505.5147	0.0286686	0.0002011	1	0.0286693	0.4018239	-2.526498E-005	3.719124	11	0.1575991	0.0044932	-327.6853
	24	44	397.9953	0.0289659	-0.0002438	1	0.0289669	-0.482253	-3.065565E-005	3.71912	11	0.1605973	0.0046329	-327.6853
	25	46	315.5048	0.0292474	-0.0005952	1	0.0292535	-1.165742	-1.925096E-005	3.719118	11	0.1593363	0.004648	-327.6853
	26	47	252.4038	0.0295251	-0.0008632	1	0.0295377	-1.674654	-1.211872E-005	3.71911	11	0.1589724	0.0046868	-327.6853
	27	49	198.6229	0.0298305	-0.0010892	1	0.0298504	-2.091114	-1.936732E-005	3.719107	11	0.1588803	0.0047369	-327.6853
	28	50	158.3615	0.0301145	-0.0012556	1	0.0301406	-2.387513	-2.120505E-005	3.719103	11	0.1588848	0.0047852	-327.6853
	29	52	125.558	0.0304192	-0.0013909	1	0.030451	-2.617947	-2.461451E-005	3.719095	11	0.1589125	0.0048366	-327.6853
	30	53	100.4464	0.0307087	-0.0014837	1	0.0307445	-2.766124	-2.272229E-005	3.719094	11	0.1589473	0.0048852	-327.6853
	31	55	79.00281	0.0310251	-0.0015511	1	0.0310638	-2.86216	-2.538878E-005	3.719089	11	0.1589567	0.0049368	-327.6853
	32	56	63.3446	0.0313157	-0.0015781	1	0.0313554	-2.884931	-1.913903E-005	3.719081	11	0.158969	0.0049839	-327.6853
	33	58	50.22321	0.0316147	-0.0015849	1	0.0316544	-2.870013	-2.046782E-005	3.719078	11	0.1589807	0.005032	-327.6853
	34	60	38.42213	0.0319462	-0.0015507	1	0.0319838	-2.779047	-1.339591E-005	3.719069	11	0.1589906	0.0050849	-327.6853
	35	61	31.25	0.0321873	-0.001505	1	0.0322225	-2.676984	-3.576162E-005	3.719064	11	0.1589946	0.005123	-327.6853
	36	63	24.93351	0.0324402	-0.0014295	1	0.0324717	-2.523223	-2.061669E-005	3.719055	11	0.1589916	0.0051626	-327.6853
	37	65	19.86229	0.0326559	-0.0013402	1	0.0326834	-2.350075	-9.677606E-007	3.719054	11	0.1589949	0.0051964	-327.6853
	38	66	15.625	0.0328701	-0.0012453	1	0.0328937	-2.169618	-1.719166E-005	3.719061	11	0.1589988	0.00523	-327.6853
	39	67	12.40079	0.0330449	-0.0011515	1	0.033065	-1.995713	-8.365721E-006	3.719065	11	0.1589946	0.0052571	-327.6853
	40	69	9.93114	0.033175	-0.0010739	1	0.0331924	-1.854072	-2.942485E-005	3.719046	11	0.1590076	0.0052778	-327.6853
	41	71	7.944915	0.0333046	-0.0009982	1	0.0333195	-1.716799	-5.1721E-006	3.719029	11	0.1589778	0.0052971	-327.6853
	42	72	6.317385	0.0334184	-0.0009356	1	0.0334315	-1.603685	-9.148195E-005	3.719031	11	0.1590225	0.0053164	-327.6853
	43	74	5.008013	0.033508	-0.0008954	1	0.03352	-1.530736	-4.64046E-005	3.719044	11	0.1589932	0.0053295	-327.6853
	44	77	3.945707	0.0336042	-0.0008689	1	0.0336154	-1.481084	6.891787E-006	3.719018	11	0.1589866	0.0053444	-327.6853
	45	80	3.158693	0.0336954	-0.0008618	1	0.0337064	-1.465028	8.89987E-005	3.718986	11	0.1589641	0.0053581	-327.6853
	46	82	2.504006	0.0337918	-0.000869	1	0.033803	-1.473077	-5.734328E-006	3.718967	11	0.1554771	0.0052337	-327.6853
	47	87	1.998082	0.0338731	-0.000898	1	0.033885	-1.518597	0.0001097	3.71896	11	0.1613501	0.0054509	-327.6853
	48	92	1.584686	0.0339724	-0.0009439	1	0.0339855	-1.591515	-8.551739E-005	3.718937	11	0.1598738	0.0054223	-327.6853
	49	96	1.266892	0.0340866	-0.0010091	1	0.0341015	-1.695681	-1.582816E-005	3.718988	11	0.1592896	0.0054247	-327.6853
	50	101	0.999041	0.034208	-0.0010844	1	0.0342252	-1.815652	-7.600809E-005	3.71897	11	0.1590936	0.0054403	-327.6853
	51	107	0.7923428	0.0343452	-0.0011785	1	0.0343654	-1.965277	-3.874482E-005	3.718962	11	0.1593154	0.0054719	-327.6853
	52	114	0.6334459	0.0344764	-0.0012911	1	0.0345006	-2.144708	-3.95684E-005	3.718932	11	0.158983	0.0054831	-327.6853
	53	123	0.5040323	0.0346368	-0.0014193	1	0.0346659	-2.346481	-3.992699E-005	3.718918	11	0.1589802	0.00551	-327.6853
	54	133	0.400641	0.0348056	-0.0015582	1	0.0348404	-2.563288	-4.082266E-005	3.718887	11	0.1589881	0.0055384	-327.6853
	55	144	0.316723	0.0349936	-0.0017339	1	0.0350365	-2.836619	-4.273275E-005	3.718855	11	0.1589898	0.00557	-327.6853
	56	161	0.2520161	0.0352037	-0.001923	1	0.0352562	-3.126633	-4.144727E-005	3.718815	11	0.1589943	0.0056052	-327.6853
	57	183	0.2003205	0.035428	-0.0021327	1	0.0354921	-3.445022	-3.889522E-005	3.718773	11	0.1589954	0.0056429	-327.6853
	58	204	0.1588983	0.0356905	-0.0023855	1	0.0357701	-3.823843	-4.007533E-005	3.718721	11	0.1589975	0.0056872	-327.6853
	59	236	0.1260081	0.0359979	-0.0026645	1	0.0360964	-4.233214	-4.032408E-005	3.71878	11	0.1589985	0.0057392	-327.6853
	60	266	0.1001603	0.0363456	-0.0029854	1	0.036468	-4.695697	-4.225285E-005	3.718906	11	0.1589975	0.0057983	-327.6853
	61	312	0.0794492	0.0367504	-0.003353	1	0.0369031	-5.213085	-4.06967E-005	3.719063	11	0.1589995	0.0058675	-327.6853
	62	352	0.0631739	0.0370449	-0.0037607	1	0.0372353	-5.796666	-4.037685E-005	3.718822	11	0.1590003	0.0059204	-327.6853
	63	401	0.0501337	0.0374316	-0.0042366	1	0.0376706	-6.457336	-3.997378E-005	3.718643	11	0.1589989	0.0059896	-327.6853
	64	482	0.0398258	0.037854	-0.0047924	1	0.0381561	-7.215432	-4.079694E-005	3.718501	11	0.1590026	0.0060669	-327.6853
	65	559	0.0316296	0.0383334	-0.0054386	1	0.0387173	-8.075065	-3.813989E-005	3.718389	11	0.1589987	0.006156	-327.6853
	66	655	0.0251206	0.0388495	-0.0062205	1	0.0393444	-9.096862	-3.830238E-005	3.71823	11	0.1590007	0.0062558	-327.6853
	67	816	0.0199553	0.0394433	-0.0071469	1	0.0400856	-10.27019	-4.050876E-005	3.718079	11	0.159	0.0063736	-327.6853
	68	968	0.0158522	0.0401	-0.0082593	1	0.0409418	-11.63832	-4.00243E-005	3.717908	11	0.1589999	0.0065097	-327.6853
	69	1222	0.0125907	0.040895	-0.0095904	1	0.0420045	-13.19812	-4.045824E-005	3.717714	11	0.1590006	0.0066787	-327.6853
	70	1541	0.0100011	0.0418955	-0.0111344	1	0.0433498	-14.88316	-4.047899E-005	3.717565	11	0.1589993	0.0068926	-327.6853
