EXPLAIN
TAG	GALVEIS
TITLE	LABEL	Galvanostatic EIS	Test Identifier
DATE	LABEL	22.4.2024	Date
TIME	LABEL	12:34:13	Time
NOTES	NOTES	1	Notes...
	
PSTAT	PSTAT	REF600-12055	Potentiostat
FREQINIT	QUANT	1.00000E+005	Initial Freq. (Hz)
FREQFINAL	QUANT	1.00000E-002	Final Freq. (Hz)
PTSPERDEC	QUANT	1.00000E+001	Points/decade
IACREQ	QUANT	1.59000E-001	AC Current (A rms)
IDCREQ	QUANT	0.00000E+000	DC Current (A)
AREA	QUANT	1.00000E+000	Sample Area (cm^2)
SPEED	SELECTOR	1	Optimize for:
DRIFTCOR	SELECTOR	0	Drift Correction
THD	SELECTOR	0	THD
ZGUESS	QUANT	1.00000E-001	Estimated Z (ohms)
EOC	QUANT	3.502737	Open Circuit (V)
SEQUENCER	TOGGLE	TRUE	Run as Sequence
PSTATMODEL	IQUANT	4	Pstat Model
PSTATSECTION	LABEL	REF600-12055	Pstat Section
PSTATSERIALNO	LABEL	12055	Pstat Serial Number
CTRLMODE	IQUANT	0	Control Mode
ELECTROMETER	IQUANT	0	RE=0 or CS=1
IESTAB	IQUANT	0	I/E Stability
CASPEED	IQUANT	4	Control Amp Speed
CONVENTION	IQUANT	1	Current Convention
ICHRANGE	IQUANT	2	Ich Range
ICHRANGEMODE	TOGGLE	F	Ich Auto Range
ICHOFFSETENABLE	TOGGLE	T	Ich Offset Enable
ICHOFFSET	QUANT	0	Ich Offset (V)
ICHFILTER	IQUANT	3	Ich Filter
VCHRANGE	IQUANT	2	Vch Range
VCHRANGEMODE	TOGGLE	F	Vch Auto Range
VCHOFFSETENABLE	TOGGLE	T	Vch Offset Enable
VCHOFFSET	QUANT	0	Vch Offset (V)
VCHFILTER	IQUANT	3	Vch Filter
ACHRANGE	IQUANT	2	Ach Range
ACHOFFSETENABLE	TOGGLE	F	Ach Offset Enable
ACHOFFSET	QUANT	0	Ach Offset (V)
ACHFILTER	IQUANT	1	Ach Filter
IERANGELOWERLIMIT	IQUANT	1	I/E Range Lower Limit
IERANGEMODE	TOGGLE	F	I/E AutoRange
IERANGE	IQUANT	7	I/E Range
POSFEEDENABLE	TOGGLE	F	Positive Feedback IR Comp
POSFEEDRESISTANCE	QUANT	0	Positive Feedback Resistance (ohm)
ACHSELECT	IQUANT	4	Ach Select
SENSECABLEID	IQUANT	14	Sense Cable ID
PWRCABLEID	IQUANT	14	Power Cable ID
DCCALDATE	LABEL	2/12/2024	DC Calibration Date
ACCALDATE	LABEL	2/12/2024	AC Calibration Date
THERMOSELECT	IQUANT	1	Thermo Select
FRAMEWORKVERSION	LABEL	7.10.3	Framework Version
INSTRUMENTVERSION	LABEL	4.91	Instrument Version
COMMVERSION	LABEL	2.24	Communications Version
CPUPLDVERSION	LABEL	0.00	CPU PLD Version
CTRLPLDVERSION	LABEL	0.00	CTRL PLD Version
PSTATPLDVERSION	LABEL	0.00	PSTAT PLD Version
ZCURVE	TABLE
	Pt	Time	Freq	Zreal	Zimag	Zsig	Zmod	Zphz	Idc	Vdc	IERange	Imod	Vmod	Temp
	#	s	Hz	ohm	ohm	V	ohm	°	A	V	#	A	V	°C
	0	5	100078.1	0.1012415	0.2381201	1	0.258749	66.96626	1.836743E-005	3.502512	11	0.1596622	0.0410117	-327.6853
	1	6	79453.13	0.0847966	0.1977386	1	0.2151535	66.7888	9.523123E-006	3.502505	11	0.1642934	0.0351849	-327.6853
	2	8	63140.62	0.0719109	0.1637431	1	0.1788378	66.29041	1.03045E-006	3.502501	11	0.1619693	0.0288809	-327.6853
	3	10	50203.12	0.061922	0.1351959	1	0.148702	65.39142	-6.305461E-006	3.502491	11	0.1609365	0.0238866	-327.6853
	4	12	39890.62	0.0542647	0.1112801	1	0.1238059	64.00427	-9.134412E-006	3.502478	11	0.1602755	0.0198194	-327.6853
	5	13	31640.63	0.0483641	0.0913344	1	0.1033491	62.09755	-1.038332E-005	3.502484	11	0.1598403	0.0165069	-327.6853
	6	15	25171.88	0.0438526	0.0751779	1	0.0870331	59.74424	-1.971243E-005	3.502476	11	0.1595496	0.0138794	-327.6853
	7	17	20015.62	0.0402502	0.0619074	1	0.0738417	56.96938	-2.997805E-005	3.502453	11	0.159353	0.0117633	-327.6853
	8	18	15890.62	0.0372583	0.0509359	1	0.0631082	53.81548	-1.853285E-005	3.502448	11	0.1592317	0.0100469	-327.6853
	9	20	12609.38	0.0347274	0.0418451	1	0.0543783	50.31061	-2.219673E-005	3.502453	11	0.1591425	0.0086529	-327.6853
	10	22	10078.13	0.0326925	0.0344504	1	0.0474935	46.49974	-1.687673E-005	3.502439	11	0.1590836	0.0075549	-327.6853
	11	24	8015.625	0.0310194	0.028057	1	0.0418258	42.12927	-1.995475E-005	3.50243	11	0.1590558	0.0066523	-327.6853
	12	25	6328.125	0.0297165	0.0224968	1	0.0372716	37.12749	-2.289435E-005	3.502416	11	0.1590291	0.0059271	-327.6853
	13	27	5015.625	0.0288165	0.0179247	1	0.0339364	31.8828	-2.334651E-005	3.50242	11	0.1590117	0.0053962	-327.6853
	14	28	3984.375	0.0282143	0.0141698	1	0.0315726	26.66675	-2.262677E-005	3.502411	11	0.1590118	0.0050204	-327.6853
	15	30	3170.956	0.0278787	0.0110571	1	0.0299913	21.63407	-1.902471E-005	3.50241	11	0.1590068	0.0047688	-327.6853
	16	32	2527.573	0.0277082	0.0085105	1	0.0289858	17.07423	-1.90014E-005	3.502403	11	0.1590016	0.0046088	-327.6853
	17	33	1976.103	0.0276956	0.006306	1	0.0284044	12.82697	-2.005661E-005	3.5024	11	0.1590069	0.0045165	-327.6853
	18	35	1577.524	0.0277591	0.0046654	1	0.0281484	9.54045	-1.842342E-005	3.502386	11	0.1589973	0.0044755	-327.6853
	19	36	1265.625	0.0279063	0.0033111	1	0.0281021	6.766496	-2.363487E-005	3.50238	11	0.1589961	0.0044681	-327.6853
	20	38	998.264	0.0281048	0.0021822	1	0.0281894	4.439834	-1.878513E-005	3.502382	11	0.159002	0.0044822	-327.6853
	21	39	796.875	0.0283452	0.0013321	1	0.0283764	2.690739	-3.370503E-005	3.502369	11	0.1589989	0.0045118	-327.6853
	22	41	627.7902	0.0286199	0.0006241	1	0.0286267	1.249162	-3.413239E-005	3.50237	11	0.1590055	0.0045518	-327.6853
	23	42	505.5147	0.0288766	4.610316E-005	1	0.0288766	0.0914759	-3.044045E-005	3.502368	11	0.1575976	0.0045256	-327.6853
	24	44	397.9953	0.0291942	-0.0004229	1	0.0291972	-0.8298836	-1.883204E-005	3.502369	11	0.160598	0.0046698	-327.6853
	25	45	315.5048	0.0295071	-0.0007978	1	0.0295178	-1.548738	-1.951703E-005	3.502362	11	0.159344	0.0046902	-327.6853
	26	47	252.4038	0.0298075	-0.0010892	1	0.0298274	-2.092711	-1.842761E-005	3.502357	11	0.1589618	0.0047324	-327.6853
	27	49	198.6229	0.0301352	-0.0013492	1	0.0301654	-2.563467	-2.055848E-005	3.502351	11	0.1588788	0.0047869	-327.6853
	28	50	158.3615	0.0304535	-0.0015462	1	0.0304927	-2.906616	-2.040234E-005	3.502346	11	0.1588908	0.0048412	-327.6853
	29	52	125.558	0.0307872	-0.0017184	1	0.0308351	-3.194639	-1.654378E-005	3.502338	11	0.1589147	0.0048977	-327.6853
	30	53	100.4464	0.0311156	-0.0018575	1	0.0311709	-3.416255	-1.610606E-005	3.502338	11	0.1589395	0.0049527	-327.6853
	31	55	79.00281	0.0314775	-0.0019753	1	0.0315394	-3.590697	-2.040877E-005	3.502325	11	0.1589554	0.0050124	-327.6853
	32	57	63.3446	0.0318118	-0.0020648	1	0.0318787	-3.713762	-2.204976E-005	3.502322	11	0.1589754	0.0050673	-327.6853
	33	58	50.22321	0.0321748	-0.002142	1	0.032246	-3.808852	-2.657063E-005	3.50232	11	0.1589843	0.0051262	-327.6853
	34	60	38.42213	0.0325947	-0.0022075	1	0.0326693	-3.874406	-1.918219E-005	3.502307	11	0.1589887	0.0051938	-327.6853
	35	61	31.25	0.032935	-0.0022384	1	0.033011	-3.888109	-2.230867E-005	3.502305	11	0.1589973	0.0052485	-327.6853
	36	63	24.93351	0.0333046	-0.0022591	1	0.0333812	-3.880581	-2.003124E-005	3.502301	11	0.1589931	0.0053073	-327.6853
	37	65	19.86229	0.0336916	-0.0022534	1	0.0337669	-3.826366	-4.34753E-006	3.502287	11	0.1589913	0.0053686	-327.6853
	38	66	15.625	0.0340758	-0.0022267	1	0.0341484	-3.73867	-3.370293E-005	3.502303	11	0.1589847	0.005429	-327.6853
	39	68	12.40079	0.034474	-0.002162	1	0.0345418	-3.588563	-3.678713E-005	3.502289	11	0.1590036	0.0054922	-327.6853
	40	69	9.93114	0.0348065	-0.0020739	1	0.0348682	-3.409942	-3.511948E-005	3.502278	11	0.1590053	0.0055442	-327.6853
	41	71	7.944915	0.0351349	-0.0019707	1	0.0351901	-3.210305	-1.305365E-006	3.50227	11	0.1590005	0.0055952	-327.6853
	42	73	6.317385	0.0354336	-0.0018319	1	0.0354809	-2.959606	-0.0000971	3.502245	11	0.15899	0.0056411	-327.6853
	43	75	5.008013	0.0356975	-0.0017004	1	0.035738	-2.727141	1.138961E-005	3.502241	11	0.158997	0.0056822	-327.6853
	44	77	3.945707	0.0359342	-0.0015624	1	0.0359681	-2.489691	-3.06446E-005	3.502232	11	0.1590151	0.0057195	-327.6853
	45	79	3.158693	0.0361167	-0.0014512	1	0.0361458	-2.30091	3.995327E-005	3.502209	11	0.1589922	0.0057469	-327.6853
	46	82	2.504006	0.0362835	-0.0013506	1	0.0363086	-2.131752	2.72037E-005	3.502182	11	0.1554077	0.0056192	-327.6853
	47	86	1.998082	0.0364319	-0.0012815	1	0.0364544	-2.014594	-9.206496E-005	3.502153	11	0.1613565	0.0058644	-327.6853
	48	90	1.584686	0.0365676	-0.0012315	1	0.0365884	-1.92888	-0.0002718	3.502134	11	0.160023	0.0058431	-327.6853
	49	94	1.266892	0.0367072	-0.0012093	1	0.0367271	-1.886912	0.0001565	3.502173	11	0.1592414	0.0058406	-327.6853
	50	99	0.999041	0.0368471	-0.0012021	1	0.0368667	-1.868544	0.0001133	3.502171	11	0.1590463	0.0058585	-327.6853
	51	105	0.7923428	0.0369872	-0.0012023	1	0.0370068	-1.861822	-4.156018E-005	3.502156	11	0.1592759	0.0058911	-327.6853
	52	113	0.6334459	0.037123	-0.0012318	1	0.0371435	-1.900511	-4.224502E-005	3.502135	11	0.1589833	0.0059031	-327.6853
	53	120	0.5040323	0.0372657	-0.0012715	1	0.0372874	-1.954226	-4.061224E-005	3.502115	11	0.158982	0.0059267	-327.6853
	54	130	0.400641	0.037416	-0.0013367	1	0.0374398	-2.046034	-4.211257E-005	3.502084	11	0.158985	0.0059515	-327.6853
	55	144	0.316723	0.0375721	-0.0014174	1	0.0375988	-2.160422	-4.55359E-005	3.502045	11	0.1589905	0.0059773	-327.6853
	56	161	0.2520161	0.0377345	-0.0015228	1	0.0377652	-2.310894	-4.157289E-005	3.501993	11	0.1589942	0.0060041	-327.6853
	57	183	0.2003205	0.0378988	-0.0016506	1	0.0379347	-2.493814	-3.632375E-005	3.501928	11	0.1589952	0.0060312	-327.6853
	58	209	0.1588983	0.0380783	-0.0018115	1	0.0381214	-2.723702	-4.069995E-005	3.501869	11	0.1589979	0.0060611	-327.6853
	59	234	0.1260081	0.0382837	-0.0020097	1	0.0383364	-3.004924	-4.184169E-005	3.501884	11	0.1589983	0.0060953	-327.6853
	60	272	0.1001603	0.0385343	-0.0022422	1	0.0385995	-3.330107	-4.441367E-005	3.502	11	0.159	0.0061373	-327.6853
	61	309	0.0794492	0.0387884	-0.0025276	1	0.0388706	-3.728314	-4.195941E-005	3.502076	11	0.1589992	0.0061804	-327.6853
	62	361	0.0631739	0.0389837	-0.0028793	1	0.0390899	-4.224186	-4.099166E-005	3.501801	11	0.1589996	0.0062153	-327.6853
	63	426	0.0501337	0.0392475	-0.0033018	1	0.0393861	-4.80879	-4.188382E-005	3.501637	11	0.1589995	0.0062624	-327.6853
	64	487	0.0398258	0.0395617	-0.0038101	1	0.0397447	-5.501019	-4.196051E-005	3.501495	11	0.1590004	0.0063194	-327.6853
	65	564	0.0316296	0.0399236	-0.0044171	1	0.0401672	-6.313523	-4.144918E-005	3.50131	11	0.1589989	0.0063865	-327.6853
	66	692	0.0251206	0.0403501	-0.0051468	1	0.0406771	-7.269018	-4.158614E-005	3.501134	11	0.1590002	0.0064677	-327.6853
	67	813	0.0199553	0.0408316	-0.0060344	1	0.0412751	-8.406693	-4.035144E-005	3.500913	11	0.1589991	0.0065627	-327.6853
	68	1015	0.0158522	0.0414105	-0.0070936	1	0.0420136	-9.72045	-4.126648E-005	3.500656	11	0.1590009	0.0066802	-327.6853
	69	1269	0.0125907	0.0421229	-0.0083309	1	0.0429388	-11.18733	-4.182613E-005	3.500386	11	0.1589996	0.0068273	-327.6853
	70	1588	0.0100011	0.0430291	-0.0097791	1	0.0441263	-12.80396	-4.023863E-005	3.500183	11	0.1589997	0.0070161	-327.6853
