EXPLAIN
TAG	GALVEIS
TITLE	LABEL	Galvanostatic EIS	Test Identifier
DATE	LABEL	22.4.2024	Date
TIME	LABEL	10:15:35	Time
NOTES	NOTES	1	Notes...
	
PSTAT	PSTAT	REF600-12055	Potentiostat
FREQINIT	QUANT	1.00000E+005	Initial Freq. (Hz)
FREQFINAL	QUANT	1.00000E-002	Final Freq. (Hz)
PTSPERDEC	QUANT	1.00000E+001	Points/decade
IACREQ	QUANT	1.59000E-001	AC Current (A rms)
IDCREQ	QUANT	0.00000E+000	DC Current (A)
AREA	QUANT	1.00000E+000	Sample Area (cm^2)
SPEED	SELECTOR	1	Optimize for:
DRIFTCOR	SELECTOR	0	Drift Correction
THD	SELECTOR	0	THD
ZGUESS	QUANT	1.00000E-001	Estimated Z (ohms)
EOC	QUANT	3.184592	Open Circuit (V)
SEQUENCER	TOGGLE	TRUE	Run as Sequence
PSTATMODEL	IQUANT	4	Pstat Model
PSTATSECTION	LABEL	REF600-12055	Pstat Section
PSTATSERIALNO	LABEL	12055	Pstat Serial Number
CTRLMODE	IQUANT	0	Control Mode
ELECTROMETER	IQUANT	0	RE=0 or CS=1
IESTAB	IQUANT	0	I/E Stability
CASPEED	IQUANT	4	Control Amp Speed
CONVENTION	IQUANT	1	Current Convention
ICHRANGE	IQUANT	2	Ich Range
ICHRANGEMODE	TOGGLE	F	Ich Auto Range
ICHOFFSETENABLE	TOGGLE	T	Ich Offset Enable
ICHOFFSET	QUANT	0	Ich Offset (V)
ICHFILTER	IQUANT	3	Ich Filter
VCHRANGE	IQUANT	2	Vch Range
VCHRANGEMODE	TOGGLE	F	Vch Auto Range
VCHOFFSETENABLE	TOGGLE	T	Vch Offset Enable
VCHOFFSET	QUANT	0	Vch Offset (V)
VCHFILTER	IQUANT	3	Vch Filter
ACHRANGE	IQUANT	2	Ach Range
ACHOFFSETENABLE	TOGGLE	F	Ach Offset Enable
ACHOFFSET	QUANT	0	Ach Offset (V)
ACHFILTER	IQUANT	1	Ach Filter
IERANGELOWERLIMIT	IQUANT	1	I/E Range Lower Limit
IERANGEMODE	TOGGLE	F	I/E AutoRange
IERANGE	IQUANT	7	I/E Range
POSFEEDENABLE	TOGGLE	F	Positive Feedback IR Comp
POSFEEDRESISTANCE	QUANT	0	Positive Feedback Resistance (ohm)
ACHSELECT	IQUANT	4	Ach Select
SENSECABLEID	IQUANT	14	Sense Cable ID
PWRCABLEID	IQUANT	14	Power Cable ID
DCCALDATE	LABEL	2/12/2024	DC Calibration Date
ACCALDATE	LABEL	2/12/2024	AC Calibration Date
THERMOSELECT	IQUANT	1	Thermo Select
FRAMEWORKVERSION	LABEL	7.10.3	Framework Version
INSTRUMENTVERSION	LABEL	4.91	Instrument Version
COMMVERSION	LABEL	2.24	Communications Version
CPUPLDVERSION	LABEL	0.00	CPU PLD Version
CTRLPLDVERSION	LABEL	0.00	CTRL PLD Version
PSTATPLDVERSION	LABEL	0.00	PSTAT PLD Version
ZCURVE	TABLE
	Pt	Time	Freq	Zreal	Zimag	Zsig	Zmod	Zphz	Idc	Vdc	IERange	Imod	Vmod	Temp
	#	s	Hz	ohm	ohm	V	ohm	°	A	V	#	A	V	°C
	0	5	100078.1	0.1011601	0.2393268	1	0.2598282	67.0869	2.564106E-005	3.18428	11	0.1596479	0.0411791	-327.6853
	1	7	79453.13	0.0848471	0.1986427	1	0.2160045	66.87102	1.3938E-005	3.184278	11	0.164312	0.0353281	-327.6853
	2	9	63140.62	0.0720542	0.1644144	1	0.1795101	66.33469	2.655201E-006	3.184279	11	0.1619482	0.0289857	-327.6853
	3	10	50203.12	0.0621311	0.1357179	1	0.1492636	65.40189	-1.7463E-005	3.18427	11	0.1609073	0.0239725	-327.6853
	4	12	39890.62	0.0545056	0.1116797	1	0.1242708	63.98516	-1.150125E-005	3.184269	11	0.1602684	0.0198929	-327.6853
	5	14	31640.63	0.0486481	0.091649	1	0.1037602	62.04023	-1.428981E-005	3.184271	11	0.1598346	0.016572	-327.6853
	6	15	25171.88	0.04416	0.0754097	1	0.0873884	59.64668	-1.577428E-005	3.184272	11	0.159547	0.0139359	-327.6853
	7	17	20015.62	0.0405639	0.0620964	1	0.0741714	56.84579	-1.448533E-005	3.184273	11	0.1593515	0.0118157	-327.6853
	8	19	15890.62	0.0375887	0.0510844	1	0.0634234	53.65384	-2.19706E-005	3.184272	11	0.1592298	0.010097	-327.6853
	9	20	12609.38	0.0350703	0.0419506	1	0.0546788	50.10471	-2.062665E-005	3.184258	11	0.1591386	0.0087005	-327.6853
	10	22	10078.13	0.0330369	0.0345306	1	0.0477891	46.26644	-2.073601E-005	3.184263	11	0.1590809	0.0076017	-327.6853
	11	24	8015.625	0.0313634	0.0281142	1	0.0421197	41.87317	-2.009537E-005	3.184258	11	0.1590565	0.0066991	-327.6853
	12	26	6328.125	0.0300533	0.0225236	1	0.0375568	36.84997	-1.568871E-005	3.184265	11	0.1590293	0.0059724	-327.6853
	13	27	5015.625	0.0291672	0.0179421	1	0.0342439	31.59762	-2.165756E-005	3.18425	11	0.1590211	0.0054454	-327.6853
	14	29	3984.375	0.0285708	0.0141727	1	0.0318929	26.38395	-2.158032E-005	3.184263	11	0.1590015	0.005071	-327.6853
	15	30	3170.956	0.0282252	0.0110324	1	0.0303047	21.34915	-2.04631E-005	3.184253	11	0.159008	0.0048187	-327.6853
	16	32	2527.573	0.0280674	0.0085269	1	0.0293341	16.89882	-2.323568E-005	3.184253	11	0.159006	0.0046643	-327.6853
	17	34	1976.103	0.0280559	0.0062774	1	0.0287496	12.61189	-1.883769E-005	3.184265	11	0.1590043	0.0045713	-327.6853
	18	35	1577.524	0.0281451	0.0046317	1	0.0285237	9.345061	-2.357946E-005	3.184264	11	0.1590002	0.0045353	-327.6853
	19	37	1265.625	0.0282755	0.0032472	1	0.0284613	6.551163	-1.623586E-005	3.184254	11	0.1589931	0.0045252	-327.6853
	20	38	998.264	0.0284736	0.0021472	1	0.0285544	4.312587	-2.07806E-005	3.184254	11	0.1590073	0.0045404	-327.6853
	21	40	796.875	0.0287319	0.0012267	1	0.0287581	2.444659	-1.789222E-005	3.184256	11	0.1589935	0.0045723	-327.6853
	22	41	627.7902	0.0290036	0.0004765	1	0.0290075	0.9413129	-1.911633E-005	3.184258	11	0.1590018	0.0046122	-327.6853
	23	43	505.5147	0.0293027	-0.00014	1	0.029303	-0.2737979	-2.520543E-005	3.184264	11	0.1576003	0.0045925	-327.6853
	24	44	397.9953	0.0296421	-0.000641	1	0.029649	-1.238736	-1.965192E-005	3.184258	11	0.1606008	0.0047421	-327.6853
	25	46	315.5048	0.029976	-0.0010523	1	0.0299944	-2.010517	-1.915573E-005	3.18426	11	0.1593388	0.0047658	-327.6853
	26	47	252.4038	0.0303022	-0.0013857	1	0.0303339	-2.618306	-1.709844E-005	3.184263	11	0.158973	0.0048132	-327.6853
	27	49	198.6229	0.0306776	-0.0016913	1	0.0307242	-3.155559	-2.051597E-005	3.18426	11	0.1588746	0.0048754	-327.6853
	28	50	158.3615	0.0310367	-0.0019376	1	0.0310971	-3.572246	-3.082666E-005	3.184262	11	0.1588885	0.0049371	-327.6853
	29	52	125.558	0.0314208	-0.0021635	1	0.0314952	-3.938854	-3.55189E-005	3.184258	11	0.158915	0.0050026	-327.6853
	30	53	100.4464	0.0317957	-0.0023524	1	0.0318826	-4.231352	-3.183307E-005	3.184255	11	0.1589408	0.0050658	-327.6853
	31	55	79.00281	0.0322145	-0.0025366	1	0.0323142	-4.50232	-2.051727E-005	3.184253	11	0.1589578	0.0051356	-327.6853
	32	56	63.3446	0.0326048	-0.002698	1	0.0327162	-4.730456	-2.045822E-005	3.184272	11	0.1589703	0.0052002	-327.6853
	33	58	50.22321	0.0330201	-0.00285	1	0.0331429	-4.933048	-2.211932E-005	3.184274	11	0.1589839	0.0052688	-327.6853
	34	60	38.42213	0.033504	-0.003037	1	0.0336413	-5.179449	-2.792427E-005	3.184261	11	0.158986	0.0053482	-327.6853
	35	61	31.25	0.0338871	-0.0031841	1	0.0340364	-5.367874	-3.294597E-005	3.184264	11	0.1590054	0.0054118	-327.6853
	36	63	24.93351	0.0343065	-0.0033659	1	0.0344712	-5.60347	-3.65689E-005	3.184275	11	0.1589906	0.0054805	-327.6853
	37	64	19.86229	0.0347025	-0.0035757	1	0.0348863	-5.882881	-4.076678E-005	3.184208	11	0.1589893	0.0055465	-327.6853
	38	66	15.625	0.0352113	-0.0038958	1	0.0354262	-6.313546	-3.337418E-005	3.184314	11	0.1589865	0.0056322	-327.6853
	39	67	12.40079	0.0356752	-0.0041614	1	0.0359171	-6.653272	-4.125584E-005	3.184213	11	0.1589943	0.0057106	-327.6853
	40	69	9.93114	0.0361642	-0.00452	1	0.0364456	-7.124237	-4.289462E-005	3.184194	11	0.1590067	0.0057951	-327.6853
	41	70	7.944915	0.0367623	-0.0049556	1	0.0370948	-7.677181	3.948342E-006	3.184187	11	0.1590016	0.0058981	-327.6853
	42	72	6.317385	0.0374497	-0.005503	1	0.0378519	-8.35941	-7.790537E-005	3.184168	11	0.1589932	0.0060182	-327.6853
	43	74	5.008013	0.0383122	-0.0060245	1	0.038783	-8.936495	1.870934E-005	3.184206	11	0.1590072	0.0061668	-327.6853
	44	77	3.945707	0.0393123	-0.0065841	1	0.0398599	-9.50769	-2.032211E-005	3.184212	11	0.1590113	0.0063382	-327.6853
	45	79	3.158693	0.0403754	-0.0070993	1	0.0409948	-9.97246	5.468063E-005	3.184176	11	0.1589834	0.0065175	-327.6853
	46	82	2.504006	0.0416795	-0.0075525	1	0.0423583	-10.27079	1.698034E-005	3.184118	11	0.1554121	0.0065556	-327.6853
	47	86	1.998082	0.0430368	-0.0078514	1	0.0437471	-10.339	-5.426406E-005	3.184083	11	0.161345	0.0070371	-327.6853
	48	90	1.584686	0.0444792	-0.0080311	1	0.0451984	-10.23501	-0.0002314	3.18408	11	0.1599925	0.0072167	-327.6853
	49	94	1.266892	0.0458962	-0.0080208	1	0.0465918	-9.91288	0.0000974	3.184214	11	0.1592487	0.0074097	-327.6853
	50	99	0.999041	0.0473305	-0.0078556	1	0.047978	-9.423683	2.851555E-005	3.184243	11	0.1590438	0.007624	-327.6853
	51	104	0.7923428	0.0486511	-0.0075663	1	0.0492359	-8.839925	-4.230317E-005	3.184261	11	0.159306	0.0078393	-327.6853
	52	111	0.6334459	0.049765	-0.0072608	1	0.0502919	-8.30103	-4.513183E-005	3.184266	11	0.158983	0.0079927	-327.6853
	53	120	0.5040323	0.0507981	-0.0069295	1	0.0512685	-7.767946	-4.04694E-005	3.184285	11	0.1589827	0.008149	-327.6853
	54	130	0.400641	0.0517088	-0.0066289	1	0.052132	-7.305317	-4.111396E-005	3.1843	11	0.1589873	0.0082871	-327.6853
	55	141	0.316723	0.0525298	-0.0063831	1	0.0529162	-6.928213	-4.492825E-005	3.18433	11	0.1589883	0.0084123	-327.6853
	56	156	0.2520161	0.0532531	-0.0062412	1	0.0536176	-6.684542	-4.278422E-005	3.184357	11	0.158994	0.0085244	-327.6853
	57	177	0.2003205	0.0539338	-0.0061853	1	0.0542874	-6.542277	-3.925327E-005	3.184403	11	0.1589959	0.0086312	-327.6853
	58	198	0.1588983	0.0545726	-0.0062521	1	0.0549296	-6.535556	-4.089258E-005	3.184456	11	0.1589983	0.0087335	-327.6853
	59	230	0.1260081	0.0552318	-0.0064252	1	0.0556042	-6.635468	-4.314713E-005	3.184806	11	0.1589982	0.0088409	-327.6853
	60	260	0.1001603	0.0558812	-0.0067272	1	0.0562846	-6.864498	-4.210349E-005	3.185494	11	0.1589976	0.008949	-327.6853
	61	296	0.0794492	0.0565131	-0.0071802	1	0.0569675	-7.240856	-4.731199E-005	3.186296	11	0.1590001	0.0090578	-327.6853
	62	348	0.0631739	0.0570528	-0.0078151	1	0.0575856	-7.799821	-3.651586E-005	3.186248	11	0.158999	0.009156	-327.6853
	63	397	0.0501337	0.0576815	-0.008632	1	0.0583239	-8.511141	-4.350715E-005	3.186355	11	0.1589994	0.0092734	-327.6853
	64	479	0.0398258	0.0583388	-0.009687	1	0.0591376	-9.427821	-3.995468E-005	3.186548	11	0.1590004	0.0094029	-327.6853
	65	581	0.0316296	0.0590162	-0.0110385	1	0.0600397	-10.59428	-4.083969E-005	3.18683	11	0.1589997	0.0095463	-327.6853
	66	709	0.0251206	0.0597488	-0.0127444	1	0.0610928	-12.04075	-4.072941E-005	3.187197	11	0.1590002	0.0097138	-327.6853
	67	870	0.0199553	0.0605384	-0.0149055	1	0.0623463	-13.83202	-4.61897E-005	3.18765	11	0.159001	0.0099131	-327.6853
	68	1072	0.0158522	0.0615213	-0.0175854	1	0.0639853	-15.95221	-4.066916E-005	3.188246	11	0.1589982	0.0101735	-327.6853
	69	1262	0.0125907	0.0627143	-0.0208817	1	0.0660994	-18.41595	-4.049037E-005	3.188974	11	0.1590005	0.0105098	-327.6853
	70	1582	0.0100011	0.0641977	-0.0248127	1	0.0688259	-21.13176	-3.668268E-005	3.189882	11	0.1589986	0.0109432	-327.6853
