EXPLAIN
TAG	GALVEIS
TITLE	LABEL	Galvanostatic EIS	Test Identifier
DATE	LABEL	22.4.2024	Date
TIME	LABEL	17:59:27	Time
NOTES	NOTES	1	Notes...
	
PSTAT	PSTAT	REF600-12055	Potentiostat
FREQINIT	QUANT	1.00000E+005	Initial Freq. (Hz)
FREQFINAL	QUANT	1.00000E-002	Final Freq. (Hz)
PTSPERDEC	QUANT	1.00000E+001	Points/decade
IACREQ	QUANT	1.59000E-001	AC Current (A rms)
IDCREQ	QUANT	0.00000E+000	DC Current (A)
AREA	QUANT	1.00000E+000	Sample Area (cm^2)
SPEED	SELECTOR	1	Optimize for:
DRIFTCOR	SELECTOR	0	Drift Correction
THD	SELECTOR	0	THD
ZGUESS	QUANT	1.00000E-001	Estimated Z (ohms)
EOC	QUANT	3.823253	Open Circuit (V)
SEQUENCER	TOGGLE	TRUE	Run as Sequence
PSTATMODEL	IQUANT	4	Pstat Model
PSTATSECTION	LABEL	REF600-12055	Pstat Section
PSTATSERIALNO	LABEL	12055	Pstat Serial Number
CTRLMODE	IQUANT	0	Control Mode
ELECTROMETER	IQUANT	0	RE=0 or CS=1
IESTAB	IQUANT	0	I/E Stability
CASPEED	IQUANT	4	Control Amp Speed
CONVENTION	IQUANT	1	Current Convention
ICHRANGE	IQUANT	2	Ich Range
ICHRANGEMODE	TOGGLE	F	Ich Auto Range
ICHOFFSETENABLE	TOGGLE	T	Ich Offset Enable
ICHOFFSET	QUANT	0	Ich Offset (V)
ICHFILTER	IQUANT	3	Ich Filter
VCHRANGE	IQUANT	2	Vch Range
VCHRANGEMODE	TOGGLE	F	Vch Auto Range
VCHOFFSETENABLE	TOGGLE	T	Vch Offset Enable
VCHOFFSET	QUANT	0	Vch Offset (V)
VCHFILTER	IQUANT	3	Vch Filter
ACHRANGE	IQUANT	2	Ach Range
ACHOFFSETENABLE	TOGGLE	F	Ach Offset Enable
ACHOFFSET	QUANT	0	Ach Offset (V)
ACHFILTER	IQUANT	1	Ach Filter
IERANGELOWERLIMIT	IQUANT	1	I/E Range Lower Limit
IERANGEMODE	TOGGLE	F	I/E AutoRange
IERANGE	IQUANT	7	I/E Range
POSFEEDENABLE	TOGGLE	F	Positive Feedback IR Comp
POSFEEDRESISTANCE	QUANT	0	Positive Feedback Resistance (ohm)
ACHSELECT	IQUANT	4	Ach Select
SENSECABLEID	IQUANT	14	Sense Cable ID
PWRCABLEID	IQUANT	14	Power Cable ID
DCCALDATE	LABEL	2/12/2024	DC Calibration Date
ACCALDATE	LABEL	2/12/2024	AC Calibration Date
THERMOSELECT	IQUANT	1	Thermo Select
FRAMEWORKVERSION	LABEL	7.10.3	Framework Version
INSTRUMENTVERSION	LABEL	4.91	Instrument Version
COMMVERSION	LABEL	2.24	Communications Version
CPUPLDVERSION	LABEL	0.00	CPU PLD Version
CTRLPLDVERSION	LABEL	0.00	CTRL PLD Version
PSTATPLDVERSION	LABEL	0.00	PSTAT PLD Version
ZCURVE	TABLE
	Pt	Time	Freq	Zreal	Zimag	Zsig	Zmod	Zphz	Idc	Vdc	IERange	Imod	Vmod	Temp
	#	s	Hz	ohm	ohm	V	ohm	°	A	V	#	A	V	°C
	0	5	100078.1	0.1014546	0.2374968	1	0.2582591	66.86866	2.85242E-005	3.822997	11	0.1596696	0.0409359	-327.6853
	1	7	79453.13	0.0849059	0.197308	1	0.214801	66.71675	1.485017E-005	3.822991	11	0.1642923	0.035127	-327.6853
	2	8	63140.62	0.0719418	0.1634342	1	0.1785676	66.24148	6.562448E-006	3.822994	11	0.1619664	0.0288367	-327.6853
	3	10	50203.12	0.0618933	0.1349682	1	0.148483	65.3649	-1.820503E-006	3.822976	11	0.1609356	0.0238513	-327.6853
	4	12	39890.62	0.0541827	0.1111243	1	0.12363	64.00677	-7.719791E-006	3.822976	11	0.1602764	0.0197913	-327.6853
	5	13	31640.63	0.0482604	0.0912188	1	0.1031986	62.11837	-1.24237E-005	3.822968	11	0.1598337	0.0164821	-327.6853
	6	15	25171.88	0.0437295	0.0751001	1	0.0869039	59.78852	-1.40639E-005	3.82296	11	0.1595462	0.0138585	-327.6853
	7	17	20015.62	0.0401081	0.0618439	1	0.0737111	57.03508	-1.513376E-005	3.822951	11	0.1593548	0.0117427	-327.6853
	8	18	15890.62	0.037101	0.0509092	1	0.0629939	53.91665	-1.810252E-005	3.822939	11	0.1592283	0.0100285	-327.6853
	9	20	12609.38	0.0345737	0.0418252	1	0.054265	50.42204	-1.84385E-005	3.822924	11	0.1591447	0.008635	-327.6853
	10	22	10078.13	0.0325311	0.0344453	1	0.0473788	46.63712	-1.580641E-005	3.822926	11	0.1590799	0.0075364	-327.6853
	11	23	8015.625	0.0308598	0.028062	1	0.0417109	42.28144	-2.072041E-005	3.822917	11	0.1590564	0.0066341	-327.6853
	12	25	6328.125	0.0295527	0.0225198	1	0.0371551	37.30816	-1.817214E-005	3.822911	11	0.1590329	0.0059087	-327.6853
	13	26	5015.625	0.02865	0.0179562	1	0.0338119	32.07713	-1.5634E-005	3.822911	11	0.1590132	0.0053764	-327.6853
	14	28	3984.375	0.0280488	0.0142016	1	0.0314391	26.85388	-1.628289E-005	3.822899	11	0.1590089	0.004999	-327.6853
	15	30	3170.956	0.0276925	0.0111151	1	0.0298399	21.86929	-1.94154E-005	3.822882	11	0.1590075	0.0047447	-327.6853
	16	31	2527.573	0.027517	0.0086318	1	0.0288391	17.41607	-1.99074E-005	3.822874	11	0.1590051	0.0045855	-327.6853
	17	33	1976.103	0.0274904	0.0063745	1	0.0282198	13.05515	-2.172834E-005	3.82287	11	0.1590002	0.0044869	-327.6853
	18	35	1577.524	0.0275706	0.004764	1	0.0279792	9.80345	-2.039177E-005	3.822861	11	0.1590014	0.0044487	-327.6853
	19	36	1265.625	0.027674	0.0035386	1	0.0278993	7.286748	-1.781384E-005	3.822864	11	0.1590046	0.0044361	-327.6853
	20	38	998.264	0.0278475	0.0023858	1	0.0279495	4.896773	-2.022425E-005	3.822854	11	0.1589912	0.0044437	-327.6853
	21	39	796.875	0.028076	0.0015336	1	0.0281179	3.126497	-1.990801E-005	3.822855	11	0.1590002	0.0044707	-327.6853
	22	41	627.7902	0.0283254	0.0008237	1	0.0283374	1.665774	-2.031517E-005	3.822846	11	0.1590045	0.0045058	-327.6853
	23	42	505.5147	0.0285459	0.0002976	1	0.0285474	0.5972974	-2.995442E-005	3.822839	11	0.1575939	0.0044739	-327.6853
	24	44	397.9953	0.0288232	-0.0001431	1	0.0288236	-0.2845368	-1.876126E-005	3.822835	11	0.1606069	0.0046103	-327.6853
	25	45	315.5048	0.0290939	-0.0004893	1	0.029098	-0.963488	-1.715944E-005	3.82283	11	0.1593378	0.0046234	-327.6853
	26	47	252.4038	0.0293553	-0.0007543	1	0.029365	-1.471916	-2.848601E-005	3.822823	11	0.1589712	0.0046594	-327.6853
	27	48	198.6229	0.0296396	-0.0009887	1	0.0296561	-1.910444	-1.852517E-005	3.822818	11	0.1588758	0.004706	-327.6853
	28	50	158.3615	0.0299102	-0.0011558	1	0.0299325	-2.212852	-1.703482E-005	3.822812	11	0.1588861	0.0047522	-327.6853
	29	51	125.558	0.0301948	-0.0012878	1	0.0302222	-2.4421	-2.02487E-005	3.822808	11	0.1589176	0.0048005	-327.6853
	30	53	100.4464	0.0304717	-0.00138	1	0.0305029	-2.593088	-1.310452E-005	3.822804	11	0.1589433	0.0048467	-327.6853
	31	55	79.00281	0.0307677	-0.0014483	1	0.0308018	-2.695059	-1.984264E-005	3.822796	11	0.1589504	0.004895	-327.6853
	32	56	63.3446	0.0310409	-0.0014727	1	0.0310758	-2.716331	-1.855101E-005	3.822795	11	0.1589772	0.0049397	-327.6853
	33	58	50.22321	0.031321	-0.0014779	1	0.0313558	-2.701493	-2.145686E-005	3.822791	11	0.1589775	0.0049845	-327.6853
	34	59	38.42213	0.0316356	-0.0014526	1	0.0316689	-2.628929	-2.664095E-005	3.822777	11	0.1589927	0.0050349	-327.6853
	35	61	31.25	0.0318583	-0.0014022	1	0.0318891	-2.520246	-4.027109E-005	3.82277	11	0.1589932	0.00507	-327.6853
	36	62	24.93351	0.0320885	-0.0013301	1	0.032116	-2.373659	-2.709602E-005	3.822763	11	0.1589929	0.0051061	-327.6853
	37	64	19.86229	0.0322888	-0.0012559	1	0.0323132	-2.227388	-9.319163E-006	3.822768	11	0.1589888	0.0051374	-327.6853
	38	66	15.625	0.0325057	-0.0011625	1	0.0325264	-2.048189	-2.088628E-005	3.822767	11	0.1589992	0.0051716	-327.6853
	39	67	12.40079	0.0326469	-0.0010861	1	0.0326649	-1.905478	-3.063756E-005	3.822765	11	0.1590025	0.0051938	-327.6853
	40	69	9.93114	0.0327823	-0.001016	1	0.0327981	-1.775135	-1.351058E-005	3.82276	11	0.1589969	0.0052148	-327.6853
	41	70	7.944915	0.0328922	-0.0009453	1	0.0329058	-1.646143	5.880836E-006	3.822729	11	0.1589943	0.0052318	-327.6853
	42	72	6.317385	0.0329988	-0.0009033	1	0.0330112	-1.568075	-0.0001111	3.822719	11	0.1590294	0.0052497	-327.6853
	43	74	5.008013	0.0331003	-0.0008725	1	0.0331118	-1.509973	3.394345E-005	3.822702	11	0.1589469	0.005263	-327.6853
	44	77	3.945707	0.0331944	-0.0008671	1	0.0332057	-1.496339	-2.626632E-005	3.822697	11	0.1590334	0.0052808	-327.6853
	45	79	3.158693	0.0332734	-0.0008695	1	0.0332847	-1.496923	2.891512E-005	3.822671	11	0.1590115	0.0052926	-327.6853
	46	83	2.504006	0.0333788	-0.0008924	1	0.0333908	-1.531489	3.492425E-005	3.822635	11	0.1553815	0.0051667	-327.6853
	47	86	1.998082	0.0334747	-0.0009265	1	0.0334875	-1.585404	-0.0001627	3.822594	11	0.1614048	0.0053888	-327.6853
	48	89	1.584686	0.0335757	-0.0009839	1	0.0335901	-1.678568	-0.0003183	3.822579	11	0.1600395	0.0053648	-327.6853
	49	93	1.266892	0.0336913	-0.0010473	1	0.0337076	-1.780404	0.0002021	3.822621	11	0.1592363	0.0053602	-327.6853
	50	99	0.999041	0.0338289	-0.0011429	1	0.0338482	-1.935014	0.0001645	3.822632	11	0.1590413	0.0053786	-327.6853
	51	103	0.7923428	0.0339894	-0.0012151	1	0.0340111	-2.047401	-3.893179E-005	3.822626	11	0.1592275	0.0054125	-327.6853
	52	110	0.6334459	0.0341344	-0.0013217	1	0.03416	-2.217422	-4.176388E-005	3.822595	11	0.158983	0.0054289	-327.6853
	53	118	0.5040323	0.0342905	-0.0014528	1	0.0343213	-2.425989	-4.530515E-005	3.82255	11	0.158984	0.0054553	-327.6853
	54	129	0.400641	0.0344784	-0.0015979	1	0.0345154	-2.653509	-4.546392E-005	3.822506	11	0.158984	0.0054866	-327.6853
	55	143	0.316723	0.0346874	-0.0017641	1	0.0347322	-2.911444	-3.832005E-005	3.822463	11	0.1589915	0.0055216	-327.6853
	56	158	0.2520161	0.0349162	-0.0019445	1	0.0349703	-3.187485	-3.861268E-005	3.822409	11	0.1589937	0.0055597	-327.6853
	57	175	0.2003205	0.0351557	-0.0021534	1	0.0352216	-3.505112	-3.830259E-005	3.822352	11	0.1589954	0.0055999	-327.6853
	58	196	0.1588983	0.0354325	-0.0023929	1	0.0355133	-3.863589	-4.229111E-005	3.82229	11	0.1589981	0.0056464	-327.6853
	59	222	0.1260081	0.0357517	-0.0026502	1	0.0358498	-4.239536	-4.043242E-005	3.822304	11	0.1589984	0.0057	-327.6853
	60	252	0.1001603	0.0361144	-0.0029431	1	0.0362341	-4.658886	-4.137861E-005	3.822363	11	0.1589972	0.0057611	-327.6853
	61	298	0.0794492	0.0365406	-0.0032903	1	0.0366884	-5.14537	-4.041613E-005	3.822442	11	0.159002	0.0058335	-327.6853
	62	337	0.0631739	0.0368349	-0.0036861	1	0.0370188	-5.714624	-4.075903E-005	3.822124	11	0.1589997	0.005886	-327.6853
	63	402	0.0501337	0.037249	-0.0041479	1	0.0374793	-6.353987	-3.902154E-005	3.821912	11	0.158999	0.0059592	-327.6853
	64	464	0.0398258	0.0377128	-0.004683	1	0.0380024	-7.078475	-3.931549E-005	3.821724	11	0.1590003	0.0060424	-327.6853
	65	541	0.0316296	0.0382081	-0.005304	1	0.0385745	-7.903178	-4.104281E-005	3.821522	11	0.1589992	0.0061333	-327.6853
	66	637	0.0251206	0.0387763	-0.0060685	1	0.0392483	-8.894692	-4.098797E-005	3.821236	11	0.1590013	0.0062405	-327.6853
	67	798	0.0199553	0.039411	-0.0069848	1	0.0400252	-10.05016	-4.057454E-005	3.820902	11	0.1589988	0.006364	-327.6853
	68	1000	0.0158522	0.0401552	-0.0080691	1	0.0409579	-11.36217	-3.898702E-005	3.820602	11	0.1590005	0.0065123	-327.6853
	69	1191	0.0125907	0.0410387	-0.0093581	1	0.0420921	-12.84555	-3.963275E-005	3.820336	11	0.1589987	0.0066926	-327.6853
	70	1430	0.0100011	0.0420855	-0.0108705	1	0.0434667	-14.48273	-4.176315E-005	3.819973	11	0.1590013	0.0069113	-327.6853
