EXPLAIN
TAG	GALVEIS
TITLE	LABEL	Galvanostatic EIS	Test Identifier
DATE	LABEL	22.4.2024	Date
TIME	LABEL	15:13:56	Time
NOTES	NOTES	1	Notes...
	
PSTAT	PSTAT	REF600-12055	Potentiostat
FREQINIT	QUANT	1.00000E+005	Initial Freq. (Hz)
FREQFINAL	QUANT	1.00000E-002	Final Freq. (Hz)
PTSPERDEC	QUANT	1.00000E+001	Points/decade
IACREQ	QUANT	1.59000E-001	AC Current (A rms)
IDCREQ	QUANT	0.00000E+000	DC Current (A)
AREA	QUANT	1.00000E+000	Sample Area (cm^2)
SPEED	SELECTOR	1	Optimize for:
DRIFTCOR	SELECTOR	0	Drift Correction
THD	SELECTOR	0	THD
ZGUESS	QUANT	1.00000E-001	Estimated Z (ohms)
EOC	QUANT	3.63495	Open Circuit (V)
SEQUENCER	TOGGLE	TRUE	Run as Sequence
PSTATMODEL	IQUANT	4	Pstat Model
PSTATSECTION	LABEL	REF600-12055	Pstat Section
PSTATSERIALNO	LABEL	12055	Pstat Serial Number
CTRLMODE	IQUANT	0	Control Mode
ELECTROMETER	IQUANT	0	RE=0 or CS=1
IESTAB	IQUANT	0	I/E Stability
CASPEED	IQUANT	4	Control Amp Speed
CONVENTION	IQUANT	1	Current Convention
ICHRANGE	IQUANT	2	Ich Range
ICHRANGEMODE	TOGGLE	F	Ich Auto Range
ICHOFFSETENABLE	TOGGLE	T	Ich Offset Enable
ICHOFFSET	QUANT	0	Ich Offset (V)
ICHFILTER	IQUANT	3	Ich Filter
VCHRANGE	IQUANT	2	Vch Range
VCHRANGEMODE	TOGGLE	F	Vch Auto Range
VCHOFFSETENABLE	TOGGLE	T	Vch Offset Enable
VCHOFFSET	QUANT	0	Vch Offset (V)
VCHFILTER	IQUANT	3	Vch Filter
ACHRANGE	IQUANT	2	Ach Range
ACHOFFSETENABLE	TOGGLE	F	Ach Offset Enable
ACHOFFSET	QUANT	0	Ach Offset (V)
ACHFILTER	IQUANT	1	Ach Filter
IERANGELOWERLIMIT	IQUANT	1	I/E Range Lower Limit
IERANGEMODE	TOGGLE	F	I/E AutoRange
IERANGE	IQUANT	7	I/E Range
POSFEEDENABLE	TOGGLE	F	Positive Feedback IR Comp
POSFEEDRESISTANCE	QUANT	0	Positive Feedback Resistance (ohm)
ACHSELECT	IQUANT	4	Ach Select
SENSECABLEID	IQUANT	14	Sense Cable ID
PWRCABLEID	IQUANT	14	Power Cable ID
DCCALDATE	LABEL	2/12/2024	DC Calibration Date
ACCALDATE	LABEL	2/12/2024	AC Calibration Date
THERMOSELECT	IQUANT	1	Thermo Select
FRAMEWORKVERSION	LABEL	7.10.3	Framework Version
INSTRUMENTVERSION	LABEL	4.91	Instrument Version
COMMVERSION	LABEL	2.24	Communications Version
CPUPLDVERSION	LABEL	0.00	CPU PLD Version
CTRLPLDVERSION	LABEL	0.00	CTRL PLD Version
PSTATPLDVERSION	LABEL	0.00	PSTAT PLD Version
ZCURVE	TABLE
	Pt	Time	Freq	Zreal	Zimag	Zsig	Zmod	Zphz	Idc	Vdc	IERange	Imod	Vmod	Temp
	#	s	Hz	ohm	ohm	V	ohm	°	A	V	#	A	V	°C
	0	4	100078.1	0.1012895	0.2377403	1	0.2584183	66.92352	1.778087E-005	3.63474	11	0.1596465	0.0409553	-327.6853
	1	6	79453.13	0.0848123	0.1974651	1	0.2149083	66.75623	5.273614E-006	3.634745	11	0.1643295	0.0351525	-327.6853
	2	8	63140.62	0.0718965	0.163548	1	0.1786534	66.26949	6.608432E-006	3.634743	11	0.1619702	0.0288513	-327.6853
	3	10	50203.12	0.0618848	0.1350461	1	0.1485503	65.38042	-7.735332E-006	3.634739	11	0.1609385	0.0238625	-327.6853
	4	11	39890.62	0.0542038	0.1111734	1	0.1236834	64.00793	-2.254033E-005	3.634728	11	0.1602817	0.0198005	-327.6853
	5	13	31640.63	0.0482931	0.0912479	1	0.1032396	62.1099	-1.288368E-005	3.63473	11	0.159841	0.0164895	-327.6853
	6	15	25171.88	0.0437775	0.0751099	1	0.0869366	59.76441	-1.505774E-005	3.634727	11	0.1595508	0.0138641	-327.6853
	7	16	20015.62	0.0401702	0.0618544	1	0.0737537	56.99898	-1.776681E-005	3.634712	11	0.1593551	0.0117495	-327.6853
	8	18	15890.62	0.0371702	0.0508973	1	0.0630251	53.85942	-1.558708E-005	3.634716	11	0.1592298	0.0100336	-327.6853
	9	20	12609.38	0.0346443	0.0418242	1	0.0543092	50.36394	-1.609535E-005	3.634711	11	0.1591465	0.0086421	-327.6853
	10	22	10078.13	0.0326103	0.0344279	1	0.0474206	46.55301	-1.713407E-005	3.634705	11	0.1590832	0.0075432	-327.6853
	11	23	8015.625	0.030936	0.0280435	1	0.0417549	42.19231	-1.5617E-005	3.634698	11	0.1590531	0.0066409	-327.6853
	12	25	6328.125	0.0296302	0.0224902	1	0.0371989	37.19962	-1.54376E-005	3.634689	11	0.159033	0.0059157	-327.6853
	13	26	5015.625	0.0287244	0.0179268	1	0.0338594	31.9682	-2.184568E-005	3.63469	11	0.1590165	0.0053841	-327.6853
	14	28	3984.375	0.0281342	0.0141748	1	0.0315033	26.74019	-1.476705E-005	3.634692	11	0.1590074	0.0050092	-327.6853
	15	29	3170.956	0.0277886	0.011054	1	0.0299064	21.69206	-1.865759E-005	3.634684	11	0.1590053	0.0047552	-327.6853
	16	31	2527.573	0.0276201	0.0085659	1	0.0289179	17.23043	-1.479813E-005	3.634671	11	0.1590018	0.004598	-327.6853
	17	33	1976.103	0.0275939	0.0063741	1	0.0283205	13.00704	-1.854764E-005	3.634668	11	0.1590044	0.0045031	-327.6853
	18	34	1577.524	0.0276787	0.0047276	1	0.0280796	9.6927	-1.623586E-005	3.634662	11	0.1590022	0.0044647	-327.6853
	19	36	1265.625	0.0278108	0.0033874	1	0.0280164	6.944578	-2.095557E-005	3.634671	11	0.1589981	0.0044545	-327.6853
	20	37	998.264	0.0280132	0.0022674	1	0.0281048	4.627453	-2.164813E-005	3.63466	11	0.1589966	0.0044686	-327.6853
	21	39	796.875	0.0282112	0.001467	1	0.0282493	2.97681	-1.846941E-005	3.63465	11	0.1590072	0.0044918	-327.6853
	22	40	627.7902	0.0284814	0.0007134	1	0.0284903	1.434865	-1.558918E-005	3.634661	11	0.1589962	0.0045298	-327.6853
	23	42	505.5147	0.0287416	0.000167	1	0.0287421	0.3328398	-1.773605E-005	3.634658	11	0.1575977	0.0045045	-327.6853
	24	43	397.9953	0.0290391	-0.0002746	1	0.0290404	-0.5417857	-1.751375E-005	3.634658	11	0.1606048	0.0046449	-327.6853
	25	45	315.5048	0.0293331	-0.0006296	1	0.0293399	-1.22954	-1.893984E-005	3.634654	11	0.1593365	0.0046617	-327.6853
	26	46	252.4038	0.0296157	-0.0009059	1	0.0296295	-1.751976	-1.723471E-005	3.634651	11	0.1589663	0.0047012	-327.6853
	27	48	198.6229	0.0299227	-0.0011378	1	0.0299443	-2.177512	-1.819117E-005	3.634648	11	0.1588787	0.0047518	-327.6853
	28	49	158.3615	0.0302165	-0.0013137	1	0.030245	-2.489378	-1.873414E-005	3.634642	11	0.15889	0.0048019	-327.6853
	29	51	125.558	0.0305267	-0.0014514	1	0.0305612	-2.722052	-1.569971E-005	3.634638	11	0.158915	0.0048542	-327.6853
	30	52	100.4464	0.030824	-0.0015468	1	0.0308627	-2.87271	-2.186152E-005	3.634629	11	0.1589395	0.0049037	-327.6853
	31	54	79.00281	0.0311505	-0.0016169	1	0.0311924	-2.971261	-1.937279E-005	3.63463	11	0.1589611	0.0049574	-327.6853
	32	56	63.3446	0.0314527	-0.0016593	1	0.0314965	-3.019781	-1.942281E-005	3.634628	11	0.1589737	0.0050065	-327.6853
	33	57	50.22321	0.0317677	-0.0016647	1	0.0318113	-2.999749	-9.866781E-006	3.634624	11	0.1589858	0.0050571	-327.6853
	34	59	38.42213	0.0321164	-0.0016362	1	0.0321581	-2.916507	-1.673901E-005	3.634627	11	0.1589835	0.0051124	-327.6853
	35	60	31.25	0.0323774	-0.0015872	1	0.0324163	-2.806579	-2.136103E-005	3.63462	11	0.1589973	0.0051539	-327.6853
	36	62	24.93351	0.032647	-0.0015213	1	0.0326824	-2.667917	-2.1082E-005	3.634609	11	0.1589922	0.0051961	-327.6853
	37	64	19.86229	0.0328743	-0.0014331	1	0.0329055	-2.496116	-3.462203E-005	3.634616	11	0.1589895	0.0052316	-327.6853
	38	65	15.625	0.0331189	-0.0013266	1	0.0331454	-2.29382	-3.173947E-006	3.634605	11	0.1589902	0.0052698	-327.6853
	39	67	12.40079	0.0333067	-0.0012271	1	0.0333293	-2.110006	-1.998703E-005	3.634617	11	0.1590072	0.0052996	-327.6853
	40	68	9.93114	0.0334555	-0.001129	1	0.0334745	-1.932734	-4.003197E-005	3.634599	11	0.1589924	0.0053222	-327.6853
	41	70	7.944915	0.033594	-0.001039	1	0.0336101	-1.771462	5.112262E-006	3.634575	11	0.1589998	0.005344	-327.6853
	42	72	6.317385	0.0337067	-0.0009627	1	0.0337204	-1.635989	-6.604177E-005	3.634562	11	0.1589778	0.0053608	-327.6853
	43	74	5.008013	0.0338153	-0.0009108	1	0.0338275	-1.54291	3.070896E-005	3.634554	11	0.1590069	0.0053788	-327.6853
	44	76	3.945707	0.0339108	-0.0008606	1	0.0339217	-1.453723	-6.037531E-006	3.634553	11	0.1590246	0.0053944	-327.6853
	45	79	3.158693	0.0339926	-0.0008505	1	0.0340032	-1.433225	7.116143E-005	3.634534	11	0.1589641	0.0054053	-327.6853
	46	83	2.504006	0.0340901	-0.0008407	1	0.0341004	-1.412653	1.459499E-005	3.63451	11	0.1554459	0.0052787	-327.6853
	47	87	1.998082	0.0341781	-0.000844	1	0.0341885	-1.414591	-3.630994E-007	3.634494	11	0.1613353	0.0054992	-327.6853
	48	91	1.584686	0.0342673	-0.0008758	1	0.0342785	-1.463988	-0.0001842	3.634481	11	0.1599427	0.0054714	-327.6853
	49	97	1.266892	0.0343704	-0.0009208	1	0.0343828	-1.534577	6.209666E-005	3.634533	11	0.1592723	0.0054688	-327.6853
	50	102	0.999041	0.0344784	-0.0009737	1	0.0344921	-1.617735	1.264269E-005	3.634526	11	0.1590641	0.0054817	-327.6853
	51	107	0.7923428	0.0346064	-0.0010377	1	0.034622	-1.717546	-3.927349E-005	3.634514	11	0.1593222	0.005513	-327.6853
	52	115	0.6334459	0.0347274	-0.0011083	1	0.0347451	-1.828008	-3.896392E-005	3.6345	11	0.1589839	0.005522	-327.6853
	53	123	0.5040323	0.0348661	-0.0012061	1	0.0348869	-1.981243	-4.03733E-005	3.63448	11	0.1589826	0.0055452	-327.6853
	54	135	0.400641	0.0350181	-0.0013102	1	0.0350426	-2.14271	-3.852407E-005	3.634463	11	0.1589871	0.0055705	-327.6853
	55	146	0.316723	0.0351801	-0.0014358	1	0.0352094	-2.337156	-3.881543E-005	3.634441	11	0.1589888	0.0055974	-327.6853
	56	160	0.2520161	0.0353451	-0.0015788	1	0.0353803	-2.557523	-4.074968E-005	3.634411	11	0.158994	0.0056249	-327.6853
	57	182	0.2003205	0.0355357	-0.0017406	1	0.0355783	-2.804157	-3.92533E-005	3.634382	11	0.1589953	0.0056566	-327.6853
	58	203	0.1588983	0.0357495	-0.0019303	1	0.0358015	-3.09073	-3.836153E-005	3.634353	11	0.1589975	0.0056922	-327.6853
	59	228	0.1260081	0.0359969	-0.0021407	1	0.0360605	-3.403297	-4.071883E-005	3.634382	11	0.1589969	0.0057334	-327.6853
	60	267	0.1001603	0.0362851	-0.00239	1	0.0363637	-3.768535	-3.97433E-005	3.634463	11	0.1590001	0.0057818	-327.6853
	61	313	0.0794492	0.0365875	-0.0026665	1	0.0366846	-4.168327	-3.89013E-005	3.634542	11	0.158999	0.0058328	-327.6853
	62	365	0.0631739	0.0368255	-0.0029947	1	0.0369471	-4.649087	-3.465054E-005	3.634329	11	0.1589993	0.0058745	-327.6853
	63	430	0.0501337	0.0371444	-0.0033733	1	0.0372973	-5.189178	-3.644207E-005	3.634218	11	0.1590007	0.0059303	-327.6853
	64	491	0.0398258	0.0375102	-0.0038143	1	0.0377036	-5.806334	-3.984313E-005	3.63413	11	0.1589998	0.0059949	-327.6853
	65	568	0.0316296	0.0379086	-0.004327	1	0.0381548	-6.51171	-4.037331E-005	3.634023	11	0.1589991	0.0060666	-327.6853
	66	664	0.0251206	0.0383393	-0.0049401	1	0.0386562	-7.342183	-3.938086E-005	3.633891	11	0.1590018	0.0061464	-327.6853
	67	825	0.0199553	0.0388499	-0.0056633	1	0.0392605	-8.293786	-3.998541E-005	3.633759	11	0.1589994	0.0062424	-327.6853
	68	977	0.0158522	0.0394205	-0.006531	1	0.0399578	-9.40702	-4.108786E-005	3.633601	11	0.159	0.0063533	-327.6853
	69	1231	0.0125907	0.0401164	-0.0075493	1	0.0408206	-10.65751	-4.11677E-005	3.633469	11	0.1590009	0.0064905	-327.6853
	70	1471	0.0100011	0.040989	-0.0087085	1	0.0419039	-11.99461	-4.51782E-005	3.633351	11	0.1590009	0.0066628	-327.6853
