EXPLAIN
TAG	GALVEIS
TITLE	LABEL	Galvanostatic EIS	Test Identifier
DATE	LABEL	22.4.2024	Date
TIME	LABEL	19:21:37	Time
NOTES	NOTES	1	Notes...
	
PSTAT	PSTAT	REF600-12055	Potentiostat
FREQINIT	QUANT	1.00000E+005	Initial Freq. (Hz)
FREQFINAL	QUANT	1.00000E-002	Final Freq. (Hz)
PTSPERDEC	QUANT	1.00000E+001	Points/decade
IACREQ	QUANT	1.59000E-001	AC Current (A rms)
IDCREQ	QUANT	0.00000E+000	DC Current (A)
AREA	QUANT	1.00000E+000	Sample Area (cm^2)
SPEED	SELECTOR	1	Optimize for:
DRIFTCOR	SELECTOR	0	Drift Correction
THD	SELECTOR	0	THD
ZGUESS	QUANT	1.00000E-001	Estimated Z (ohms)
EOC	QUANT	3.908852	Open Circuit (V)
SEQUENCER	TOGGLE	TRUE	Run as Sequence
PSTATMODEL	IQUANT	4	Pstat Model
PSTATSECTION	LABEL	REF600-12055	Pstat Section
PSTATSERIALNO	LABEL	12055	Pstat Serial Number
CTRLMODE	IQUANT	0	Control Mode
ELECTROMETER	IQUANT	0	RE=0 or CS=1
IESTAB	IQUANT	0	I/E Stability
CASPEED	IQUANT	4	Control Amp Speed
CONVENTION	IQUANT	1	Current Convention
ICHRANGE	IQUANT	2	Ich Range
ICHRANGEMODE	TOGGLE	F	Ich Auto Range
ICHOFFSETENABLE	TOGGLE	T	Ich Offset Enable
ICHOFFSET	QUANT	0	Ich Offset (V)
ICHFILTER	IQUANT	3	Ich Filter
VCHRANGE	IQUANT	2	Vch Range
VCHRANGEMODE	TOGGLE	F	Vch Auto Range
VCHOFFSETENABLE	TOGGLE	T	Vch Offset Enable
VCHOFFSET	QUANT	0	Vch Offset (V)
VCHFILTER	IQUANT	3	Vch Filter
ACHRANGE	IQUANT	2	Ach Range
ACHOFFSETENABLE	TOGGLE	F	Ach Offset Enable
ACHOFFSET	QUANT	0	Ach Offset (V)
ACHFILTER	IQUANT	1	Ach Filter
IERANGELOWERLIMIT	IQUANT	1	I/E Range Lower Limit
IERANGEMODE	TOGGLE	F	I/E AutoRange
IERANGE	IQUANT	7	I/E Range
POSFEEDENABLE	TOGGLE	F	Positive Feedback IR Comp
POSFEEDRESISTANCE	QUANT	0	Positive Feedback Resistance (ohm)
ACHSELECT	IQUANT	4	Ach Select
SENSECABLEID	IQUANT	14	Sense Cable ID
PWRCABLEID	IQUANT	14	Power Cable ID
DCCALDATE	LABEL	2/12/2024	DC Calibration Date
ACCALDATE	LABEL	2/12/2024	AC Calibration Date
THERMOSELECT	IQUANT	1	Thermo Select
FRAMEWORKVERSION	LABEL	7.10.3	Framework Version
INSTRUMENTVERSION	LABEL	4.91	Instrument Version
COMMVERSION	LABEL	2.24	Communications Version
CPUPLDVERSION	LABEL	0.00	CPU PLD Version
CTRLPLDVERSION	LABEL	0.00	CTRL PLD Version
PSTATPLDVERSION	LABEL	0.00	PSTAT PLD Version
ZCURVE	TABLE
	Pt	Time	Freq	Zreal	Zimag	Zsig	Zmod	Zphz	Idc	Vdc	IERange	Imod	Vmod	Temp
	#	s	Hz	ohm	ohm	V	ohm	°	A	V	#	A	V	°C
	0	5	100078.1	0.1014393	0.2373617	1	0.2581289	66.85999	2.71172E-005	3.908602	11	0.1596735	0.0409163	-327.6853
	1	6	79453.13	0.0848923	0.1972057	1	0.2147016	66.70929	1.664023E-005	3.908611	11	0.1642888	0.03511	-327.6853
	2	8	63140.62	0.0719104	0.1633578	1	0.1784849	66.24082	5.186899E-006	3.908607	11	0.1619723	0.0288244	-327.6853
	3	10	50203.12	0.0618648	0.1349054	1	0.148414	65.36481	-2.156885E-006	3.908606	11	0.1609394	0.0238408	-327.6853
	4	11	39890.62	0.0541476	0.1110575	1	0.1235546	64.00785	-8.11764E-006	3.908599	11	0.1602741	0.0197789	-327.6853
	5	13	31640.63	0.0482327	0.0911711	1	0.1031434	62.11958	-1.138472E-005	3.908589	11	0.159838	0.0164738	-327.6853
	6	15	25171.88	0.0437086	0.0750474	1	0.0868478	59.78294	-1.25707E-005	3.908593	11	0.1595545	0.0138503	-327.6853
	7	16	20015.62	0.0400875	0.0618067	1	0.0736687	57.03277	-2.076686E-005	3.908586	11	0.1593535	0.0117358	-327.6853
	8	18	15890.62	0.0370898	0.0508589	1	0.0629466	53.89788	-1.398544E-005	3.908577	11	0.15923	0.0100211	-327.6853
	9	20	12609.38	0.0345682	0.0417901	1	0.0542344	50.4029	-2.061925E-005	3.908571	11	0.1591391	0.0086298	-327.6853
	10	22	10078.13	0.032528	0.0344102	1	0.0473512	46.61065	-1.778232E-005	3.908575	11	0.1590827	0.0075322	-327.6853
	11	23	8015.625	0.0308442	0.0280308	1	0.0416784	42.26416	-2.256461E-005	3.908572	11	0.1590593	0.006629	-327.6853
	12	25	6328.125	0.0295568	0.0224733	1	0.0371302	37.24722	-1.627894E-005	3.908568	11	0.1590273	0.0059045	-327.6853
	13	26	5015.625	0.0286473	0.0179255	1	0.0337934	32.03538	-2.008828E-005	3.908552	11	0.1590154	0.0053736	-327.6853
	14	28	3984.375	0.0280505	0.0141635	1	0.0314235	26.79059	-1.489278E-005	3.908563	11	0.1590105	0.0049966	-327.6853
	15	29	3170.956	0.0277019	0.0110947	1	0.029841	21.82633	-3.018114E-005	3.908548	11	0.1590044	0.0047448	-327.6853
	16	31	2527.573	0.027545	0.0086048	1	0.0288578	17.3482	-3.09553E-005	3.908542	11	0.1590035	0.0045885	-327.6853
	17	33	1976.103	0.0275113	0.0064429	1	0.0282557	13.18069	-3.065774E-005	3.908542	11	0.159007	0.0044928	-327.6853
	18	34	1577.524	0.0275821	0.0047356	1	0.0279857	9.74219	-3.236986E-005	3.908538	11	0.1589961	0.0044496	-327.6853
	19	36	1265.625	0.0277138	0.0034686	1	0.0279301	7.133882	-2.123603E-005	3.908528	11	0.1589985	0.0044408	-327.6853
	20	37	998.264	0.0279162	0.0023774	1	0.0280172	4.867771	-1.845427E-005	3.908539	11	0.1590065	0.0044549	-327.6853
	21	39	796.875	0.0280969	0.0015091	1	0.0281374	3.074349	-3.004982E-005	3.908529	11	0.1589945	0.0044737	-327.6853
	22	40	627.7902	0.0283475	0.0008571	1	0.0283605	1.731864	-1.578184E-005	3.908539	11	0.1590063	0.0045095	-327.6853
	23	42	505.5147	0.0285676	0.0003049	1	0.0285693	0.6114865	-1.890736E-005	3.908531	11	0.157596	0.0044774	-327.6853
	24	43	397.9953	0.0288413	-0.0001239	1	0.0288416	-0.2461565	-1.955999E-005	3.908527	11	0.1606038	0.0046131	-327.6853
	25	45	315.5048	0.0291064	-0.0004716	1	0.0291102	-0.928347	-1.890713E-005	3.908525	11	0.159337	0.0046253	-327.6853
	26	46	252.4038	0.0293603	-0.0007325	1	0.0293694	-1.429102	-1.815474E-005	3.908523	11	0.1589682	0.00466	-327.6853
	27	48	198.6229	0.0296466	-0.0009612	1	0.0296622	-1.856921	-1.958141E-005	3.908522	11	0.1588784	0.004707	-327.6853
	28	49	158.3615	0.0299101	-0.0011365	1	0.0299317	-2.176022	-1.417709E-005	3.908516	11	0.1588908	0.0047522	-327.6853
	29	51	125.558	0.0301863	-0.0012602	1	0.0302126	-2.39051	-2.093671E-005	3.908517	11	0.1589075	0.0047986	-327.6853
	30	52	100.4464	0.0304593	-0.0013562	1	0.0304895	-2.549446	-2.484058E-005	3.908512	11	0.1589469	0.0048447	-327.6853
	31	54	79.00281	0.0307492	-0.0014219	1	0.0307821	-2.647547	-2.092333E-005	3.908506	11	0.1589555	0.004892	-327.6853
	32	56	63.3446	0.0310209	-0.0014534	1	0.0310549	-2.682469	-2.026826E-005	3.908503	11	0.1589751	0.0049363	-327.6853
	33	58	50.22321	0.0312969	-0.0014582	1	0.0313308	-2.667677	-1.82449E-005	3.908501	11	0.1589822	0.0049806	-327.6853
	34	59	38.42213	0.0316082	-0.0014328	1	0.0316407	-2.595353	-2.174964E-005	3.9085	11	0.1589847	0.0050301	-327.6853
	35	61	31.25	0.0318359	-0.00139	1	0.0318662	-2.499991	-4.815985E-006	3.908492	11	0.158992	0.0050663	-327.6853
	36	63	24.93351	0.0320705	-0.0013193	1	0.0320977	-2.355633	-1.963263E-005	3.908499	11	0.1590012	0.0051035	-327.6853
	37	64	19.86229	0.0322705	-0.0012377	1	0.0322943	-2.196466	-2.395309E-005	3.908486	11	0.1589972	0.0051346	-327.6853
	38	66	15.625	0.0324707	-0.0011599	1	0.0324914	-2.045761	-4.101184E-005	3.908495	11	0.1589775	0.0051654	-327.6853
	39	67	12.40079	0.0326218	-0.0010791	1	0.0326396	-1.894563	-3.832846E-005	3.908477	11	0.1590053	0.0051898	-327.6853
	40	69	9.93114	0.0327625	-0.0009954	1	0.0327776	-1.740265	-5.168584E-005	3.908468	11	0.158989	0.0052113	-327.6853
	41	70	7.944915	0.0328791	-0.000933	1	0.0328924	-1.625456	-1.356409E-005	3.908479	11	0.1589984	0.0052298	-327.6853
	42	72	6.317385	0.0329752	-0.0008856	1	0.0329871	-1.538458	6.893766E-005	3.908485	11	0.1590378	0.0052462	-327.6853
	43	74	5.008013	0.0330665	-0.0008358	1	0.033077	-1.447906	-4.06279E-005	3.908465	11	0.1589863	0.0052588	-327.6853
	44	77	3.945707	0.033162	-0.0008284	1	0.0331723	-1.430951	-5.426689E-005	3.908472	11	0.1589732	0.0052735	-327.6853
	45	79	3.158693	0.0332542	-0.0008252	1	0.0332644	-1.421567	-0.000117	3.908477	11	0.1589855	0.0052886	-327.6853
	46	82	2.504006	0.0333502	-0.0008177	1	0.0333602	-1.40461	-5.885959E-006	3.908476	11	0.1554649	0.0051648	-327.6853
	47	86	1.998082	0.0334383	-0.0008405	1	0.0334489	-1.439884	-0.0002506	3.908448	11	0.1614558	0.0053842	-327.6853
	48	89	1.584686	0.0335423	-0.0008739	1	0.0335537	-1.492453	-0.0001395	3.908448	11	0.1597832	0.0053504	-327.6853
	49	94	1.266892	0.0336451	-0.0009209	1	0.0336577	-1.56785	0.000141	3.908406	11	0.1593448	0.0053559	-327.6853
	50	99	0.999041	0.0337647	-0.0009797	1	0.0337789	-1.66199	0.0001656	3.908411	11	0.1591131	0.00537	-327.6853
	51	103	0.7923428	0.0339158	-0.0010428	1	0.0339318	-1.761176	-4.031506E-005	3.908466	11	0.1592166	0.0053995	-327.6853
	52	110	0.6334459	0.0340319	-0.0011181	1	0.0340503	-1.881746	-3.900836E-005	3.908435	11	0.158983	0.0054115	-327.6853
	53	119	0.5040323	0.0341806	-0.0012056	1	0.0342019	-2.020017	-4.027248E-005	3.908414	11	0.1589822	0.0054363	-327.6853
	54	131	0.400641	0.0343334	-0.0013016	1	0.034358	-2.17114	-3.991948E-005	3.90839	11	0.1589863	0.0054617	-327.6853
	55	142	0.316723	0.0344998	-0.0014243	1	0.0345292	-2.364076	-3.931607E-005	3.908374	11	0.1589902	0.0054893	-327.6853
	56	157	0.2520161	0.0346829	-0.0015505	1	0.0347175	-2.559644	-3.94464E-005	3.908345	11	0.1589929	0.0055195	-327.6853
	57	178	0.2003205	0.0348745	-0.0016943	1	0.0349156	-2.781453	-4.027327E-005	3.908305	11	0.1589953	0.0055512	-327.6853
	58	204	0.1588983	0.0350906	-0.0018603	1	0.0351399	-3.034573	-3.945436E-005	3.908277	11	0.1589985	0.0055871	-327.6853
	59	230	0.1260081	0.0353604	-0.0020446	1	0.0354195	-3.309267	-3.962892E-005	3.908306	11	0.1589984	0.0056316	-327.6853
	60	260	0.1001603	0.0356315	-0.0022598	1	0.0357031	-3.628987	-4.239701E-005	3.908373	11	0.1589992	0.0056767	-327.6853
	61	306	0.0794492	0.035951	-0.0025109	1	0.0360386	-3.995255	-3.98046E-005	3.908459	11	0.1589993	0.0057301	-327.6853
	62	345	0.0631739	0.0361814	-0.0027966	1	0.0362893	-4.419796	-3.746042E-005	3.908273	11	0.159	0.00577	-327.6853
	63	394	0.0501337	0.0364983	-0.0031178	1	0.0366312	-4.882505	-4.12411E-005	3.908165	11	0.1589987	0.0058243	-327.6853
	64	456	0.0398258	0.0368468	-0.0034992	1	0.0370126	-5.424927	-4.636901E-005	3.908056	11	0.1590008	0.005885	-327.6853
	65	533	0.0316296	0.0372316	-0.0039582	1	0.0374414	-6.068562	-4.158286E-005	3.90793	11	0.1590005	0.0059532	-327.6853
	66	661	0.0251206	0.037664	-0.00448	1	0.0379295	-6.783226	-4.668001E-005	3.907783	11	0.159	0.0060308	-327.6853
	67	821	0.0199553	0.0381598	-0.0051084	1	0.0385002	-7.624733	-3.962016E-005	3.907656	11	0.1589996	0.0061215	-327.6853
	68	973	0.0158522	0.0387363	-0.0058461	1	0.039175	-8.582261	-4.030726E-005	3.907531	11	0.1590007	0.0062288	-327.6853
	69	1164	0.0125907	0.0393886	-0.0067108	1	0.0399562	-9.6689	-4.049358E-005	3.907399	11	0.1589998	0.006353	-327.6853
	70	1404	0.0100011	0.0402101	-0.0076789	1	0.0409368	-10.8116	-4.030643E-005	3.907206	11	0.1589997	0.0065089	-327.6853
