EXPLAIN
TAG	GALVEIS
TITLE	LABEL	Galvanostatic EIS	Test Identifier
DATE	LABEL	22.4.2024	Date
TIME	LABEL	21:51:35	Time
NOTES	NOTES	1	Notes...
	
PSTAT	PSTAT	REF600-12055	Potentiostat
FREQINIT	QUANT	1.00000E+005	Initial Freq. (Hz)
FREQFINAL	QUANT	1.00000E-002	Final Freq. (Hz)
PTSPERDEC	QUANT	1.00000E+001	Points/decade
IACREQ	QUANT	1.59000E-001	AC Current (A rms)
IDCREQ	QUANT	0.00000E+000	DC Current (A)
AREA	QUANT	1.00000E+000	Sample Area (cm^2)
SPEED	SELECTOR	1	Optimize for:
DRIFTCOR	SELECTOR	0	Drift Correction
THD	SELECTOR	0	THD
ZGUESS	QUANT	1.00000E-001	Estimated Z (ohms)
EOC	QUANT	4.06104	Open Circuit (V)
SEQUENCER	TOGGLE	TRUE	Run as Sequence
PSTATMODEL	IQUANT	4	Pstat Model
PSTATSECTION	LABEL	REF600-12055	Pstat Section
PSTATSERIALNO	LABEL	12055	Pstat Serial Number
CTRLMODE	IQUANT	0	Control Mode
ELECTROMETER	IQUANT	0	RE=0 or CS=1
IESTAB	IQUANT	0	I/E Stability
CASPEED	IQUANT	4	Control Amp Speed
CONVENTION	IQUANT	1	Current Convention
ICHRANGE	IQUANT	2	Ich Range
ICHRANGEMODE	TOGGLE	F	Ich Auto Range
ICHOFFSETENABLE	TOGGLE	T	Ich Offset Enable
ICHOFFSET	QUANT	0	Ich Offset (V)
ICHFILTER	IQUANT	3	Ich Filter
VCHRANGE	IQUANT	2	Vch Range
VCHRANGEMODE	TOGGLE	F	Vch Auto Range
VCHOFFSETENABLE	TOGGLE	T	Vch Offset Enable
VCHOFFSET	QUANT	0	Vch Offset (V)
VCHFILTER	IQUANT	3	Vch Filter
ACHRANGE	IQUANT	2	Ach Range
ACHOFFSETENABLE	TOGGLE	F	Ach Offset Enable
ACHOFFSET	QUANT	0	Ach Offset (V)
ACHFILTER	IQUANT	1	Ach Filter
IERANGELOWERLIMIT	IQUANT	1	I/E Range Lower Limit
IERANGEMODE	TOGGLE	F	I/E AutoRange
IERANGE	IQUANT	7	I/E Range
POSFEEDENABLE	TOGGLE	F	Positive Feedback IR Comp
POSFEEDRESISTANCE	QUANT	0	Positive Feedback Resistance (ohm)
ACHSELECT	IQUANT	4	Ach Select
SENSECABLEID	IQUANT	14	Sense Cable ID
PWRCABLEID	IQUANT	14	Power Cable ID
DCCALDATE	LABEL	2/12/2024	DC Calibration Date
ACCALDATE	LABEL	2/12/2024	AC Calibration Date
THERMOSELECT	IQUANT	1	Thermo Select
FRAMEWORKVERSION	LABEL	7.10.3	Framework Version
INSTRUMENTVERSION	LABEL	4.91	Instrument Version
COMMVERSION	LABEL	2.24	Communications Version
CPUPLDVERSION	LABEL	0.00	CPU PLD Version
CTRLPLDVERSION	LABEL	0.00	CTRL PLD Version
PSTATPLDVERSION	LABEL	0.00	PSTAT PLD Version
ZCURVE	TABLE
	Pt	Time	Freq	Zreal	Zimag	Zsig	Zmod	Zphz	Idc	Vdc	IERange	Imod	Vmod	Temp
	#	s	Hz	ohm	ohm	V	ohm	°	A	V	#	A	V	°C
	0	5	100078.1	0.1014341	0.2371499	1	0.2579321	66.84256	3.269559E-005	4.060864	11	0.1596871	0.0408886	-327.6853
	1	6	79453.13	0.084874	0.1970412	1	0.2145433	66.6964	1.399918E-005	4.060853	11	0.1642835	0.035083	-327.6853
	2	8	63140.62	0.0718912	0.1632316	1	0.1783617	66.23014	5.303533E-006	4.060851	11	0.1619727	0.0288046	-327.6853
	3	10	50203.12	0.0618476	0.1348041	1	0.1483148	65.3545	-3.492692E-006	4.060845	11	0.1609393	0.0238248	-327.6853
	4	11	39890.62	0.0541431	0.1109763	1	0.1234796	63.99317	-6.594346E-006	4.060839	11	0.1602857	0.0197684	-327.6853
	5	13	31640.63	0.0482252	0.0910977	1	0.1030751	62.10418	-1.197041E-005	4.060829	11	0.1598392	0.016463	-327.6853
	6	15	25171.88	0.0437027	0.0749819	1	0.0867883	59.76453	-1.720479E-005	4.060814	11	0.1595461	0.0138401	-327.6853
	7	17	20015.62	0.0400839	0.0617588	1	0.0736265	57.01485	-1.23299E-005	4.060794	11	0.1593551	0.0117292	-327.6853
	8	18	15890.62	0.0370936	0.0508193	1	0.0629169	53.87385	-1.345453E-005	4.060807	11	0.1592274	0.0100162	-327.6853
	9	20	12609.38	0.0345592	0.0417574	1	0.0542035	50.38825	-2.180669E-005	4.060798	11	0.1591463	0.0086252	-327.6853
	10	21	10078.13	0.0325316	0.0343801	1	0.0473317	46.58245	-1.840736E-005	4.060781	11	0.1590822	0.0075291	-327.6853
	11	23	8015.625	0.030855	0.0280018	1	0.0416669	42.22462	-1.545378E-005	4.060783	11	0.1590523	0.0066269	-327.6853
	12	25	6328.125	0.0295497	0.0224549	1	0.0371134	37.23127	-1.67602E-005	4.060777	11	0.1590311	0.005902	-327.6853
	13	27	5015.625	0.0286451	0.0179057	1	0.033781	32.00906	-1.414272E-005	4.060763	11	0.1590149	0.0053716	-327.6853
	14	28	3984.375	0.0280576	0.0141636	1	0.0314299	26.78494	-2.145534E-005	4.06075	11	0.1590106	0.0049976	-327.6853
	15	30	3170.956	0.0277123	0.0110631	1	0.029839	21.76249	-1.679827E-005	4.060755	11	0.1590036	0.0047445	-327.6853
	16	31	2527.573	0.0275579	0.0085936	1	0.0288667	17.31938	-1.632178E-005	4.060735	11	0.1590062	0.00459	-327.6853
	17	33	1976.103	0.0275142	0.0064149	1	0.0282521	13.12393	-1.763436E-005	4.060739	11	0.1590042	0.0044922	-327.6853
	18	35	1577.524	0.0275996	0.0047931	1	0.0280127	9.85198	-1.729798E-005	4.060733	11	0.1589997	0.004454	-327.6853
	19	36	1265.625	0.0277268	0.0035045	1	0.0279474	7.203645	-2.217374E-005	4.06072	11	0.1590017	0.0044437	-327.6853
	20	38	998.264	0.0279054	0.0023303	1	0.0280025	4.773636	-2.413167E-005	4.060716	11	0.1589939	0.0044522	-327.6853
	21	39	796.875	0.0281178	0.0014965	1	0.0281576	3.046503	-2.350018E-005	4.060708	11	0.1590004	0.0044771	-327.6853
	22	41	627.7902	0.0283693	0.0007821	1	0.02838	1.579144	-1.611013E-005	4.060704	11	0.1590049	0.0045126	-327.6853
	23	42	505.5147	0.028596	0.0002647	1	0.0285972	0.5302644	-1.564156E-005	4.0607	11	0.1575944	0.0044817	-327.6853
	24	44	397.9953	0.0288768	-0.0001685	1	0.0288773	-0.334314	-1.930224E-005	4.060695	11	0.160603	0.0046187	-327.6853
	25	45	315.5048	0.0291452	-0.0005215	1	0.0291498	-1.025052	-3.142597E-005	4.060686	11	0.1593405	0.0046317	-327.6853
	26	47	252.4038	0.0294008	-0.0007885	1	0.0294113	-1.536224	-3.411213E-005	4.060678	11	0.1589672	0.0046666	-327.6853
	27	48	198.6229	0.0296748	-0.0010316	1	0.0296928	-1.99094	-2.948602E-005	4.060674	11	0.1588763	0.0047118	-327.6853
	28	50	158.3615	0.029953	-0.0012186	1	0.0299778	-2.329762	-1.491432E-005	4.060669	11	0.1588895	0.0047594	-327.6853
	29	52	125.558	0.0302315	-0.0013655	1	0.0302623	-2.586162	-2.347329E-005	4.060663	11	0.1589102	0.0048066	-327.6853
	30	53	100.4464	0.0305054	-0.0014825	1	0.0305414	-2.782237	-1.360057E-005	4.060657	11	0.1589448	0.0048528	-327.6853
	31	55	79.00281	0.0308131	-0.0015874	1	0.030854	-2.94913	-1.889933E-005	4.060654	11	0.1589596	0.0049036	-327.6853
	32	56	63.3446	0.0310959	-0.0016534	1	0.0311399	-3.043623	-1.898757E-005	4.060645	11	0.1589727	0.0049498	-327.6853
	33	58	50.22321	0.0313978	-0.0017054	1	0.0314441	-3.109035	-3.192353E-005	4.060638	11	0.1589801	0.0049986	-327.6853
	34	60	38.42213	0.0317521	-0.0017378	1	0.0317996	-3.132654	-2.771139E-005	4.060625	11	0.1589883	0.0050555	-327.6853
	35	61	31.25	0.0320228	-0.0017432	1	0.0320702	-3.115911	-2.792472E-005	4.060624	11	0.1589987	0.005099	-327.6853
	36	63	24.93351	0.0323251	-0.0017278	1	0.0323712	-3.059553	-1.824135E-005	4.060622	11	0.1589915	0.0051466	-327.6853
	37	64	19.86229	0.0326114	-0.0016821	1	0.0326547	-2.952698	5.501206E-006	4.060608	11	0.1589856	0.0051916	-327.6853
	38	66	15.625	0.0329169	-0.001631	1	0.0329573	-2.836694	-2.493698E-005	4.060611	11	0.1590019	0.0052402	-327.6853
	39	67	12.40079	0.0331695	-0.0015507	1	0.0332057	-2.67674	-4.858477E-006	4.060613	11	0.1589985	0.0052796	-327.6853
	40	69	9.93114	0.0333993	-0.0014752	1	0.0334318	-2.52904	-2.44019E-005	4.060598	11	0.1590062	0.0053159	-327.6853
	41	71	7.944915	0.0336056	-0.0013839	1	0.0336341	-2.358169	1.181033E-005	4.060587	11	0.1589991	0.0053478	-327.6853
	42	72	6.317385	0.0337871	-0.0012967	1	0.033812	-2.197774	-8.765492E-006	4.060571	11	0.1589564	0.0053746	-327.6853
	43	74	5.008013	0.0339567	-0.001222	1	0.0339787	-2.060958	2.739078E-005	4.060553	11	0.1590138	0.0054031	-327.6853
	44	77	3.945707	0.0341145	-0.001146	1	0.0341337	-1.923929	-3.032252E-005	4.06055	11	0.1590303	0.0054283	-327.6853
	45	79	3.158693	0.0342344	-0.0011041	1	0.0342522	-1.84715	2.356002E-005	4.060531	11	0.1590137	0.0054466	-327.6853
	46	82	2.504006	0.0343719	-0.0010653	1	0.0343884	-1.775286	3.498653E-005	4.060503	11	0.155377	0.005321	-327.6853
	47	85	1.998082	0.034489	-0.0010583	1	0.0345052	-1.757581	-0.0001726	4.060463	11	0.1614141	0.0055528	-327.6853
	48	89	1.584686	0.0346067	-0.0010581	1	0.0346228	-1.751272	-0.0003249	4.060452	11	0.1600365	0.0055296	-327.6853
	49	93	1.266892	0.0347275	-0.0010798	1	0.0347442	-1.780876	0.0002154	4.060485	11	0.1592469	0.0055254	-327.6853
	50	99	0.999041	0.034866	-0.0011115	1	0.0348837	-1.825922	0.0001836	4.060485	11	0.1590445	0.0055433	-327.6853
	51	104	0.7923428	0.0350149	-0.0011494	1	0.0350337	-1.880093	-3.531348E-005	4.060469	11	0.1592103	0.0055747	-327.6853
	52	112	0.6334459	0.0351553	-0.0012042	1	0.0351759	-1.961791	-4.102747E-005	4.060431	11	0.1589843	0.0055904	-327.6853
	53	122	0.5040323	0.0353019	-0.0012784	1	0.035325	-2.073977	-3.885213E-005	4.060399	11	0.1589824	0.0056148	-327.6853
	54	131	0.400641	0.0354635	-0.0013667	1	0.0354898	-2.206998	-3.986266E-005	4.060366	11	0.1589856	0.0056416	-327.6853
	55	145	0.316723	0.0356311	-0.0014826	1	0.035662	-2.382665	-3.94542E-005	4.060308	11	0.1589907	0.0056694	-327.6853
	56	163	0.2520161	0.0358173	-0.0016061	1	0.0358533	-2.567498	-3.988484E-005	4.060249	11	0.1589931	0.0057001	-327.6853
	57	184	0.2003205	0.0360218	-0.0017547	1	0.0360645	-2.788813	-4.053648E-005	4.06019	11	0.1589963	0.0057339	-327.6853
	58	205	0.1588983	0.0362379	-0.001923	1	0.0362889	-3.037616	-4.083517E-005	4.060104	11	0.158996	0.0057697	-327.6853
	59	237	0.1260081	0.0364919	-0.0021295	1	0.036554	-3.339751	-4.048555E-005	4.060079	11	0.1589986	0.005812	-327.6853
	60	275	0.1001603	0.0367897	-0.0023596	1	0.0368653	-3.669721	-4.07214E-005	4.060113	11	0.1589992	0.0058615	-327.6853
	61	321	0.0794492	0.0371107	-0.0026325	1	0.037204	-4.057635	-4.052158E-005	4.060116	11	0.1590003	0.0059154	-327.6853
	62	373	0.0631739	0.037367	-0.0029523	1	0.0374834	-4.517493	-4.115106E-005	4.059851	11	0.1589982	0.0059598	-327.6853
	63	438	0.0501337	0.0377151	-0.0033168	1	0.0378606	-5.02591	-4.148665E-005	4.059693	11	0.1590025	0.0060199	-327.6853
	64	499	0.0398258	0.0380981	-0.0037363	1	0.0382809	-5.601161	-4.18147E-005	4.059489	11	0.1589979	0.0060866	-327.6853
	65	601	0.0316296	0.0385417	-0.0042285	1	0.038773	-6.261065	-3.972341E-005	4.059302	11	0.1590012	0.0061649	-327.6853
	66	698	0.0251206	0.0390347	-0.0047987	1	0.0393285	-7.008426	-3.996326E-005	4.059119	11	0.1589999	0.0062532	-327.6853
	67	819	0.0199553	0.0395968	-0.0054618	1	0.0399718	-7.853618	-4.639904E-005	4.058863	11	0.1589998	0.0063555	-327.6853
	68	1021	0.0158522	0.0402243	-0.0062314	1	0.0407041	-8.806095	-4.079862E-005	4.058615	11	0.1589986	0.0064719	-327.6853
	69	1212	0.0125907	0.0409079	-0.007123	1	0.0415234	-9.87749	-4.53343E-005	4.058355	11	0.1590015	0.0066023	-327.6853
	70	1531	0.0100011	0.0416487	-0.008118	1	0.0424325	-11.0296	-4.109513E-005	4.058055	11	0.1589993	0.0067467	-327.6853
