EXPLAIN
TAG	GALVEIS
TITLE	LABEL	Galvanostatic EIS	Test Identifier
DATE	LABEL	22.4.2024	Date
TIME	LABEL	11:15:01	Time
NOTES	NOTES	1	Notes...
	
PSTAT	PSTAT	REF600-12055	Potentiostat
FREQINIT	QUANT	1.00000E+005	Initial Freq. (Hz)
FREQFINAL	QUANT	1.00000E-002	Final Freq. (Hz)
PTSPERDEC	QUANT	1.00000E+001	Points/decade
IACREQ	QUANT	1.59000E-001	AC Current (A rms)
IDCREQ	QUANT	0.00000E+000	DC Current (A)
AREA	QUANT	1.00000E+000	Sample Area (cm^2)
SPEED	SELECTOR	1	Optimize for:
DRIFTCOR	SELECTOR	0	Drift Correction
THD	SELECTOR	0	THD
ZGUESS	QUANT	1.00000E-001	Estimated Z (ohms)
EOC	QUANT	3.397686	Open Circuit (V)
SEQUENCER	TOGGLE	TRUE	Run as Sequence
PSTATMODEL	IQUANT	4	Pstat Model
PSTATSECTION	LABEL	REF600-12055	Pstat Section
PSTATSERIALNO	LABEL	12055	Pstat Serial Number
CTRLMODE	IQUANT	0	Control Mode
ELECTROMETER	IQUANT	0	RE=0 or CS=1
IESTAB	IQUANT	0	I/E Stability
CASPEED	IQUANT	4	Control Amp Speed
CONVENTION	IQUANT	1	Current Convention
ICHRANGE	IQUANT	2	Ich Range
ICHRANGEMODE	TOGGLE	F	Ich Auto Range
ICHOFFSETENABLE	TOGGLE	T	Ich Offset Enable
ICHOFFSET	QUANT	0	Ich Offset (V)
ICHFILTER	IQUANT	3	Ich Filter
VCHRANGE	IQUANT	2	Vch Range
VCHRANGEMODE	TOGGLE	F	Vch Auto Range
VCHOFFSETENABLE	TOGGLE	T	Vch Offset Enable
VCHOFFSET	QUANT	0	Vch Offset (V)
VCHFILTER	IQUANT	3	Vch Filter
ACHRANGE	IQUANT	2	Ach Range
ACHOFFSETENABLE	TOGGLE	F	Ach Offset Enable
ACHOFFSET	QUANT	0	Ach Offset (V)
ACHFILTER	IQUANT	1	Ach Filter
IERANGELOWERLIMIT	IQUANT	1	I/E Range Lower Limit
IERANGEMODE	TOGGLE	F	I/E AutoRange
IERANGE	IQUANT	7	I/E Range
POSFEEDENABLE	TOGGLE	F	Positive Feedback IR Comp
POSFEEDRESISTANCE	QUANT	0	Positive Feedback Resistance (ohm)
ACHSELECT	IQUANT	4	Ach Select
SENSECABLEID	IQUANT	14	Sense Cable ID
PWRCABLEID	IQUANT	14	Power Cable ID
DCCALDATE	LABEL	2/12/2024	DC Calibration Date
ACCALDATE	LABEL	2/12/2024	AC Calibration Date
THERMOSELECT	IQUANT	1	Thermo Select
FRAMEWORKVERSION	LABEL	7.10.3	Framework Version
INSTRUMENTVERSION	LABEL	4.91	Instrument Version
COMMVERSION	LABEL	2.24	Communications Version
CPUPLDVERSION	LABEL	0.00	CPU PLD Version
CTRLPLDVERSION	LABEL	0.00	CTRL PLD Version
PSTATPLDVERSION	LABEL	0.00	PSTAT PLD Version
ZCURVE	TABLE
	Pt	Time	Freq	Zreal	Zimag	Zsig	Zmod	Zphz	Idc	Vdc	IERange	Imod	Vmod	Temp
	#	s	Hz	ohm	ohm	V	ohm	°	A	V	#	A	V	°C
	0	5	100078.1	0.1012944	0.2386724	1	0.2592779	67.00326	3.231206E-005	3.397597	11	0.159656	0.0410939	-327.6853
	1	7	79453.13	0.0848826	0.1981572	1	0.2155721	66.81165	1.314065E-005	3.39759	11	0.1642922	0.0352531	-327.6853
	2	9	63140.62	0.0720159	0.1640619	1	0.179172	66.30067	1.100838E-006	3.397576	11	0.1619685	0.0289347	-327.6853
	3	10	50203.12	0.0620719	0.135439	1	0.1489854	65.37794	-4.501897E-006	3.397576	11	0.160943	0.0239331	-327.6853
	4	12	39890.62	0.054415	0.1114682	1	0.1240409	63.97995	-6.85337E-006	3.397567	11	0.1602727	0.0198566	-327.6853
	5	14	31640.63	0.0485235	0.0914772	1	0.1035501	62.05658	-2.228311E-005	3.397546	11	0.1598389	0.0165388	-327.6853
	6	15	25171.88	0.0440207	0.075291	1	0.0872156	59.68629	-2.44074E-005	3.397536	11	0.1595452	0.0139082	-327.6853
	7	17	20015.62	0.0404283	0.0619965	1	0.0740136	56.89137	-1.625868E-005	3.39752	11	0.1593558	0.0117909	-327.6853
	8	19	15890.62	0.0374318	0.0510164	1	0.0632756	53.73174	-1.690839E-005	3.397505	11	0.1592269	0.0100733	-327.6853
	9	20	12609.38	0.0349095	0.0419052	1	0.054541	50.20373	-1.838664E-005	3.397503	11	0.1591426	0.0086788	-327.6853
	10	22	10078.13	0.0328829	0.0344966	1	0.0476581	46.37195	-2.597063E-005	3.397487	11	0.1590874	0.0075812	-327.6853
	11	24	8015.625	0.031204	0.0280938	1	0.0419875	41.99753	-3.147009E-005	3.397479	11	0.1590512	0.0066778	-327.6853
	12	25	6328.125	0.0298902	0.0225257	1	0.0374277	37.00228	-2.971914E-005	3.397466	11	0.1590305	0.005952	-327.6853
	13	27	5015.625	0.0289934	0.0179493	1	0.0340998	31.76081	-2.836058E-005	3.397458	11	0.1590214	0.0054225	-327.6853
	14	29	3984.375	0.028392	0.0141667	1	0.0317301	26.51776	-2.187659E-005	3.397463	11	0.1590035	0.0050451	-327.6853
	15	30	3170.956	0.0280472	0.0110764	1	0.0301551	21.55003	-2.20642E-005	3.397446	11	0.1590114	0.004795	-327.6853
	16	32	2527.573	0.0278879	0.00855	1	0.0291691	17.04482	-1.547032E-005	3.397446	11	0.1590027	0.0046379	-327.6853
	17	33	1976.103	0.0278738	0.0063204	1	0.0285814	12.77573	-1.864928E-005	3.397427	11	0.1590056	0.0045446	-327.6853
	18	35	1577.524	0.0279326	0.0046941	1	0.0283243	9.53948	-2.623606E-005	3.397425	11	0.158998	0.0045035	-327.6853
	19	37	1265.625	0.02808	0.0032922	1	0.0282723	6.687116	-2.6408E-005	3.397412	11	0.1589965	0.0044952	-327.6853
	20	38	998.264	0.0282896	0.0021385	1	0.0283703	4.322869	-2.128497E-005	3.3974	11	0.1590016	0.0045109	-327.6853
	21	40	796.875	0.0285335	0.0012832	1	0.0285623	2.574903	-1.88147E-005	3.397389	11	0.1589974	0.0045413	-327.6853
	22	41	627.7902	0.0287889	0.0005815	1	0.0287948	1.157173	-1.852319E-005	3.39739	11	0.1590074	0.0045786	-327.6853
	23	43	505.5147	0.0290719	-2.807009E-005	1	0.0290719	-0.0553215	-1.906045E-005	3.39738	11	0.1575953	0.0045561	-327.6853
	24	44	397.9953	0.0293941	-0.0005093	1	0.0293985	-0.992675	-1.97526E-005	3.397372	11	0.1606013	0.0047021	-327.6853
	25	46	315.5048	0.0297098	-0.0008953	1	0.0297233	-1.72616	-1.866904E-005	3.397365	11	0.1593337	0.0047226	-327.6853
	26	47	252.4038	0.030021	-0.0012109	1	0.0300454	-2.309693	-2.075185E-005	3.397354	11	0.1589734	0.0047674	-327.6853
	27	49	198.6229	0.0303601	-0.0014859	1	0.0303964	-2.801915	-1.930387E-005	3.397345	11	0.1588775	0.0048235	-327.6853
	28	50	158.3615	0.0306928	-0.0017162	1	0.0307407	-3.200334	-1.931586E-005	3.397336	11	0.1588893	0.0048806	-327.6853
	29	52	125.558	0.0310372	-0.0019114	1	0.031096	-3.524024	-1.587742E-005	3.397328	11	0.158912	0.0049391	-327.6853
	30	53	100.4464	0.0313792	-0.0020848	1	0.0314484	-3.801115	-1.047645E-005	3.397321	11	0.1589429	0.0049969	-327.6853
	31	55	79.00281	0.0317494	-0.0022452	1	0.0318287	-4.045035	-1.973659E-005	3.39731	11	0.1589605	0.0050585	-327.6853
	32	56	63.3446	0.0321028	-0.002385	1	0.0321912	-4.248856	-1.976656E-005	3.397298	11	0.1589724	0.0051169	-327.6853
	33	58	50.22321	0.0324774	-0.0025228	1	0.0325752	-4.441725	-2.372323E-005	3.397291	11	0.1589818	0.0051785	-327.6853
	34	59	38.42213	0.03292	-0.0026836	1	0.0330292	-4.660343	-1.819851E-005	3.397273	11	0.1589882	0.005251	-327.6853
	35	61	31.25	0.0332687	-0.0028167	1	0.0333877	-4.839345	-2.705737E-005	3.397279	11	0.1590031	0.0053086	-327.6853
	36	62	24.93351	0.0336633	-0.0029704	1	0.0337941	-5.042678	-2.018805E-005	3.397263	11	0.1589876	0.0053727	-327.6853
	37	64	19.86229	0.0340642	-0.0031426	1	0.0342089	-5.27085	-9.897572E-006	3.397276	11	0.1589934	0.0054389	-327.6853
	38	66	15.625	0.0345548	-0.0033612	1	0.0347179	-5.555805	-3.3658E-006	3.397234	11	0.1589833	0.0055195	-327.6853
	39	67	12.40079	0.0350454	-0.0035694	1	0.0352267	-5.815602	2.282206E-006	3.397256	11	0.1589982	0.005601	-327.6853
	40	69	9.93114	0.0355631	-0.0037938	1	0.0357649	-6.089252	1.168635E-005	3.397268	11	0.1589939	0.0056864	-327.6853
	41	70	7.944915	0.0361719	-0.0040194	1	0.0363945	-6.340711	-5.282974E-005	3.397249	11	0.1590206	0.0057875	-327.6853
	42	72	6.317385	0.036853	-0.0042394	1	0.037096	-6.562143	6.065471E-005	3.397255	11	0.1590051	0.0058985	-327.6853
	43	74	5.008013	0.0376194	-0.0043926	1	0.037875	-6.660005	-4.354247E-005	3.397222	11	0.1589922	0.0060218	-327.6853
	44	76	3.945707	0.038435	-0.0044656	1	0.0386935	-6.627273	-2.709631E-005	3.397215	11	0.1590005	0.0061523	-327.6853
	45	79	3.158693	0.0392271	-0.00446	1	0.0394798	-6.486549	-0.0001117	3.397229	11	0.1589688	0.0062761	-327.6853
	46	81	2.504006	0.040052	-0.004343	1	0.0402868	-6.18869	-5.137466E-005	3.397235	11	0.1554446	0.0062363	-327.6853
	47	84	1.998082	0.0407679	-0.0041584	1	0.0409794	-5.824184	-4.747161E-005	3.397216	11	0.1613249	0.0065911	-327.6853
	48	89	1.584686	0.0414239	-0.0039354	1	0.0416104	-5.427025	0.0001403	3.397189	11	0.1599422	0.0066417	-327.6853
	49	95	1.266892	0.0419899	-0.0036872	1	0.0421514	-5.01834	-9.266532E-005	3.397077	11	0.1592653	0.0067042	-327.6853
	50	102	0.999041	0.0425087	-0.0034362	1	0.0426474	-4.621432	-3.254824E-005	3.397035	11	0.1590809	0.0067785	-327.6853
	51	108	0.7923428	0.0429788	-0.003206	1	0.0430982	-4.266046	-4.000994E-005	3.397106	11	0.159317	0.0068625	-327.6853
	52	115	0.6334459	0.0433525	-0.0030251	1	0.0434579	-3.991569	-4.644346E-005	3.39706	11	0.1589841	0.0069067	-327.6853
	53	123	0.5040323	0.0436899	-0.0028869	1	0.0437852	-3.780503	-3.843609E-005	3.397019	11	0.158981	0.0069595	-327.6853
	54	133	0.400641	0.0440091	-0.0028012	1	0.0440981	-3.642027	-4.194224E-005	3.396962	11	0.1589867	0.00701	-327.6853
	55	147	0.316723	0.0443224	-0.0027583	1	0.0444081	-3.561119	-3.815416E-005	3.396897	11	0.1589885	0.0070598	-327.6853
	56	164	0.2520161	0.0446008	-0.0027738	1	0.0446869	-3.558715	-4.13649E-005	3.39682	11	0.1589953	0.0071046	-327.6853
	57	185	0.2003205	0.0448858	-0.0028478	1	0.044976	-3.630246	-5.082975E-005	3.396743	11	0.1589955	0.0071507	-327.6853
	58	207	0.1588983	0.0451736	-0.0029795	1	0.0452718	-3.773582	-4.031941E-005	3.396654	11	0.1589971	0.0071979	-327.6853
	59	232	0.1260081	0.0454943	-0.0031802	1	0.0456053	-3.998682	-4.276263E-005	3.396669	11	0.1589984	0.0072511	-327.6853
	60	270	0.1001603	0.0458363	-0.003458	1	0.0459666	-4.314315	-4.183538E-005	3.396802	11	0.1589989	0.0073086	-327.6853
	61	317	0.0794492	0.0461981	-0.0038141	1	0.0463552	-4.71967	-3.961641E-005	3.396946	11	0.1589989	0.0073704	-327.6853
	62	368	0.0631739	0.0465033	-0.0042798	1	0.0466999	-5.25822	-4.290218E-005	3.396611	11	0.1589997	0.0074252	-327.6853
	63	433	0.0501337	0.0469101	-0.0048426	1	0.0471594	-5.893813	-3.512606E-005	3.396414	11	0.159	0.0074983	-327.6853
	64	495	0.0398258	0.0473747	-0.0055314	1	0.0476965	-6.659563	-3.961225E-005	3.39624	11	0.1589995	0.0075837	-327.6853
	65	572	0.0316296	0.047887	-0.0063634	1	0.0483079	-7.569392	-4.114607E-005	3.396062	11	0.1590003	0.007681	-327.6853
	66	668	0.0251206	0.0484478	-0.0074026	1	0.04901	-8.687333	-4.071667E-005	3.395802	11	0.1589989	0.0077925	-327.6853
	67	829	0.0199553	0.0491299	-0.0086745	1	0.0498898	-10.01314	-4.068994E-005	3.395502	11	0.1590016	0.0079326	-327.6853
	68	1031	0.0158522	0.0498987	-0.0102208	1	0.0509347	-11.57578	-4.019326E-005	3.395208	11	0.1589998	0.0080986	-327.6853
	69	1285	0.0125907	0.0508543	-0.0120782	1	0.052269	-13.36053	-3.892081E-005	3.394922	11	0.1589992	0.0083107	-327.6853
	70	1604	0.0100011	0.0520523	-0.0142575	1	0.0539696	-15.318	-4.061668E-005	3.39474	11	0.1590002	0.0085812	-327.6853
